#  HZ   S   DB   R     50.00 
! Rohde & Schwarz Vector Network Analyzer 
! Rohde-Schwarz,ZNB8-4Port,1311601044101761,1.95
! Created: UTC 2/19/2014, 8:14:20 PM
! freq[Hz]                db:S11                  ang:S11                 db:S21                  ang:S21                 db:S12                  ang:S12                 db:S22                  ang:S22
 3.000000000000000E5    -5.595547878547032E1     8.785600061233170E1    -9.970671129802774      -2.511156420458641E-1   -9.961544075637498      -2.980506302408397E-1   -5.014005178300840E1     7.430452587963909
 4.029850000000000E7    -5.249796881170904E1    -1.566135805833607E2    -1.000076647635680E1    -2.305580689920848      -1.000766015313764E1    -2.322483615964716      -5.023354507005592E1     3.838896984577028
 8.029700000000000E7    -5.173715115249106E1    -1.625421761746436E2    -1.001474867934915E1    -4.643378213292865      -1.000981025871375E1    -4.681783119842176      -4.772197965861156E1    -1.406201618240629E1
 1.202955000000000E8    -5.285519553924819E1    -1.640448186734126E2    -1.002554248747611E1    -6.990457274374596      -1.001731494571754E1    -7.053311409350862      -4.788500777283091E1    -2.234182688121689E1
 1.602940000000000E8    -5.217681121213162E1    -1.702874607418325E2    -1.002806704446218E1    -9.350195702574878      -1.003056203670733E1    -9.381386644381673      -4.854334976880506E1    -4.689456456176801E1
 2.002925000000000E8    -5.277149613770988E1    -1.788680826271171E2    -1.003045538755465E1    -1.168393031065332E1    -1.003265713039570E1    -1.174518364860529E1    -4.802061631677906E1    -5.207997283939790E1
 2.402910000000000E8    -5.552187594773063E1     1.778677076758913E2    -1.002418359697382E1    -1.416971482444378E1    -1.002124778790129E1    -1.408887159190258E1    -4.750657088117106E1    -6.893517835715525E1
 2.802895000000000E8    -5.363768798168914E1     1.780704333698229E2    -1.002681744323111E1    -1.647949319673032E1    -1.002359665364373E1    -1.653255308978757E1    -4.637499442445512E1    -8.042830515671211E1
 3.202880000000000E8    -5.287329293441098E1     1.791794232409657E2    -1.003358423385222E1    -1.882064262135699E1    -1.001969024853147E1    -1.888119844076600E1    -4.592096563170038E1    -8.782881968784731E1
 3.602865000000000E8    -5.224953011666394E1     1.780649314057291E2    -1.004012503143037E1    -2.121157841520559E1    -1.002690720660946E1    -2.116575563856253E1    -4.381266019219771E1    -8.959444243008478E1
 4.002850000000000E8    -5.200210671477021E1     1.686935880112087E2    -1.002963408462038E1    -2.353585647739114E1    -1.002488164441699E1    -2.355965989699538E1    -4.340178341202851E1    -9.584250579023467E1
 4.402835000000000E8    -5.253936190376663E1    -1.756509331425553E2    -1.002832273837404E1    -2.588594168074304E1    -1.002669553811952E1    -2.583240028362000E1    -4.263763345096435E1    -1.046520079225898E2
 4.802820000000000E8    -5.281153051969032E1     1.776635081639442E2    -1.003816425270085E1    -2.824071556656435E1    -1.002680686991516E1    -2.829355967681132E1    -4.176215677332155E1    -1.056489804542447E2
 5.202805000000000E8    -5.216457976178077E1    -1.756114763287059E2    -1.002715920409232E1    -3.064643215644965E1    -1.003077327208049E1    -3.057366664004496E1    -4.111277570890869E1    -1.115079406470369E2
 5.602790000000000E8    -5.392811276825441E1    -1.789338580659726E2    -1.003772935690551E1    -3.295080471728161E1    -1.002961778967562E1    -3.290697717929884E1    -4.024169085003152E1    -1.108664180220182E2
 6.002775000000000E8    -5.339361964586425E1    -1.728190531805512E2    -1.003482280044841E1    -3.523970234953512E1    -1.003229641147249E1    -3.523036967567057E1    -4.001453114355964E1    -1.166053190362885E2
 6.402760000000000E8    -5.314146600338790E1    -1.657057823550751E2    -1.003241481605287E1    -3.759864083200175E1    -1.002881516193627E1    -3.760792433926881E1    -3.961360275455321E1    -1.186508196849667E2
 6.802745000000000E8    -5.169107470132543E1    -1.725451854853020E2    -1.002773001347238E1    -4.000387692809858E1    -1.004139336360755E1    -3.996550207400036E1    -3.945335782034764E1    -1.219938433039888E2
 7.202730000000000E8    -5.337108586832069E1    -1.663080093665326E2    -1.003698396382816E1    -4.232839283126797E1    -1.003116494135509E1    -4.238648302192674E1    -3.859628384729707E1    -1.236186506093132E2
 7.602715000000000E8    -5.073709471717270E1    -1.637066454173784E2    -1.004180465816341E1    -4.465467039516729E1    -1.004875273350573E1    -4.471685789792877E1    -3.859192348596591E1    -1.271836402763818E2
 8.002700000000000E8    -5.112967435677842E1    -1.673652223025427E2    -1.004883837466049E1    -4.702571389292519E1    -1.004118480056331E1    -4.702653052346431E1    -3.863251106363776E1    -1.292942950242550E2
 8.402685000000000E8    -5.138596918455414E1    -1.500432795258972E2    -1.003807028441374E1    -4.938669709044919E1    -1.003993811890426E1    -4.937999834255027E1    -3.801251517546869E1    -1.307484000311149E2
 8.802670000000000E8    -5.235195253254090E1    -1.551536689907717E2    -1.003343607389717E1    -5.170051865613395E1    -1.003715945831035E1    -5.171317186691456E1    -3.772938604359261E1    -1.335240823872976E2
 9.202655000000000E8    -4.996227166414030E1    -1.605714479835325E2    -1.004244965962391E1    -5.404073689120852E1    -1.004413470269001E1    -5.404789541855632E1    -3.728334164388877E1    -1.336588181043201E2
 9.602640000000000E8    -4.987164324630538E1    -1.651860585381227E2    -1.004013245483436E1    -5.641890204135142E1    -1.004249663751039E1    -5.638752115485954E1    -3.727005614506498E1    -1.338002194929616E2
 1.000262500000000E9    -4.870045251133470E1    -1.675305355692786E2    -1.004351051114868E1    -5.877353824907352E1    -1.004493509559006E1    -5.875047549443399E1    -3.724276613185739E1    -1.359594502919007E2
 1.040261000000000E9    -4.783522206240112E1    -1.644977577244017E2    -1.004511324296494E1    -6.109606532852324E1    -1.005370382377434E1    -6.112206377895463E1    -3.685892542733092E1    -1.403042006036377E2
 1.080259500000000E9    -4.787453097609144E1    -1.634062324177461E2    -1.005965665661145E1    -6.339193380843392E1    -1.004913446029218E1    -6.345926721038465E1    -3.676954371786656E1    -1.413386577766760E2
 1.120258000000000E9    -4.770224159340057E1    -1.641249523837437E2    -1.003980638967757E1    -6.570607866441466E1    -1.005096740601473E1    -6.577502735206525E1    -3.631057057269153E1    -1.419534498412706E2
 1.160256500000000E9    -4.805705438481770E1    -1.710249403252382E2    -1.005121207692162E1    -6.809965811293839E1    -1.005185225264340E1    -6.810941209301825E1    -3.593482193627416E1    -1.443512502106359E2
 1.200255000000000E9    -4.759648376653703E1    -1.764604799387768E2    -1.004821900189864E1    -7.043160615929787E1    -1.004375948842430E1    -7.052391136187205E1    -3.574058191005531E1    -1.437176088778275E2
 1.240253500000000E9    -4.639536671328719E1    -1.765077067437650E2    -1.005700961780843E1    -7.283641419703390E1    -1.005587440015082E1    -7.278401005455433E1    -3.567492844920945E1    -1.432455383472405E2
 1.280252000000000E9    -4.615092537924413E1    -1.775119982095321E2    -1.006119956697075E1    -7.512830384663756E1    -1.003566306320207E1    -7.509290879788658E1    -3.564074390586407E1    -1.429600428094978E2
 1.320250500000000E9    -4.487784488890121E1    -1.698110448109613E2    -1.005753260290103E1    -7.743550118137684E1    -1.005154068683114E1    -7.744584423034829E1    -3.576659301443434E1    -1.454462087606570E2
 1.360249000000000E9    -4.558439387594363E1    -1.760068821493555E2    -1.005864312839349E1    -7.985235601308415E1    -1.005056057595233E1    -7.984155952945247E1    -3.558123997990884E1    -1.452859353605075E2
 1.400247500000000E9    -4.630169091112609E1    -1.722091256519946E2    -1.005521252751521E1    -8.220182079655852E1    -1.005037123632599E1    -8.215767669975213E1    -3.549304455937571E1    -1.489717687117487E2
 1.440246000000000E9    -4.557581496639914E1    -1.798261246678205E2    -1.006078196231847E1    -8.454017692003430E1    -1.005692459267870E1    -8.449846393118320E1    -3.546692027387538E1    -1.503817098673148E2
 1.480244500000000E9    -4.457872617167698E1     1.689577827524365E2    -1.005678121094211E1    -8.686809213371662E1    -1.005846142207598E1    -8.684597472265796E1    -3.487826089240721E1    -1.510007323530419E2
 1.520243000000000E9    -4.402601477868514E1     1.659743131972829E2    -1.005158613217762E1    -8.919574983505031E1    -1.005328332972916E1    -8.919812757438055E1    -3.477127967272881E1    -1.509185916206558E2
 1.560241500000000E9    -4.296021338961346E1     1.686097644139527E2    -1.005220522619757E1    -9.144374174452476E1    -1.005559313285059E1    -9.157003118913913E1    -3.488059091711899E1    -1.495193586104567E2
 1.600240000000000E9    -4.253857626391094E1     1.736397638134144E2    -1.006103235433855E1    -9.382783566593982E1    -1.006345370909939E1    -9.384530471365088E1    -3.505157032951709E1    -1.490394201123096E2
 1.640238500000000E9    -4.297389513713150E1     1.723072753201170E2    -1.007333856651678E1    -9.621396749567069E1    -1.006927288669449E1    -9.621589321659877E1    -3.500465665788698E1    -1.504598524878910E2
 1.680237000000000E9    -4.351093818996863E1     1.706954844062556E2    -1.005745326568276E1    -9.859263007620329E1    -1.004950937952500E1    -9.853995893760103E1    -3.493158560727156E1    -1.529193145166522E2
 1.720235500000000E9    -4.298055046286105E1     1.641961267155670E2    -1.006043506280762E1    -1.009185134910401E2    -1.006356783209607E1    -1.008860245475639E2    -3.479784552616327E1    -1.530469193569538E2
 1.760234000000000E9    -4.216549303173621E1     1.605796822137225E2    -1.006385526670212E1    -1.032351848966241E2    -1.006362840328117E1    -1.032914024215935E2    -3.475388415529454E1    -1.560601066370055E2
 1.800232500000000E9    -4.163881992896970E1     1.572243527602672E2    -1.006325522586114E1    -1.056231384263498E2    -1.007171877823614E1    -1.055916796525350E2    -3.435376861074757E1    -1.550865794777231E2
 1.840231000000000E9    -4.078408005481067E1     1.598959367985574E2    -1.005015846306800E1    -1.079113847840369E2    -1.006412664905864E1    -1.079138248514080E2    -3.404437224416767E1    -1.550558909107878E2
 1.880229500000000E9    -4.110013050484448E1     1.567835173853863E2    -1.006737765697521E1    -1.103916204741246E2    -1.006216309630087E1    -1.103056856457132E2    -3.408921859834873E1    -1.552685980335465E2
 1.920228000000000E9    -4.072873827796616E1     1.576412558421698E2    -1.006671907765637E1    -1.126338346164593E2    -1.007312857405852E1    -1.126726696796417E2    -3.407762045077880E1    -1.550344346571584E2
 1.960226500000000E9    -4.151947270149844E1     1.552849705783766E2    -1.007138723250017E1    -1.149942113630459E2    -1.005716680546341E1    -1.149387786723747E2    -3.405634598092664E1    -1.556179950789678E2
 2.000225000000000E9    -4.078368950065730E1     1.522172553799403E2    -1.006526003749887E1    -1.173765919700331E2    -1.006801951214158E1    -1.173333308436481E2    -3.396101875446746E1    -1.578391494992928E2
 2.040223500000000E9    -4.005169198844457E1     1.483073821267384E2    -1.006718915313830E1    -1.197209756487112E2    -1.007361113892764E1    -1.196970915207566E2    -3.370192733947615E1    -1.569468540215392E2
 2.080222000000000E9    -3.967066617869599E1     1.488865050745771E2    -1.006979885341405E1    -1.219692720945675E2    -1.006739348051760E1    -1.218996229587739E2    -3.363883719151177E1    -1.579044826363978E2
 2.120220500000000E9    -3.932890285284150E1     1.513230062133910E2    -1.006574054650015E1    -1.242797400393974E2    -1.007605716138109E1    -1.242736049678572E2    -3.349862946211262E1    -1.594825698996116E2
 2.160219000000000E9    -3.944172676949283E1     1.520493942867683E2    -1.007027073164670E1    -1.266960201522311E2    -1.006877142996590E1    -1.266199922911060E2    -3.339439945815938E1    -1.601503863996022E2
 2.200217500000000E9    -3.993683027400891E1     1.483864544648589E2    -1.006801650187370E1    -1.290212331791554E2    -1.007469114113700E1    -1.290316952565964E2    -3.339672886480155E1    -1.602726501039459E2
 2.240216000000000E9    -3.973734286100501E1     1.454414098171617E2    -1.007193337138570E1    -1.313233126044599E2    -1.006058415596267E1    -1.313105091563970E2    -3.345183044313495E1    -1.579349876301582E2
 2.280214500000000E9    -3.959049923721948E1     1.403565946711265E2    -1.007547342952531E1    -1.336278716712750E2    -1.007817411272745E1    -1.336395544066333E2    -3.347828949941069E1    -1.587503712189748E2
 2.320213000000000E9    -3.922905424611270E1     1.414897417909401E2    -1.007730862942820E1    -1.359773298048986E2    -1.007380617926530E1    -1.360511983851410E2    -3.350240901390350E1    -1.608716893533233E2
 2.360211500000000E9    -3.889970503945679E1     1.406647346373228E2    -1.007969480638098E1    -1.383197117814539E2    -1.007923697623061E1    -1.383790487958350E2    -3.354244615032600E1    -1.626130746189612E2
 2.400210000000000E9    -3.864941753724909E1     1.395029905817862E2    -1.008348344963127E1    -1.408037327100685E2    -1.007753450571523E1    -1.406538846339219E2    -3.362522886722698E1    -1.627631164369027E2
 2.440208500000000E9    -3.881983489574277E1     1.388623780985088E2    -1.008703568398663E1    -1.428867753044519E2    -1.008144559292949E1    -1.429375972693697E2    -3.358106380599558E1    -1.641110892606991E2
 2.480207000000000E9    -3.902809712115808E1     1.419909575859280E2    -1.009101831133793E1    -1.453740644592667E2    -1.007958768866078E1    -1.454228095121877E2    -3.352841176095787E1    -1.645830449546872E2
 2.520205500000000E9    -3.900641782910953E1     1.382760794020978E2    -1.006935742754422E1    -1.476231565771985E2    -1.007935835015394E1    -1.476240321545912E2    -3.368006659875175E1    -1.660728343347967E2
 2.560204000000000E9    -3.920239330589070E1     1.363725450244323E2    -1.009735973481162E1    -1.498869333680397E2    -1.009856370039273E1    -1.499951354133823E2    -3.374299382387827E1    -1.665318562717075E2
 2.600202500000000E9    -3.915893712477013E1     1.355679790755281E2    -1.008562758800991E1    -1.522645052886374E2    -1.007933258475662E1    -1.522686097000702E2    -3.382494457877095E1    -1.655230893897405E2
 2.640201000000000E9    -3.903593190300644E1     1.343908766122251E2    -1.007948720923771E1    -1.546641680025465E2    -1.007941019140997E1    -1.547763926613889E2    -3.390922066953505E1    -1.677980569747396E2
 2.680199500000000E9    -3.921562367509787E1     1.338177074951357E2    -1.007582786289365E1    -1.570383458643107E2    -1.009006170295177E1    -1.570325667435523E2    -3.417948379259049E1    -1.694587816438177E2
 2.720198000000000E9    -3.931017054814129E1     1.332342935401818E2    -1.007708637616845E1    -1.594389456772765E2    -1.007421605007915E1    -1.594110406105045E2    -3.410017659779821E1    -1.689424033643887E2
 2.760196500000000E9    -3.876006063521668E1     1.378149111742173E2    -1.009398388998190E1    -1.617671067057957E2    -1.007190924111061E1    -1.617419395588533E2    -3.420981076795177E1    -1.722552692449231E2
 2.800195000000000E9    -3.874600609374807E1     1.380552035398812E2    -1.009634292198983E1    -1.640764346068113E2    -1.008221936703906E1    -1.641109051866946E2    -3.375706876831279E1    -1.725226762478660E2
 2.840193500000000E9    -3.883699767353897E1     1.381733316601264E2    -1.008007910673024E1    -1.664541437614225E2    -1.010196939253250E1    -1.664209273226048E2    -3.371790940014283E1    -1.726315679904726E2
 2.880192000000000E9    -3.836610484606900E1     1.375210826866083E2    -1.009314846311131E1    -1.687648906043335E2    -1.008586087010099E1    -1.687405370171805E2    -3.357149139269470E1    -1.741595319180536E2
 2.920190500000000E9    -3.803555748684400E1     1.372975275383924E2    -1.007195441578275E1    -1.711502843853621E2    -1.009425044722688E1    -1.711201074056559E2    -3.360347441258582E1    -1.756679814842015E2
 2.960189000000000E9    -3.760167933696189E1     1.402575808748404E2    -1.008992756991512E1    -1.734719432315734E2    -1.008490299791428E1    -1.734694342709891E2    -3.393925513510466E1    -1.740740530806035E2
 3.000187500000000E9    -3.789622130844136E1     1.373744731596630E2    -1.008936996182261E1    -1.758581391583541E2    -1.008799109591752E1    -1.758710739963667E2    -3.397181939109837E1    -1.766222444589855E2
 3.040186000000000E9    -3.774731039587038E1     1.394284375966818E2    -1.007901667009195E1    -1.782546614750397E2    -1.009483913153594E1    -1.781199265368081E2    -3.398578807410991E1    -1.776508319400938E2
 3.080184500000000E9    -3.793291369979838E1     1.402919535645109E2    -1.010699735026951E1     1.795087223291463E2    -1.009324155355429E1     1.795495945604933E2    -3.395379636689401E1    -1.787998478987766E2
 3.120183000000000E9    -3.797575054210954E1     1.419962402887544E2    -1.008972522102285E1     1.771996347645450E2    -1.009148720946819E1     1.773143888114582E2    -3.363800074121217E1    -1.792664102972420E2
 3.160181500000000E9    -3.788408411834199E1     1.395779630964342E2    -1.009410256700347E1     1.748006072729318E2    -1.009261318856207E1     1.749729202221767E2    -3.384286727234270E1    -1.775286569993136E2
 3.200180000000000E9    -3.777261271468026E1     1.408562237596270E2    -1.009857214148053E1     1.724569755279487E2    -1.009785705277047E1     1.724928317329113E2    -3.384260251848860E1    -1.779608845178804E2
 3.240178500000000E9    -3.703977318147481E1     1.392617896233577E2    -1.010391264931306E1     1.700517152384681E2    -1.008251308640440E1     1.701041658016752E2    -3.414977661123891E1    -1.796465646782042E2
 3.280177000000000E9    -3.664287983225101E1     1.441151951561329E2    -1.007869217029537E1     1.678369127561676E2    -1.012087480836883E1     1.677973616735802E2    -3.439829951138483E1     1.795524870804853E2
 3.320175500000000E9    -3.658925058597949E1     1.437460403236185E2    -1.010100741882971E1     1.655160555618668E2    -1.009935306158751E1     1.655328421673687E2    -3.415616806940855E1    -1.797745495770373E2
 3.360174000000000E9    -3.662695470009190E1     1.421835842175330E2    -1.010855574267463E1     1.632768063704651E2    -1.009588397766878E1     1.631429882632208E2    -3.390908107009727E1     1.780754366230640E2
 3.400172500000000E9    -3.652939685916658E1     1.442228080128951E2    -1.010922216981215E1     1.607826805068239E2    -1.009316360652527E1     1.607772388646160E2    -3.358151002226402E1     1.793022286307941E2
 3.440171000000000E9    -3.644529307942616E1     1.382791491249494E2    -1.009128578065266E1     1.584596196206390E2    -1.010482309753338E1     1.585453893426328E2    -3.388351056896698E1     1.786510235689954E2
 3.480169500000000E9    -3.579656089062527E1     1.400498009646272E2    -1.009100327974373E1     1.560994036278252E2    -1.009915794961823E1     1.560918022998501E2    -3.346289044730298E1    -1.784503380821713E2
 3.520168000000000E9    -3.511020397633223E1     1.399420691168880E2    -1.008364352106355E1     1.537538849312896E2    -1.010791186145994E1     1.537196289036225E2    -3.350340826783699E1    -1.783607841904833E2
 3.560166500000000E9    -3.479591298790768E1     1.431770186106006E2    -1.010991498463262E1     1.514815954487550E2    -1.010754688496105E1     1.514892096095333E2    -3.384781888248091E1    -1.781294666305089E2
 3.600165000000000E9    -3.506024891838041E1     1.441050331623959E2    -1.009713945625014E1     1.490534484298454E2    -1.008304644604763E1     1.491751086778103E2    -3.379263656994383E1    -1.776252983872571E2
