#  HZ   S   DB   R     50.00 
! Rohde & Schwarz Vector Network Analyzer 
! Rohde-Schwarz,ZNB8-4Port,1311601044101761,1.95
! Created: UTC 2/19/2014, 8:12:13 PM
! freq[Hz]                db:S11                  ang:S11                 db:S21                  ang:S21                 db:S12                  ang:S12                 db:S22                  ang:S22
 3.000000000000000E5    -4.515648603152372E1     4.121344827006877E1    -2.751017307108983      -2.073547366458819E-1   -2.755796169542092      -2.017385860429196E-1   -4.449003309918353E1     2.752804383653477E1
 4.029850000000000E7    -4.779208749140882E1    -2.521637188986684E1    -2.791812486658353      -2.419154314658839      -2.791934424250508      -2.415506117081021      -4.111379526726716E1     2.809257572983233
 8.029700000000000E7    -4.736710696229218E1    -8.306845123181564      -2.803349515655417      -4.838003716240697      -2.808645125758554      -4.854914523696220      -3.952722379509553E1    -3.609120484724529
 1.202955000000000E8    -4.701954215681037E1    -8.467801689979792      -2.813196549902213      -7.216159641781885      -2.810966044224749      -7.206191931662525      -3.911310949908829E1    -9.180667701945781
 1.602940000000000E8    -4.682287990771655E1    -9.152700053943031      -2.811904366798181      -9.539718949435136      -2.807478670460872      -9.582218101270358      -3.922834662494514E1    -1.406940619865126E1
 2.002925000000000E8    -4.638485529429774E1    -9.189966370955593      -2.816611941033486      -1.198921254501977E1    -2.816210736620353      -1.201111747616848E1    -3.988857412855823E1    -1.463749053115238E1
 2.402910000000000E8    -4.681847521830537E1    -1.448100638343410E1    -2.822575670376633      -1.443040170373765E1    -2.816049152891958      -1.442457413661624E1    -4.002205307104897E1    -2.381497266369857E1
 2.802895000000000E8    -4.757691536850494E1    -2.017676807076789E1    -2.825382053671665      -1.686448107918011E1    -2.818595234900470      -1.684470075603001E1    -3.957674909800402E1    -2.946214328513919E1
 3.202880000000000E8    -4.660147793742327E1    -2.198725058696376E1    -2.819745307002820      -1.921048752101793E1    -2.815192756713318      -1.927932855462687E1    -3.959524090557579E1    -3.685805227376422E1
 3.602865000000000E8    -4.604067087321229E1    -2.673255329050467E1    -2.818688391130175      -2.165033395275486E1    -2.817525596630977      -2.166843882282049E1    -3.976566055829277E1    -4.606175734898424E1
 4.002850000000000E8    -4.690762148257414E1    -3.220362630478463E1    -2.823933544467757      -2.403583397744662E1    -2.820516311802688      -2.404777958326802E1    -3.967956001212723E1    -5.157093110199672E1
 4.402835000000000E8    -4.722637568897245E1    -3.356257985747993E1    -2.830217810376811      -2.640203398986812E1    -2.822599112267374      -2.642391431786912E1    -3.962265503111370E1    -5.388641784932525E1
 4.802820000000000E8    -4.601803519782340E1    -3.844537730858482E1    -2.826027592001696      -2.882512490188370E1    -2.819400981184718      -2.884139456248406E1    -3.964711522216333E1    -5.835250660767780E1
 5.202805000000000E8    -4.583589238140630E1    -4.334813049689398E1    -2.823385434077401      -3.124109166517735E1    -2.823235272308803      -3.119123567151040E1    -3.956168176630235E1    -6.542848745914782E1
 5.602790000000000E8    -4.553754117622408E1    -4.844576325770296E1    -2.829674364657695      -3.367115455326800E1    -2.826754614839521      -3.366731177937336E1    -3.935087568035912E1    -6.878603194242774E1
 6.002775000000000E8    -4.582451031382873E1    -4.971772684632804E1    -2.829784829193221      -3.604101660695875E1    -2.831910616405035      -3.603099481330914E1    -3.959043918990368E1    -7.458240492286497E1
 6.402760000000000E8    -4.588616631805338E1    -5.464081973404832E1    -2.832550320570901      -3.836923731011699E1    -2.832609529012907      -3.843544380402079E1    -3.937936576868221E1    -7.737453797986530E1
 6.802745000000000E8    -4.629413133175306E1    -6.831456523449157E1    -2.839701352544682      -4.081852784399901E1    -2.834336957848899      -4.079955633120372E1    -3.876394898354378E1    -8.464151115572356E1
 7.202730000000000E8    -4.653611846950735E1    -6.818104950999367E1    -2.832272817212392      -4.318951621646275E1    -2.831383261509262      -4.318861231790208E1    -3.833005735910022E1    -9.041409694390255E1
 7.602715000000000E8    -4.527211151265662E1    -7.603011062134202E1    -2.833519149425935      -4.554803503593932E1    -2.837127426331039      -4.557990285495279E1    -3.865161562433522E1    -9.308425674266815E1
 8.002700000000000E8    -4.507674524770338E1    -7.559070882213345E1    -2.837254559832203      -4.796021463356723E1    -2.836763182375888      -4.798095662313953E1    -3.887710446591427E1    -9.969372117193719E1
 8.402685000000000E8    -4.479588828442502E1    -7.591831202777546E1    -2.837819942546711      -5.035752113040678E1    -2.833013367639045      -5.036613966566079E1    -3.834242437462682E1    -1.023675980908731E2
 8.802670000000000E8    -4.609503920368188E1    -8.210498679731013E1    -2.835117264974639      -5.277021033770167E1    -2.831297385987211      -5.279708288719876E1    -3.781099716190269E1    -1.068823497635323E2
 9.202655000000000E8    -4.613860499428274E1    -9.728657303338088E1    -2.846925623046328      -5.519363506910486E1    -2.840945654945093      -5.514975895171148E1    -3.738436164079328E1    -1.097318404907625E2
 9.602640000000000E8    -4.706726433926608E1    -1.026062893266676E2    -2.842489841965519      -5.758465270244087E1    -2.839548451786261      -5.754340739429858E1    -3.695773722474948E1    -1.106696063138943E2
 1.000262500000000E9    -4.653763032907428E1    -1.063067940862692E2    -2.843789497355254      -5.996983315591281E1    -2.847943709766240      -5.994131702807261E1    -3.702054037993855E1    -1.133810415679983E2
 1.040261000000000E9    -4.542878144297431E1    -1.115225457579913E2    -2.845371649714128      -6.232559517514434E1    -2.837565506583896      -6.234547915015533E1    -3.693274592219173E1    -1.182127482438609E2
 1.080259500000000E9    -4.569405254628471E1    -1.138979572680471E2    -2.845772151918648      -6.475669484195652E1    -2.844012449445445      -6.473532793036881E1    -3.674624176000766E1    -1.217991080948372E2
 1.120258000000000E9    -4.521639952496372E1    -1.143042120557890E2    -2.840205936001035      -6.710673369712166E1    -2.848229681071373      -6.714009550898940E1    -3.623389676083372E1    -1.248170801482242E2
 1.160256500000000E9    -4.686902077216284E1    -1.267934753735954E2    -2.847655211344040      -6.945931049153633E1    -2.844439279171781      -6.953501994816185E1    -3.565152706432311E1    -1.252087208508081E2
 1.200255000000000E9    -4.651371979216859E1    -1.451095554190340E2    -2.854756052785843      -7.187286090371933E1    -2.844959479007491      -7.189447961450061E1    -3.549920222117160E1    -1.284861484048561E2
 1.240253500000000E9    -4.543596574766585E1    -1.459741249013818E2    -2.852670962100334      -7.431956471415693E1    -2.843399193232612      -7.430772350357871E1    -3.503595730278184E1    -1.302248190241147E2
 1.280252000000000E9    -4.578347763136072E1    -1.565154559513927E2    -2.848839468738805      -7.663264532821437E1    -2.843636230153841      -7.668652016815852E1    -3.496153925285795E1    -1.324981728616950E2
 1.320250500000000E9    -4.550352541211407E1    -1.532695747827762E2    -2.850847458787448      -7.907068836647899E1    -2.851395325910263      -7.906006886550713E1    -3.485979538466934E1    -1.338241171204248E2
 1.360249000000000E9    -4.553176704014341E1    -1.555372822202825E2    -2.844112046910804      -8.144132875474564E1    -2.844988680107181      -8.152468253243571E1    -3.477299968343979E1    -1.352486823070367E2
 1.400247500000000E9    -4.645285746812552E1    -1.608368550396473E2    -2.854337232797834      -8.384503800674871E1    -2.853993503167012      -8.389969899806869E1    -3.461042522753535E1    -1.367117312950868E2
 1.440246000000000E9    -4.649180243966776E1    -1.749761722176346E2    -2.861784299793473      -8.624768512161595E1    -2.851166825508584      -8.627747326586336E1    -3.443002745589148E1    -1.390218563218475E2
 1.480244500000000E9    -4.581251716115573E1     1.735830504303697E2    -2.859658151234024      -8.859595152472771E1    -2.852917066367808      -8.863210888082284E1    -3.393476435370157E1    -1.418540256490188E2
 1.520243000000000E9    -4.411338871558337E1     1.704128232808462E2    -2.857174678482112      -9.101284346098912E1    -2.849871296775954      -9.100691469598222E1    -3.318004394622724E1    -1.435066248554820E2
 1.560241500000000E9    -4.381358756815050E1     1.645302026333347E2    -2.856071754399381      -9.340234487954210E1    -2.853559453144506      -9.336833363254618E1    -3.324922886545321E1    -1.454324802552220E2
 1.600240000000000E9    -4.394112877393415E1     1.645926288045324E2    -2.860130957616093      -9.580038255986814E1    -2.858614064858298      -9.582895791990877E1    -3.309008289171877E1    -1.457388049796413E2
 1.640238500000000E9    -4.424906029685378E1     1.608632810886630E2    -2.858945416638696      -9.819630016092577E1    -2.859860544747390      -9.818425783266984E1    -3.304131770835935E1    -1.469895928609472E2
 1.680237000000000E9    -4.478921349824408E1     1.476197291210600E2    -2.862855772234381      -1.005659287144081E2    -2.859176658900244      -1.005534881660698E2    -3.325863435231797E1    -1.489581189633910E2
 1.720235500000000E9    -4.383892851782426E1     1.362014491146315E2    -2.857938260797488      -1.029486454757362E2    -2.855603549836900      -1.029834367844788E2    -3.279942993530055E1    -1.507562532234903E2
 1.760234000000000E9    -4.288154259160049E1     1.363664636457783E2    -2.867108278085099      -1.053447761144221E2    -2.860800499574109      -1.053825001846121E2    -3.244494539719420E1    -1.520088399780366E2
 1.800232500000000E9    -4.278625138550918E1     1.333640835318916E2    -2.859081981903065      -1.077353567983124E2    -2.865031952153413      -1.077742917093188E2    -3.224121310723960E1    -1.543356748423107E2
 1.840231000000000E9    -4.229904995110274E1     1.274312678624569E2    -2.865872258870992      -1.101557741422883E2    -2.865778114584312      -1.101487579227851E2    -3.184964799228230E1    -1.552860775487880E2
 1.880229500000000E9    -4.198891454477980E1     1.243576736796550E2    -2.868235910195047      -1.125257344071954E2    -2.863201193725594      -1.125622339649123E2    -3.171691736481026E1    -1.564214920421914E2
 1.920228000000000E9    -4.217079147511556E1     1.218887029676712E2    -2.877515276704151      -1.148836153925998E2    -2.865632919602088      -1.149284963024243E2    -3.164483086932403E1    -1.572224046897024E2
 1.960226500000000E9    -4.209947176767011E1     1.107424718989528E2    -2.864729347547407      -1.172398139147334E2    -2.862395365167469      -1.173047571009162E2    -3.155269573131690E1    -1.587514278484179E2
 2.000225000000000E9    -4.171450692750346E1     1.049462084079208E2    -2.866034715082210      -1.196829823087549E2    -2.868969772771331      -1.197023865611040E2    -3.132131039643189E1    -1.601819633780498E2
 2.040223500000000E9    -4.114933530326822E1     1.013260768426744E2    -2.870698267798965      -1.220623562476175E2    -2.867824697351461      -1.220852337591766E2    -3.121699454386936E1    -1.606062554755859E2
 2.080222000000000E9    -4.118884409723060E1     1.011850124075190E2    -2.872650988354368      -1.244557589610811E2    -2.870946863161870      -1.244801095292262E2    -3.109393420340019E1    -1.605526382512090E2
 2.120220500000000E9    -4.100745032893174E1     9.905356447380460E1    -2.872814953785980      -1.268141505262387E2    -2.868908578562197      -1.268751959907077E2    -3.085008833767759E1    -1.647949835862233E2
 2.160219000000000E9    -4.110541826975876E1     8.912620526392657E1    -2.876109801042211      -1.291962947412392E2    -2.873379471188369      -1.292274674947751E2    -3.082224370087747E1    -1.640095846512066E2
 2.200217500000000E9    -4.084711084322917E1     8.464209302421355E1    -2.876275070585797      -1.316090404912855E2    -2.870714086571813      -1.316099100882271E2    -3.066968392858044E1    -1.640189425445418E2
 2.240216000000000E9    -4.051440623768897E1     7.299876388736060E1    -2.880909862252485      -1.340142082195483E2    -2.869789486911781      -1.339723612881845E2    -3.064665779730469E1    -1.650491840065903E2
 2.280214500000000E9    -4.013545138982626E1     7.058221896342266E1    -2.874741966550003      -1.363615395843108E2    -2.869812887990131      -1.363701075693977E2    -3.063274189662888E1    -1.650657654666151E2
 2.320213000000000E9    -3.949342728859867E1     6.918648354354284E1    -2.877600864505517      -1.387872204054975E2    -2.873569388665626      -1.387719175532547E2    -3.049710878748469E1    -1.674127193487651E2
 2.360211500000000E9    -3.975923430504361E1     6.630202315206019E1    -2.874666458001292      -1.411636336799793E2    -2.874829552251640      -1.411668293903938E2    -3.041121894543721E1    -1.693455764292142E2
 2.400210000000000E9    -3.980213854411478E1     6.240983168226719E1    -2.879401669785408      -1.435341758082879E2    -2.879445455852234      -1.435509113545683E2    -3.046413364267462E1    -1.707386866398575E2
 2.440208500000000E9    -3.970918887666633E1     6.058239445397911E1    -2.881002187513364      -1.458950200877392E2    -2.877545142534018      -1.459196717700399E2    -3.060994111090979E1    -1.715889238053874E2
 2.480207000000000E9    -3.976695296888941E1     5.215274581634647E1    -2.875693495084654      -1.483063271788822E2    -2.885086733129564      -1.483062309596906E2    -3.053383487975381E1    -1.725981241205987E2
 2.520205500000000E9    -3.955375783303852E1     4.422771353811218E1    -2.888141148789318      -1.506463594514900E2    -2.882009406063526      -1.506737183205635E2    -3.035869278701492E1    -1.729805022188159E2
 2.560204000000000E9    -3.909676942804807E1     4.430225009658462E1    -2.884231086634737      -1.529737048037108E2    -2.883111531412046      -1.530182719831226E2    -3.020111439754222E1    -1.756602703144177E2
 2.600202500000000E9    -3.959549908428932E1     3.716758694340308E1    -2.885433411795050      -1.553597155055707E2    -2.879096823712209      -1.553941865325322E2    -3.033577720915174E1    -1.758671009925332E2
 2.640201000000000E9    -3.931287398756263E1     3.543000342482335E1    -2.871957899413137      -1.578169105225733E2    -2.884000022548776      -1.578560134786387E2    -3.050254654390474E1    -1.767487728449718E2
 2.680199500000000E9    -3.895047128097592E1     2.888025904156983E1    -2.876034733404393      -1.601664143205835E2    -2.894661546068102      -1.602771963901788E2    -3.057162831640167E1    -1.794699172469381E2
 2.720198000000000E9    -3.861027095718272E1     2.344517453063441E1    -2.880218333651505      -1.626599640682462E2    -2.889304926380357      -1.626675260651369E2    -3.051245233548780E1     1.794545575807256E2
 2.760196500000000E9    -3.889702860496632E1     2.166322718132559E1    -2.888163390730294      -1.650189923928487E2    -2.882661747746712      -1.650440165585862E2    -3.066635332331960E1     1.783302447514369E2
 2.800195000000000E9    -3.878982856779511E1     1.627076653597945E1    -2.885763955495191      -1.674671825586466E2    -2.886189299763051      -1.674844517276485E2    -3.027006359523480E1     1.775351536937281E2
 2.840193500000000E9    -3.914185400453777E1     1.376872386758956E1    -2.886392210425547      -1.698163275601537E2    -2.890785402471858      -1.697954786954311E2    -3.007417310770687E1     1.751534646526150E2
 2.880192000000000E9    -3.893229376635028E1     8.658884094943492      -2.888895626742329      -1.721761979177496E2    -2.887351325021518      -1.721825702278624E2    -3.021589922963246E1     1.751869330055736E2
 2.920190500000000E9    -3.864840786917252E1     8.242230760822055      -2.880299657746892      -1.745905469240486E2    -2.887131719599921      -1.746508963100695E2    -3.035136841426415E1     1.732813204236624E2
 2.960189000000000E9    -3.949381084547843E1     2.599495126978002      -2.891063869668614      -1.769280259565036E2    -2.896768865686737      -1.770059667587135E2    -3.067163608216637E1     1.720891118292356E2
 3.000187500000000E9    -3.929492030477746E1    -4.468018419508445      -2.888615871555774      -1.793882098480530E2    -2.878412302619436      -1.793815410706119E2    -3.080668028549580E1     1.721891474598501E2
 3.040186000000000E9    -3.950913100899404E1    -1.199674551293016E1    -2.885166187972741       1.782407036029663E2    -2.886683613747726       1.782446669866260E2    -3.109607161725162E1     1.714252892682179E2
 3.080184500000000E9    -3.902562452921469E1    -1.870359711911063E1    -2.891865169829085       1.758297241844810E2    -2.886701418780095       1.758844485994833E2    -3.094960710793352E1     1.682472778864664E2
 3.120183000000000E9    -3.879576913434469E1    -2.584453316588041E1    -2.890902622138652       1.734907513164461E2    -2.884807687478876       1.734560401319275E2    -3.070502161545312E1     1.677518808925126E2
 3.160181500000000E9    -3.878299862211141E1    -2.347540278619591E1    -2.887054878853009       1.711626407930530E2    -2.892006073824448       1.710914123351626E2    -3.084843778057505E1     1.676487057265818E2
 3.200180000000000E9    -3.911899205355929E1    -2.925462807188809E1    -2.888972013091022       1.687172913558302E2    -2.894165448150178       1.686575071080235E2    -3.104023046303220E1     1.686032261952084E2
 3.240178500000000E9    -3.948869899996764E1    -3.331034731595499E1    -2.897071919275357       1.662995526901526E2    -2.896030966109099       1.663145270818640E2    -3.121187312458499E1     1.655371632077103E2
 3.280177000000000E9    -3.963519623234160E1    -4.110129990737089E1    -2.893480310354846       1.639429072195968E2    -2.896843974259323       1.638660792762764E2    -3.153357958330756E1     1.662561791366267E2
 3.320175500000000E9    -3.920834111296105E1    -5.029376023286846E1    -2.895527587148436       1.615859437388205E2    -2.896124525271036       1.615651775187034E2    -3.179733465787539E1     1.651357671878658E2
 3.360174000000000E9    -3.831928497307681E1    -5.262211166192856E1    -2.894385860189519       1.591651292780641E2    -2.889058665806114       1.591366430564992E2    -3.161169480972929E1     1.634479305577393E2
 3.400172500000000E9    -3.837178918823835E1    -5.239304837369463E1    -2.891517062214781       1.568122866283249E2    -2.891276688876415       1.567171058484836E2    -3.180517559175900E1     1.643352851810070E2
 3.440171000000000E9    -3.845676428276406E1    -5.719117570747414E1    -2.887075281005200       1.544069701054970E2    -2.896295822421362       1.544149709730951E2    -3.178250210809806E1     1.635328026540838E2
 3.480169500000000E9    -3.848449611991299E1    -6.316034050198867E1    -2.896331340059995       1.520307764611993E2    -2.893762709916367       1.519493526652191E2    -3.186040169679288E1     1.631866743193450E2
 3.520168000000000E9    -3.827834157090484E1    -7.502994765458138E1    -2.894668744289539       1.496372712515865E2    -2.898992750523767       1.495688796580773E2    -3.212996628343242E1     1.642076868653152E2
 3.560166500000000E9    -3.827854029690838E1    -8.530350555648195E1    -2.892683384358188       1.473194933348730E2    -2.904318124252020       1.471979692446252E2    -3.229744087453821E1     1.654945607261844E2
 3.600165000000000E9    -3.676455088412413E1    -8.495579088754377E1    -2.893077196500258       1.448495588758295E2    -2.896051822612644       1.448429662983840E2    -3.240096558662810E1     1.653299632562192E2
