! RsaToolbox (C) 2014 Rohde & Schwarz America
! 
! Number of points: 101
! Number of ports: 2
! Balanced ports?: No
! 
! 
# Hz S RI R 50
250000000         0.004265980981    0.004812220358    -0.9852747127     -0.05872903304    
                  -0.9852747127     -0.05872903304    -0.001240863003   0.006571502434    
251000000         0.004457532255    0.004675854495    -0.9859231876     -0.04657724039    
                  -0.9859231876     -0.04657724039    -0.001146442346   0.006466846786    
252000000         0.00461489169     0.004518827643    -0.9863841356     -0.03443597989    
                  -0.9863841356     -0.03443597989    -0.001020204795   0.006456110055    
253000000         0.004830199104    0.004425443243    -0.9867385254     -0.02233423434    
                  -0.9867385254     -0.02233423434    -0.000982829776   0.006088500368    
254000000         0.004932184864    0.004273471902    -0.9868943938     -0.01017998832    
                  -0.9868943938     -0.01017998832    -0.0007999946065  0.006148959277    
255000000         0.005149836521    0.00412516114     -0.9869365597     0.001894573624    
                  -0.9869365597     0.001894573624    -0.0007300360935  0.005929361868    
256000000         0.005340514682    0.004028785022    -0.9868343121     0.01407209841     
                  -0.9868343121     0.01407209841     -0.0004191924852  0.005766342725    
257000000         0.005489663517    0.003759065486    -0.9865942449     0.02625624971     
                  -0.9865942449     0.02625624971     -0.0005825005067  0.005592227543    
258000000         0.005627669241    0.003623201813    -0.9861502868     0.03833067219     
                  -0.9861502868     0.03833067219     -0.0003684944708  0.005575640066    
259000000         0.005862787513    0.003462622326    -0.9856094253     0.05044756981     
                  -0.9856094253     0.05044756981     -0.0003794377317  0.005131850329    
260000000         0.006008460096    0.003320564061    -0.9849080014     0.0625946237      
                  -0.9849080014     0.0625946237      -0.0001818402302  0.005166778093    
261000000         0.006151347498    0.003134789887    -0.9839430583     0.07465482206     
                  -0.9839430583     0.07465482206     1.488171882e-06   0.005050649541    
262000000         0.006280656151    0.002947693544    -0.9829866471     0.08676704144     
                  -0.9829866471     0.08676704144     -6.741248888e-05  0.004886796843    
263000000         0.006458840362    0.002760982539    -0.9818279323     0.09882676101     
                  -0.9818279323     0.09882676101     5.26584448e-05    0.004641462959    
264000000         0.006567373625    0.002624102245    -0.9804994079     0.1108815236      
                  -0.9804994079     0.1108815236      0.000251520159    0.004546800776    
265000000         0.006708708784    0.002416014319    -0.9790335317     0.1229431184      
                  -0.9790335317     0.1229431184      0.000418345428    0.004372782125    
266000000         0.006828051407    0.0022473828      -0.9774510482     0.1349885282      
                  -0.9774510482     0.1349885282      0.0004379183146   0.004284091024    
267000000         0.006952234367    0.002012055641    -0.9757192404     0.1469462735      
                  -0.9757192404     0.1469462735      0.0003752698374   0.004053410316    
268000000         0.007072951481    0.001805745203    -0.9737507027     0.158984971       
                  -0.9737507027     0.158984971       0.000481989426    0.003887147837    
269000000         0.007253015607    0.001607449039    -0.9716931319     0.1709344856      
                  -0.9716931319     0.1709344856      0.0005224994246   0.003675124491    
270000000         0.007315872184    0.001422312504    -0.9695233219     0.1828694681      
                  -0.9695233219     0.1828694681      0.0007010909068   0.003562751659    
271000000         0.007443835703    0.001218825036    -0.9672000675     0.1947824825      
                  -0.9672000675     0.1947824825      0.0007025785932   0.003268315181    
272000000         0.007506791223    0.0009998510709   -0.9647137201     0.2066458778      
                  -0.9647137201     0.2066458778      0.0008525811578   0.003242240579    
273000000         0.00762559584     0.0007722773683   -0.9620749417     0.2184812694      
                  -0.9620749417     0.2184812694      0.000897316113    0.003124807517    
274000000         0.007730698263    0.0005798601539   -0.9593163388     0.230334657       
                  -0.9593163388     0.230334657       0.000865690745    0.002777412026    
275000000         0.007787280207    0.0003354348111   -0.9563421248     0.2420783663      
                  -0.9563421248     0.2420783663      0.0009543600066   0.002578444064    
276000000         0.007919140276    0.0001399736563   -0.9533062873     0.2538132839      
                  -0.9533062873     0.2538132839      0.001055608443    0.002502353234    
277000000         0.007943851337    -7.630679131e-05  -0.9500549735     0.2655325851      
                  -0.9500549735     0.2655325851      0.001206160177    0.002379158974    
278000000         0.008001692685    -0.000347011309   -0.9467441395     0.2772307928      
                  -0.9467441395     0.2772307928      0.001106978311    0.002237387217    
279000000         0.008034050686    -0.0005511119878  -0.9432450542     0.2887967537      
                  -0.9432450542     0.2887967537      0.00116582617     0.001997826853    
280000000         0.00811958064     -0.0007136568067  -0.9395765424     0.3003758488      
                  -0.9395765424     0.3003758488      0.001450600307    0.00184327669     
281000000         0.008175501165    -0.00103865618    -0.9358071547     0.3119339986      
                  -0.9358071547     0.3119339986      0.001218124951    0.001619716115    
282000000         0.008248010247    -0.001202681003   -0.9318771405     0.3233999864      
                  -0.9318771405     0.3233999864      0.001402082637    0.001429944242    
283000000         0.008238961031    -0.00147603909    -0.927789764      0.3348427015      
                  -0.927789764      0.3348427015      0.0013922376      0.00143900681     
284000000         0.008268106749    -0.001676221267   -0.9235697166     0.3462374605      
                  -0.9235697166     0.3462374605      0.001364815644    0.001168459036    
285000000         0.008360443052    -0.001907219791   -0.9192644365     0.3575604607      
                  -0.9192644365     0.3575604607      0.001483555871    0.0008747633986   
286000000         0.008315495821    -0.002166967734   -0.9147251386     0.3688582612      
                  -0.9147251386     0.3688582612      0.001314361698    0.0008019841946   
287000000         0.008351873758    -0.002381223373   -0.910115367      0.3800594021      
                  -0.910115367      0.3800594021      0.001525810333    0.0005433377666   
288000000         0.008368637245    -0.002616478275   -0.9053396841     0.3912291553      
                  -0.9053396841     0.3912291553      0.001526806901    0.0003080556358   
289000000         0.008374033448    -0.002895988333   -0.9004490429     0.4023012085      
                  -0.9004490429     0.4023012085      0.001570899737    0.000214285414    
290000000         0.008301549199    -0.00316630716    -0.8954005835     0.4133826914      
                  -0.8954005835     0.4133826914      0.001406568319    8.703937037e-05   
291000000         0.008337833404    -0.00338855017    -0.8902274471     0.4243365957      
                  -0.8902274471     0.4243365957      0.001628296351    -0.0001653049707  
292000000         0.008360797782    -0.003582974705   -0.8849382181     0.435261902       
                  -0.8849382181     0.435261902       0.001486155017    -0.0003620657926  
293000000         0.008318020607    -0.003869376715   -0.879465329      0.4461223811      
                  -0.879465329      0.4461223811      0.001468194718    -0.0006320733865  
294000000         0.008301620438    -0.004088687995   -0.8739196309     0.4568709278      
                  -0.8739196309     0.4568709278      0.001467624895    -0.0007693000321  
295000000         0.008237692459    -0.004320774537   -0.8682132887     0.4676214293      
                  -0.8682132887     0.4676214293      0.001289074046    -0.0009851072352  
296000000         0.008238276888    -0.004544862491   -0.8623526504     0.4782643647      
                  -0.8623526504     0.4782643647      0.001479415665    -0.001079482955   
297000000         0.008115459824    -0.004757558537   -0.8563908593     0.4888233133      
                  -0.8563908593     0.4888233133      0.00139707735     -0.001155892364   
298000000         0.008101226315    -0.005045902059   -0.8503018822     0.4993344604      
                  -0.8503018822     0.4993344604      0.001433014056    -0.001403518332   
299000000         0.008011599073    -0.005298167924   -0.8440493994     0.5097353962      
                  -0.8440493994     0.5097353962      0.00139910897     -0.001706801811   
300000000         0.007952210756    -0.005518538146   -0.8376844659     0.5200561462      
                  -0.8376844659     0.5200561462      0.001343352609    -0.001804277165   
301000000         0.007909677939    -0.005777719313   -0.8312178711     0.5303020285      
                  -0.8312178711     0.5303020285      0.001285597968    -0.002051560405   
302000000         0.007813243349    -0.005996990663   -0.8246445272     0.540517301       
                  -0.8246445272     0.540517301       0.001200509585    -0.002179999842   
303000000         0.007721064889    -0.006225645887   -0.8179130067     0.5506258887      
                  -0.8179130067     0.5506258887      0.001084355521    -0.002209149995   
304000000         0.007611599387    -0.006486218547   -0.8110973444     0.5606165373      
                  -0.8110973444     0.5606165373      0.0009171764719   -0.002548907888   
305000000         0.007540391486    -0.006719917615   -0.8040751837     0.5705326372      
                  -0.8040751837     0.5705326372      0.0008870125841   -0.002710478777   
306000000         0.007439705833    -0.006961274962   -0.7970196046     0.5803669187      
                  -0.7970196046     0.5803669187      0.0008016247723   -0.00295406032    
307000000         0.007308593776    -0.007241178573   -0.7897644703     0.5901209756      
                  -0.7897644703     0.5901209756      0.0006832543454   -0.003031272088   
308000000         0.007198416272    -0.007429799419   -0.7824414364     0.5997367375      
                  -0.7824414364     0.5997367375      0.0006431957277   -0.003341007428   
309000000         0.007020970382    -0.007647963952   -0.7749769975     0.6093395721      
                  -0.7749769975     0.6093395721      0.0005374196654   -0.003438738005   
310000000         0.006927785366    -0.007858177838   -0.7674232915     0.6188225854      
                  -0.7674232915     0.6188225854      0.0003920946527   -0.003619431591   
311000000         0.006777850225    -0.008070884472   -0.7597065449     0.6281808692      
                  -0.7597065449     0.6281808692      0.0002575567063   -0.003796019088   
312000000         0.006587087237    -0.008269783526   -0.7518850084     0.6374814199      
                  -0.7518850084     0.6374814199      0.0001246803633   -0.003876322443   
313000000         0.006466954094    -0.00847644087    -0.7439968939     0.6466790142      
                  -0.7439968939     0.6466790142      3.817794533e-05   -0.004151747891   
314000000         0.006321763822    -0.008773262745   -0.7359920427     0.6557691578      
                  -0.7359920427     0.6557691578      -6.206362136e-05  -0.004261015458   
315000000         0.006142838635    -0.008926136986   -0.727843918      0.664741596       
                  -0.727843918      0.664741596       -0.000162630063   -0.004438435629   
316000000         0.006017356364    -0.009145276792   -0.7196097499     0.6736381554      
                  -0.7196097499     0.6736381554      -0.0004568169936  -0.004557939652   
317000000         0.00582214546     -0.009366342042   -0.7112379253     0.6824130296      
                  -0.7112379253     0.6824130296      -0.0005430437173  -0.004803062966   
318000000         0.005632048927    -0.009603749244   -0.7027947571     0.6911082425      
                  -0.7027947571     0.6911082425      -0.0004966254152  -0.004866531298   
319000000         0.005399030298    -0.009772455218   -0.6942275356     0.6997008929      
                  -0.6942275356     0.6997008929      -0.0008206435983  -0.005095749477   
320000000         0.005218141277    -0.009956307696   -0.685523009      0.7081572558      
                  -0.685523009      0.7081572558      -0.0007627316769  -0.005235028754   
321000000         0.005036169174    -0.01015269449    -0.6767431669     0.7165453742      
                  -0.6767431669     0.7165453742      -0.0009690856211  -0.005305524753   
322000000         0.004858527451    -0.0103079007     -0.6678911725     0.7247837617      
                  -0.6678911725     0.7247837617      -0.001063397021   -0.005314128264   
323000000         0.004680023405    -0.01047074177    -0.6588809256     0.7329381232      
                  -0.6588809256     0.7329381232      -0.001367874074   -0.005544229571   
324000000         0.004464631555    -0.01071131176    -0.6497971559     0.7409355665      
                  -0.6497971559     0.7409355665      -0.00144126093    -0.005561358158   
325000000         0.004248960897    -0.01086151889    -0.6406064801     0.7489412565      
                  -0.6406064801     0.7489412565      -0.001686708536   -0.005687788378   
326000000         0.004039069487    -0.01098217226    -0.631371556      0.7567105394      
                  -0.631371556      0.7567105394      -0.001933832552   -0.005804084319   
327000000         0.003813360361    -0.01111660915    -0.6219983897     0.7643836832      
                  -0.6219983897     0.7643836832      -0.001919656888   -0.006050949925   
328000000         0.003535060598    -0.01129679483    -0.6125085818     0.7720107472      
                  -0.6125085818     0.7720107472      -0.002215767714   -0.00612366707    
329000000         0.00329303652     -0.01149405962    -0.6029841776     0.7794559188      
                  -0.6029841776     0.7794559188      -0.002491792927   -0.006348663346   
330000000         0.003064678632    -0.01161551498    -0.5933088325     0.7867909557      
                  -0.5933088325     0.7867909557      -0.002666194216   -0.00636486328    
331000000         0.002795502425    -0.01178256197    -0.5835723239     0.7940044858      
                  -0.5835723239     0.7940044858      -0.002818686092   -0.006484451519   
332000000         0.002608388964    -0.01187775176    -0.573740741      0.8011151811      
                  -0.573740741      0.8011151811      -0.002955000475   -0.006639664729   
333000000         0.002348871724    -0.01202569426    -0.5638329362     0.8081007292      
                  -0.5638329362     0.8081007292      -0.003287686741   -0.006566052938   
334000000         0.002128396584    -0.01210090526    -0.5538417442     0.8149902453      
                  -0.5538417442     0.8149902453      -0.003571653194   -0.006562744519   
335000000         0.001845060062    -0.01227650682    -0.5437064918     0.8216991996      
                  -0.5437064918     0.8216991996      -0.00361613448    -0.006617125009   
336000000         0.00157240443     -0.0123807819     -0.5335790837     0.8283062582      
                  -0.5335790837     0.8283062582      -0.003817287489   -0.00684408234    
337000000         0.00136704678     -0.01251478263    -0.523295838      0.8348140411      
                  -0.523295838      0.8348140411      -0.004034325162   -0.006692769529   
338000000         0.001112649981    -0.01263503067    -0.5130055031     0.8411182515      
                  -0.5130055031     0.8411182515      -0.004314211003   -0.006914702747   
339000000         0.0008097439964   -0.01267084199    -0.5025961529     0.8473452935      
                  -0.5025961529     0.8473452935      -0.004479381262   -0.006833791471   
340000000         0.0005397136235   -0.01278889383    -0.4921726282     0.8534901801      
                  -0.4921726282     0.8534901801      -0.004712011433   -0.007011537342   
341000000         0.0002023891453   -0.01287433335    -0.4816189853     0.8595037154      
                  -0.4816189853     0.8595037154      -0.00498599841    -0.007021836272   
342000000         7.806854446e-06   -0.01300461693    -0.4709899331     0.865268068       
                  -0.4709899331     0.865268068       -0.005111700822   -0.007026637338   
343000000         -0.0002532253621  -0.01305847921    -0.460290706      0.870990548       
                  -0.460290706      0.870990548       -0.005321974502   -0.007056132796   
344000000         -0.000517222284   -0.01318473007    -0.4495367469     0.876546233       
                  -0.4495367469     0.876546233       -0.005588515677   -0.007076933162   
345000000         -0.0007929876716  -0.01312746895    -0.4386778038     0.8820024519      
                  -0.4386778038     0.8820024519      -0.005875857887   -0.007202696569   
346000000         -0.001125119319   -0.01327020197    -0.4277962503     0.8873422674      
                  -0.4277962503     0.8873422674      -0.006006612629   -0.007088102868   
347000000         -0.001410387219   -0.01332709916    -0.4168529273     0.8925474498      
                  -0.4168529273     0.8925474498      -0.006199318535   -0.007041640618   
348000000         -0.001642888233   -0.01334646203    -0.4058222478     0.8975365864      
                  -0.4058222478     0.8975365864      -0.00646152786    -0.007117166104   
349000000         -0.002008561727   -0.0133406314     -0.3947375822     0.9024590993      
                  -0.3947375822     0.9024590993      -0.006480957678   -0.007366136663   
350000000         -0.002335096847   -0.01338648903    -0.3836192114     0.9072420585      
                  -0.3836192114     0.9072420585      -0.006689353252   -0.007377492523   
