! RsaToolbox (C) 2014 Rohde & Schwarz America
! 
! Number of points: 101
! Number of ports: 2
! Balanced ports?: No
! 
! 
# Hz S RI R 50
250000000         0.00175121433     0.004634515456    -0.9879550722     -0.03554066719    
                  -0.9879550722     -0.03554066719    0.0001130176278   0.006141688232    
251000000         0.001825268923    0.004365290747    -0.9882860247     -0.02326977098    
                  -0.9882860247     -0.02326977098    0.0004190873366   0.005871366365    
252000000         0.001933720317    0.004102256771    -0.9885154481     -0.010996744      
                  -0.9885154481     -0.010996744      0.0005986732342   0.005500669119    
253000000         0.002034282483    0.003830412662    -0.988566834      0.001252279128    
                  -0.988566834      0.001252279128    0.0007623260912   0.00513578137     
254000000         0.002057394501    0.003634124012    -0.9884535635     0.0135161043      
                  -0.9884535635     0.0135161043      0.001072643698    0.004844020492    
255000000         0.00218314051     0.003402655428    -0.9881812057     0.02576888377     
                  -0.9881812057     0.02576888377     0.001261644216    0.00440052914     
256000000         0.002308975442    0.003140501291    -0.987767829      0.03801982546     
                  -0.987767829      0.03801982546     0.001533579005    0.003893838864    
257000000         0.002333346037    0.00284009446     -0.98722436       0.05029269442     
                  -0.98722436       0.05029269442     0.001699454814    0.003468950331    
258000000         0.002407115641    0.002608382747    -0.9865274252     0.06251831514     
                  -0.9865274252     0.06251831514     0.00184206561     0.003262289391    
259000000         0.002418089       0.002375804225    -0.9856137239     0.07474485775     
                  -0.9856137239     0.07474485775     0.002052750803    0.002833519506    
260000000         0.002487267619    0.002123912228    -0.9846408752     0.08695591897     
                  -0.9846408752     0.08695591897     0.00214097549     0.002347255683    
261000000         0.002538235165    0.00183771911     -0.9834833739     0.09917264425     
                  -0.9834833739     0.09917264425     0.002267491165    0.001939842063    
262000000         0.002598627503    0.001580108922    -0.9822070431     0.1113430147      
                  -0.9822070431     0.1113430147      0.0024407221      0.001513147668    
263000000         0.002562602859    0.001313731981    -0.9807345966     0.1235076706      
                  -0.9807345966     0.1235076706      0.002560417742    0.001077099237    
264000000         0.002560562181    0.001091001521    -0.9790879601     0.1356423298      
                  -0.9790879601     0.1356423298      0.00269442614     0.0007900547382   
265000000         0.002598187104    0.0007944717275   -0.9773203739     0.1477725992      
                  -0.9773203739     0.1477725992      0.002744685349    0.0001635181438   
266000000         0.002613069936    0.0005019557397   -0.9753636347     0.1598791235      
                  -0.9753636347     0.1598791235      0.002874642288    -0.0001736012055  
267000000         0.002577309935    0.0003034537291   -0.9733189969     0.1719391636      
                  -0.9733189969     0.1719391636      0.003026414247    -0.0005722194561  
268000000         0.002560823694    1.354151364e-05   -0.9710919139     0.1840374186      
                  -0.9710919139     0.1840374186      0.003038305378    -0.0009695942137  
269000000         0.002584281717    -0.000218219502   -0.9687098716     0.196046614       
                  -0.9687098716     0.196046614       0.003186343138    -0.001477428059   
270000000         0.002553288509    -0.0004883130599  -0.9662139642     0.2080390433      
                  -0.9662139642     0.2080390433      0.003103070353    -0.001917881501   
271000000         0.002487911093    -0.000766103022   -0.9635831102     0.220015079       
                  -0.9635831102     0.220015079       0.003146627898    -0.002197657588   
272000000         0.002497145947    -0.001047946127   -0.9607030873     0.231899581       
                  -0.9607030873     0.231899581       0.003301446397    -0.002826238868   
273000000         0.002445747178    -0.001316131262   -0.9577632498     0.2437983729      
                  -0.9577632498     0.2437983729      0.003252173001    -0.003203494973   
274000000         0.00235805651     -0.00156212538    -0.954605242      0.255704292       
                  -0.954605242      0.255704292       0.003253705328    -0.003625681632   
275000000         0.002341566177    -0.001872321621   -0.9513979885     0.2674930341      
                  -0.9513979885     0.2674930341      0.003227333623    -0.004087816612   
276000000         0.002223360004    -0.002122493927   -0.9479981738     0.2792489377      
                  -0.9479981738     0.2792489377      0.003205099538    -0.004471044568   
277000000         0.002201908716    -0.002347665781   -0.9444547365     0.290975418       
                  -0.9444547365     0.290975418       0.003293776077    -0.005002329071   
278000000         0.002058233482    -0.002616644292   -0.9407606075     0.3026576481      
                  -0.9407606075     0.3026576481      0.00317009063     -0.005551883033   
279000000         0.001989132741    -0.00284358977    -0.9369388572     0.3143039548      
                  -0.9369388572     0.3143039548      0.003213555655    -0.005755901708   
280000000         0.001920485335    -0.003093034963   -0.9329197796     0.3258707528      
                  -0.9329197796     0.3258707528      0.003124976506    -0.006285700019   
281000000         0.001827705009    -0.003346830856   -0.9288035466     0.3374294225      
                  -0.9288035466     0.3374294225      0.003080551051    -0.006743344597   
282000000         0.001708864855    -0.003577411022   -0.9244997199     0.3489593437      
                  -0.9244997199     0.3489593437      0.002978479667    -0.007035356882   
283000000         0.00151702506     -0.003811237176   -0.9201245617     0.3603241709      
                  -0.9201245617     0.3603241709      0.002992954197    -0.007580355734   
284000000         0.001454790057    -0.004060159716   -0.9155691489     0.3717295871      
                  -0.9155691489     0.3717295871      0.002900601243    -0.007948553092   
285000000         0.001305326512    -0.0042840099     -0.9108439589     0.3830642426      
                  -0.9108439589     0.3830642426      0.002782963241    -0.008476830155   
286000000         0.001199062652    -0.004532098394   -0.9060163756     0.394316884       
                  -0.9060163756     0.394316884       0.002613374634    -0.008864995977   
287000000         0.001036695009    -0.0047761344     -0.9010719308     0.4055208312      
                  -0.9010719308     0.4055208312      0.002408686461    -0.009246419231   
288000000         0.0008669135415   -0.004989860603   -0.8959371195     0.4166960165      
                  -0.8959371195     0.4166960165      0.002258278951    -0.009659939926   
289000000         0.0007492203621   -0.005186759774   -0.8906982496     0.4277277626      
                  -0.8906982496     0.4277277626      0.002277774783    -0.01012689572    
290000000         0.0006417133254   -0.005413464369   -0.8853075014     0.4387427707      
                  -0.8853075014     0.4387427707      0.002124952976    -0.01056278475    
291000000         0.0004380824553   -0.00562287074    -0.8798026527     0.4496566638      
                  -0.8798026527     0.4496566638      0.001984159834    -0.01086724627    
292000000         0.0002554087814   -0.005820483116   -0.8741085498     0.4605088412      
                  -0.8741085498     0.4605088412      0.001756839528    -0.01127181822    
293000000         9.611162391e-05   -0.006031973063   -0.8683029866     0.4713499205      
                  -0.8683029866     0.4713499205      0.001629105871    -0.01152554809    
294000000         -0.0001009016779  -0.006262926518   -0.8624210108     0.4820920544      
                  -0.8624210108     0.4820920544      0.001417930173    -0.0121356089     
295000000         -0.0002758815658  -0.006439133586   -0.856320734      0.4927175642      
                  -0.856320734      0.4927175642      0.001213608683    -0.0124731338     
296000000         -0.0004534184283  -0.006653252277   -0.850125248      0.5033049714      
                  -0.850125248      0.5033049714      0.0009784985563   -0.01276532932    
297000000         -0.0006037389474  -0.006859827414   -0.8438098672     0.5137820837      
                  -0.8438098672     0.5137820837      0.0007290879214   -0.01328198649    
298000000         -0.0008503248105  -0.007077353894   -0.837347724      0.5242568923      
                  -0.837347724      0.5242568923      0.0004928596636   -0.01352714387    
299000000         -0.001050755793   -0.007231868644   -0.8307776215     0.5345670278      
                  -0.8307776215     0.5345670278      0.0001978132752   -0.01390082847    
300000000         -0.001257989259   -0.007374612135   -0.8240518892     0.5447742999      
                  -0.8240518892     0.5447742999      9.242762357e-05   -0.01430404959    
301000000         -0.001426370002   -0.007563659342   -0.8172206266     0.5549651574      
                  -0.8172206266     0.5549651574      -0.0001705389693  -0.0145168343     
302000000         -0.001702638714   -0.007672295064   -0.8102746676     0.5650753898      
                  -0.8102746676     0.5650753898      -0.0003322210278  -0.01495593152    
303000000         -0.001933484273   -0.007853382808   -0.8031604212     0.5750657315      
                  -0.8031604212     0.5750657315      -0.0007233439925  -0.0152429614     
304000000         -0.002100688658   -0.008004420663   -0.7959830506     0.5849799898      
                  -0.7959830506     0.5849799898      -0.0009642670798  -0.01557170705    
305000000         -0.002404928155   -0.008100093797   -0.7886158049     0.5947662058      
                  -0.7886158049     0.5947662058      -0.001151161163   -0.01580129684    
306000000         -0.002612245098   -0.008339662125   -0.7811884042     0.6045174819      
                  -0.7811884042     0.6045174819      -0.001440156105   -0.01616145785    
307000000         -0.002894435095   -0.008423128512   -0.7736122422     0.6141373662      
                  -0.7736122422     0.6141373662      -0.001784288632   -0.01642542023    
308000000         -0.003129702801   -0.008584865612   -0.7659364508     0.6236585344      
                  -0.7659364508     0.6236585344      -0.002180223077   -0.01684778192    
309000000         -0.003387638321   -0.008708920116   -0.758114682      0.6330926688      
                  -0.758114682      0.6330926688      -0.002466450388   -0.01704688075    
310000000         -0.003682405751   -0.008810411779   -0.7501845792     0.6424648933      
                  -0.7501845792     0.6424648933      -0.00280116516    -0.017372861      
311000000         -0.003918832645   -0.008919684634   -0.7421768607     0.6516809158      
                  -0.7421768607     0.6516809158      -0.003044674795   -0.01769205154    
312000000         -0.004149858334   -0.009040978841   -0.7340506578     0.6608132945      
                  -0.7340506578     0.6608132945      -0.003500995253   -0.01796135048    
313000000         -0.004443119915   -0.009152798839   -0.7257265261     0.6698804063      
                  -0.7257265261     0.6698804063      -0.003781603176   -0.01809250239    
314000000         -0.004678287416   -0.009200871225   -0.717363165      0.6787914863      
                  -0.717363165      0.6787914863      -0.004096882621   -0.0183923194     
315000000         -0.004966733705   -0.009301060493   -0.7089297079     0.687604714       
                  -0.7089297079     0.687604714       -0.004543048952   -0.01863549174    
316000000         -0.005244219655   -0.009429684318   -0.7003119013     0.6963723779      
                  -0.7003119013     0.6963723779      -0.004832822604   -0.01899068372    
317000000         -0.005514186477   -0.009466987239   -0.6916038948     0.7049659282      
                  -0.6916038948     0.7049659282      -0.00515130292    -0.01908467116    
318000000         -0.005880067427   -0.009541661846   -0.6827883119     0.71346489        
                  -0.6827883119     0.71346489        -0.005588869822   -0.01947002971    
319000000         -0.006048422806   -0.009633131285   -0.6738728996     0.7218645133      
                  -0.6738728996     0.7218645133      -0.005800385665   -0.01968307826    
320000000         -0.006350425939   -0.009686287898   -0.6648924479     0.7301460966      
                  -0.6648924479     0.7301460966      -0.006326420824   -0.01992174751    
321000000         -0.006657217173   -0.009659781344   -0.655752382      0.7383268874      
                  -0.655752382      0.7383268874      -0.006694017518   -0.02000589484    
322000000         -0.006949592944   -0.009782409376   -0.6465163965     0.7463916346      
                  -0.6465163965     0.7463916346      -0.007051338913   -0.02016311655    
323000000         -0.007166357338   -0.009749568549   -0.637193294      0.7542968695      
                  -0.637193294      0.7542968695      -0.0073445817     -0.02022622681    
324000000         -0.007464001087   -0.009810198802   -0.6277778182     0.7621711585      
                  -0.6277778182     0.7621711585      -0.007775920304   -0.02037034046    
325000000         -0.007771832794   -0.009814337013   -0.6183118032     0.7698304218      
                  -0.6183118032     0.7698304218      -0.008156983305   -0.02053084528    
326000000         -0.008041752246   -0.009845211834   -0.6086796822     0.7774346711      
                  -0.6086796822     0.7774346711      -0.008560279759   -0.02055862679    
327000000         -0.008351941196   -0.009796807899   -0.5989691357     0.7849076132      
                  -0.5989691357     0.7849076132      -0.009015951067   -0.02061033836    
328000000         -0.008661453496   -0.009826384685   -0.5891743037     0.7922469483      
                  -0.5891743037     0.7922469483      -0.009352028578   -0.02084207267    
329000000         -0.008932842433   -0.009796991255   -0.5793160988     0.7994939763      
                  -0.5793160988     0.7994939763      -0.009848189195   -0.02086534901    
330000000         -0.009229926077   -0.00977320976    -0.5693490454     0.8065869618      
                  -0.5693490454     0.8065869618      -0.01024069085    -0.02085531764    
331000000         -0.009539644957   -0.00979232499    -0.5592755958     0.8135588699      
                  -0.5592755958     0.8135588699      -0.01039928786    -0.02103042633    
332000000         -0.009768426096   -0.009750370803   -0.5491289297     0.8203796428      
                  -0.5491289297     0.8203796428      -0.01087822034    -0.02117771297    
333000000         -0.009999741098   -0.009733120536   -0.5389165563     0.8271298259      
                  -0.5389165563     0.8271298259      -0.01125566565    -0.02102508264    
334000000         -0.01030801497    -0.009660777175   -0.5285946637     0.833738743       
                  -0.5285946637     0.833738743       -0.01173052298    -0.02116105597    
335000000         -0.01062648177    -0.009634761584   -0.5182087238     0.8401998195      
                  -0.5182087238     0.8401998195      -0.01198789133    -0.02119175099    
336000000         -0.01088361735    -0.009536830317   -0.5077336445     0.8465231637      
                  -0.5077336445     0.8465231637      -0.01243785628    -0.02124654903    
337000000         -0.01120628661    -0.009534526255   -0.4972170389     0.8527300833      
                  -0.4972170389     0.8527300833      -0.01283666263    -0.02137011928    
338000000         -0.01145512908    -0.009425509878   -0.4865500202     0.8588216003      
                  -0.4865500202     0.8588216003      -0.01329026309    -0.02129073524    
339000000         -0.01177714931    -0.009365979919   -0.4759064558     0.8647854739      
                  -0.4759064558     0.8647854739      -0.01358334323    -0.0214141804     
340000000         -0.01207451126    -0.009268929044   -0.4651352494     0.87057616        
                  -0.4651352494     0.87057616        -0.01383832472    -0.02144117761    
341000000         -0.01232313733    -0.009176427511   -0.4542845555     0.8762622657      
                  -0.4542845555     0.8762622657      -0.01436911113    -0.02133967331    
342000000         -0.01252400147    -0.009109679875   -0.4433897506     0.8817970797      
                  -0.4433897506     0.8817970797      -0.0147635364     -0.02124397278    
343000000         -0.01280432717    -0.009047409608   -0.4324212104     0.8872284191      
                  -0.4324212104     0.8872284191      -0.01517891189    -0.0210889172     
344000000         -0.01305248042    -0.008956186594   -0.4213894242     0.8925024678      
                  -0.4213894242     0.8925024678      -0.01562107779    -0.02100577273    
345000000         -0.01331347234    -0.008850996727   -0.4102717295     0.8976362685      
                  -0.4102717295     0.8976362685      -0.01584462319    -0.02095986515    
346000000         -0.01356061037    -0.008718162409   -0.3990685148     0.9026318492      
                  -0.3990685148     0.9026318492      -0.01613166832    -0.0209318426     
347000000         -0.01391878432    -0.008620156339   -0.3878761304     0.9075217389      
                  -0.3878761304     0.9075217389      -0.01656944048    -0.02087657051    
348000000         -0.0141664137     -0.00841203026    -0.3765461135     0.9122264931      
                  -0.3765461135     0.9122264931      -0.01704212938    -0.02078586903    
349000000         -0.01446742762    -0.008336873403   -0.3652355049     0.9168095974      
                  -0.3652355049     0.9168095974      -0.01710210494    -0.02074364756    
350000000         -0.01479175258    -0.008102192092   -0.3538269764     0.9212427576      
                  -0.3538269764     0.9212427576      -0.01757076843    -0.02084058952    
