! RsaToolbox (C) 2015 Rohde & Schwarz America
! 
! Number of points: 201
! Number of ports: 2
! Balanced ports?: No
! 
! 
# Hz S RI R 50
10000000          -0.002480833307   0.0005285895029   0.5087209011      -0.002106517198   0.5087209011      -0.002106517198   0.004651415902    -0.00196833802    
209950000         -0.00320607525    7.616264322e-05   0.5057107984      -0.05292129781    0.5057107984      -0.05292129781    0.005568434461    -0.0002683899486  
409900000         -0.002644951084   -0.0001034795361  0.4980528593      -0.1022342539     0.4980528593      -0.1022342539     0.005754669367    -0.0009584626283  
609850000         -0.002261055737   -0.0004733339485  0.4858601298      -0.1504878002     0.4858601298      -0.1504878002     0.005871682398    -0.001899507324   
809800000         -0.002127571777   -0.00103293845    0.4690973817      -0.1973884797     0.4690973817      -0.1973884797     0.00569296151     -0.003222994325   
1009750000        -0.002207867802   -0.001640936283   0.4477134708      -0.2422530951     0.4477134708      -0.2422530951     0.004568891675    -0.004401190663   
1209700000        -0.002457831963   -0.002185408263   0.4221025339      -0.2848166644     0.4221025339      -0.2848166644     0.003832058168    -0.005648804744   
1409650000        -0.002822833787   -0.002678335195   0.3923325058      -0.3245895036     0.3923325058      -0.3245895036     0.002970704315    -0.006944312658   
1609600000        -0.003273703156   -0.003103248719   0.3585471891      -0.3608441035     0.3585471891      -0.3608441035     0.0009181164084   -0.007057985912   
1809550000        -0.003891067332   -0.00356945091    0.3214029176      -0.3938552958     0.3214029176      -0.3938552958     -0.0006140905917  -0.007108096883   
2009500000        -0.00469218288    -0.003807084645   0.2811568309      -0.4228918954     0.2811568309      -0.4228918954     -0.002854632459   -0.007618239832   
2209450000        -0.005620834685   -0.00394675522    0.2382964575      -0.4476780915     0.2382964575      -0.4476780915     -0.004783922486   -0.008002970237   
2409400000        -0.006667173821   -0.003917847886   0.1932562418      -0.4682725301     0.1932562418      -0.4682725301     -0.006643546682   -0.008453312895   
2609350000        -0.007609356009   -0.00374202893    0.1462251381      -0.4846335763     0.1462251381      -0.4846335763     -0.007725353886   -0.009235090604   
2809300000        -0.008539699948   -0.003302309528   0.09818694115     -0.4960033564     0.09818694115     -0.4960033564     -0.01010146828    -0.008596387175   
3009250000        -0.009321980302   -0.002724135072   0.0496025904      -0.5030317173     0.0496025904      -0.5030317173     -0.01203688133    -0.008257308101   
3209200000        -0.01004817357    -0.002212910476   0.000532297633    -0.5056499013     0.000532297633    -0.5056499013     -0.01300429137    -0.008201144722   
3409150000        -0.01070049701    -0.001511085523   -0.04863396565    -0.5031905659     -0.04863396565    -0.5031905659     -0.01547973507    -0.00722146103    
3609100000        -0.01133826369    -0.0007341284851  -0.09736658426    -0.4962387293     -0.09736658426    -0.4962387293     -0.01684759238    -0.006515817211   
3809050000        -0.01184087688    7.421420637e-05   -0.1451405476     -0.4844708496     -0.1451405476     -0.4844708496     -0.01810250244    -0.005420642089   
4009000000        -0.01228674846    0.0009155117026   -0.1914514272     -0.4679917279     -0.1914514272     -0.4679917279     -0.01942533841    -0.004772143507   
4208950000        -0.01292214114    0.001779512722    -0.2359903691     -0.4469097091     -0.2359903691     -0.4469097091     -0.02047622222    -0.004124288572   
4408900000        -0.0133763967     0.002682929576    -0.2783795585     -0.4213658403     -0.2783795585     -0.4213658403     -0.02079698551    -0.003093476016   
4608850000        -0.01359286598    0.003708239416    -0.3179307893     -0.3920221697     -0.3179307893     -0.3920221697     -0.02125536554    -0.001986638296   
4808800000        -0.0134839941     0.0048721533      -0.3544578927     -0.3589559581     -0.3544578927     -0.3589559581     -0.02140967179    -0.001056093438   
5008750000        -0.01320477355    0.006053734126    -0.3875658436     -0.3225805437     -0.3875658436     -0.3225805437     -0.02131823887    -0.0002477068257  
5208700000        -0.01269746792    0.007165843927    -0.4170375425     -0.2831930727     -0.4170375425     -0.2831930727     -0.02079310066    0.0006957292156   
5408650000        -0.01209395665    0.008137030553    -0.4425706357     -0.2412048429     -0.4425706357     -0.2412048429     -0.02022354109    0.001918402248    
5608600000        -0.01133147316    0.008983537337    -0.4637942729     -0.1970549272     -0.4637942729     -0.1970549272     -0.02017290578    0.003039432693    
5808550000        -0.01046922661    0.00968396432     -0.4806220043     -0.1510330625     -0.4806220043     -0.1510330625     -0.02001663313    0.00403659987     
6008500000        -0.009625182369   0.01022727891     -0.4930466463     -0.1036776891     -0.4930466463     -0.1036776891     -0.01960088263    0.004883441045    
6208450000        -0.008703266291   0.01065429333     -0.5007927366     -0.0552709301     -0.5007927366     -0.0552709301     -0.01915811558    0.005672508571    
6408400000        -0.007683706927   0.01106439607     -0.5036514394     -0.006374255228   -0.5036514394     -0.006374255228   -0.01806302791    0.006037823247    
6608350000        -0.006733494134   0.01137007995     -0.5016788302     0.04269215294     -0.5016788302     0.04269215294     -0.0171001737     0.006355990011    
6808300000        -0.005916184298   0.01154907464     -0.4950333329     0.09132840485     -0.4950333329     0.09132840485     -0.01551698015    0.0069460422      
7008250000        -0.00519698761    0.01164359447     -0.4833976903     0.1390765639      -0.4833976903     0.1390765639      -0.01353183885    0.007529979306    
7208200000        -0.004536242771   0.01163629203     -0.467306331      0.1855294413      -0.467306331      0.1855294413      -0.012269953      0.008117492767    
7408150000        -0.004056814016   0.01164407049     -0.4469158871     0.2301722994      -0.4469158871     0.2301722994      -0.01071480911    0.008983557006    
7608100000        -0.00358403471    0.01151874279     -0.4222906253     0.2725357861      -0.4222906253     0.2725357861      -0.009606821003   0.009519086932    
7808050000        -0.003138992378   0.01152718597     -0.3935537411     0.3123110127      -0.3935537411     0.3123110127      -0.008455021674   0.009942127774    
8008000000        -0.002617532689   0.0116862521      -0.3612179373     0.3490539934      -0.3612179373     0.3490539934      -0.007423100336   0.009926177175    
8207950000        -0.002035526794   0.0118851356      -0.3255199757     0.3825202131      -0.3255199757     0.3825202131      -0.005804462035   0.009029570132    
8407900000        -0.001452626213   0.01203006112     -0.2867074106     0.4122463775      -0.2867074106     0.4122463775      -0.004486940401   0.009041109011    
8607850000        -0.000776249281   0.01233817397     -0.2452552728     0.4380795168      -0.2452552728     0.4380795168      -0.002967018931   0.009027839       
8807800000        -0.0001559364226  0.01251835208     -0.2014393046     0.4597467986      -0.2014393046     0.4597467986      -0.001594847488   0.009570471272    
9007750000        0.000648054468    0.01251921138     -0.1556587873     0.4769453631      -0.1556587873     0.4769453631      -0.000752588069   0.009711992696    
9207700000        0.001543312501    0.01249535848     -0.1084381086     0.4897155121      -0.1084381086     0.4897155121      -0.0004032038058  0.009803104731    
9407650000        0.002648138125    0.01229057041     -0.06021298113    0.497799742       -0.06021298113    0.497799742       -0.0003805336996  0.009926098477    
9607600000        0.003824848317    0.01192797263     -0.01149652594    0.5011764895      -0.01149652594    0.5011764895      0.0003280284388   0.009880145731    
9807550000        0.004973140534    0.01136084365     0.03736854159     0.4997490483      0.03736854159     0.4997490483      0.0007763193905   0.009639904588    
1.00075e+10       0.00612326326     0.01067757631     0.08587807384     0.493628231       0.08587807384     0.493628231       0.00146193493     0.009575853018    
1.020745e+10      0.007068002318    0.01003270592     0.1336007909      0.48284848        0.1336007909      0.48284848        0.002378291661    0.009961014526    
1.04074e+10       0.008010052116    0.009374856524    0.1799950244      0.467536281       0.1799950244      0.467536281       0.003286817707    0.01028932701     
1.060735e+10      0.008889413507    0.008591256763    0.2246160099      0.4476830939      0.2246160099      0.4476830939      0.003725371982    0.01066759997     
1.08073e+10       0.009762762788    0.007801562663    0.2671558615      0.4234981341      0.2671558615      0.4234981341      0.003530226772    0.01073969693     
1.100725e+10      0.01058111897     0.006776391415    0.3072245999      0.395312692       0.3072245999      0.395312692       0.00294237002     0.0104880461      
1.12072e+10       0.01133859549     0.005710233224    0.3442622614      0.3634016816      0.3442622614      0.3634016816      0.002385169631    0.01033948072     
1.140715e+10      0.01185892945     0.004656992447    0.3779838882      0.3280622043      0.3779838882      0.3280622043      0.001479768929    0.009906688233    
1.16071e+10       0.01232172102     0.003901210965    0.4080013353      0.2895909035      0.4080013353      0.2895909035      0.0009463180759   0.009699151208    
1.180705e+10      0.01277640568     0.00300539644     0.4342074144      0.2484362721      0.4342074144      0.2484362721      0.0005672392259   0.009593297841    
1.2007e+10        0.01296840669     0.002110591647    0.4562122813      0.2049212676      0.4562122813      0.2049212676      0.0002147775774   0.009633551251    
1.220695e+10      0.01311530556     0.001165998281    0.473768511       0.159628144       0.473768511       0.159628144       0.0001689748057   0.00940024506     
1.24069e+10       0.01314053843     7.35506229e-05    0.4868596651      0.1128236757      0.4868596651      0.1128236757      -0.0001259271567  0.009045941056    
1.260685e+10      0.01307932855     -0.001101725543   0.4954663565      0.06497150597     0.4954663565      0.06497150597     -0.0002815870698  0.008404178074    
1.28068e+10       0.01293196299     -0.002440803745   0.4992642253      0.01649846992     0.4992642253      0.01649846992     -0.0007475735644  0.007935050206    
1.300675e+10      0.01279382449     -0.004020099832   0.49833367        -0.03213150558    0.49833367        -0.03213150558    -0.001051720064   0.007633914666    
1.32067e+10       0.01262034352     -0.005602723675   0.4926311899      -0.08053129698    0.4926311899      -0.08053129698    -0.00150682124    0.007297630578    
1.340665e+10      0.01241523191     -0.007372087129   0.4823440819      -0.1281796578     0.4823440819      -0.1281796578     -0.002338124549   0.006501403952    
1.36066e+10       0.01208929577     -0.009153670516   0.4673418617      -0.1747035494     0.4673418617      -0.1747035494     -0.003160144025   0.005818569251    
1.380655e+10      0.01156278523     -0.01100880635    0.4479985116      -0.2194791458     0.4479985116      -0.2194791458     -0.003942662359   0.005205619292    
1.40065e+10       0.0108849277      -0.01287788197    0.4243859048      -0.2621404364     0.4243859048      -0.2621404364     -0.004635005253   0.004433842352    
1.420645e+10      0.009993864375    -0.0146625818     0.3966310628      -0.3022308463     0.3966310628      -0.3022308463     -0.005148866136   0.003705940761    
1.44064e+10       0.008929135766    -0.01647572791    0.3651822205      -0.3393923424     0.3651822205      -0.3393923424     -0.005406454665   0.003088529044    
1.460635e+10      0.007519229375    -0.01793079349    0.3302345839      -0.3732151443     0.3302345839      -0.3732151443     -0.005352741455   0.003062393688    
1.48063e+10       0.005929438673    -0.0193122951     0.2922019636      -0.4034933066     0.2922019636      -0.4034933066     -0.005643668795   0.00303422727     
1.500625e+10      0.004031569255    -0.01998492428    0.2514923629      -0.4298282181     0.2514923629      -0.4298282181     -0.005813070089   0.003194040121    
1.52062e+10       0.001829761337    -0.02046155252    0.2084331402      -0.4521873597     0.2084331402      -0.4521873597     -0.006257077541   0.002831509004    
1.540615e+10      -0.0007577121463  -0.02048034882    0.1633778235      -0.470134175      0.1633778235      -0.470134175      -0.006534476271   0.002622143082    
1.56061e+10       -0.003477507436   -0.0201238825     0.1168417009      -0.4836894895     0.1168417009      -0.4836894895     -0.006758125092   0.002600737144    
1.580605e+10      -0.006451362569   -0.01953869278    0.06916596321     -0.4927023633     0.06916596321     -0.4927023633     -0.006978476342   0.002199295372    
1.6006e+10        -0.009316315104   -0.01868897715    0.02083539021     -0.4971063409     0.02083539021     -0.4971063409     -0.006949428834   0.001904181073    
1.620595e+10      -0.01188914927    -0.01769607143    -0.02773928168    -0.4966863828     -0.02773928168    -0.4966863828     -0.006603845335   0.001985557998    
1.64059e+10       -0.01435874356    -0.01642863616    -0.07604367028    -0.4914484618     -0.07604367028    -0.4914484618     -0.006095208874   0.002371258147    
1.660585e+10      -0.01641147628    -0.01496150408    -0.123657359      -0.4816466512     -0.123657359      -0.4816466512     -0.005374221096   0.002961153999    
1.68058e+10       -0.01819151526    -0.01324196723    -0.1700922467     -0.4670815826     -0.1700922467     -0.4670815826     -0.004818587993   0.003985827231    
1.700575e+10      -0.01957195435    -0.01143577227    -0.21492687       -0.4481195284     -0.21492687       -0.4481195284     -0.004252862607   0.005033021964    
1.72057e+10       -0.02049857509    -0.00935568546    -0.2575918451     -0.4248293783     -0.2575918451     -0.4248293783     -0.003299410671   0.006079141591    
1.740565e+10      -0.02101508217    -0.007239335764   -0.2978453718     -0.3973655006     -0.2978453718     -0.3973655006     -0.002024845442   0.00687886182     
1.76056e+10       -0.02121373784    -0.005202082816   -0.3353168189     -0.3662244622     -0.3353168189     -0.3662244622     -0.000445561843   0.007465988219    
1.780555e+10      -0.02087918222    -0.003160464502   -0.3694947173     -0.3316521096     -0.3694947173     -0.3316521096     0.001064213429    0.008321170958    
1.80055e+10       -0.02027972599    -0.001225028438   -0.400084133      -0.293944734      -0.400084133      -0.293944734      0.002450580241    0.009085290348    
1.820545e+10      -0.01933549182    0.0006364394217   -0.4267105326     -0.2535652614     -0.4267105326     -0.2535652614     0.003770849106    0.009842670413    
1.84054e+10       -0.01825992909    0.002501461674    -0.4492836291     -0.2107392375     -0.4492836291     -0.2107392375     0.004596525798    0.01045757942     
1.860535e+10      -0.01708756575    0.004228342079    -0.4676098549     -0.1660445835     -0.4676098549     -0.1660445835     0.005527962556    0.0109791849      
1.88053e+10       -0.01599168099    0.005842128815    -0.4813169136     -0.1197915861     -0.4813169136     -0.1197915861     0.006305051617    0.01146582047     
1.900525e+10      -0.01488206913    0.007375398709    -0.4904710819     -0.07238341233    -0.4904710819     -0.07238341233    0.00726902691     0.0118871546      
1.92052e+10       -0.0139021131     0.008758024923    -0.4948781282     -0.02419801523    -0.4948781282     -0.02419801523    0.008743422842    0.01175633889     
1.940515e+10      -0.01294736385    0.009987281213    -0.4946695842     0.02421272201     -0.4946695842     0.02421272201     0.01022926992     0.01150872564     
1.96051e+10       -0.0120991163     0.01106759195     -0.4896828552     0.07247472781     -0.4896828552     0.07247472781     0.01200645072     0.01113766773     
1.980505e+10      -0.01121991841    0.01207033814     -0.4800771943     0.1200442793      -0.4800771943     0.1200442793      0.01399355303     0.01076253842     
2.0005e+10        -0.01026840512    0.01291983134     -0.4658288704     0.16652005        -0.4658288704     0.16652005        0.01565155921     0.01000781442     
2.020495e+10      -0.009267613134   0.01354240626     -0.4472550152     0.2113167176      -0.4472550152     0.2113167176      0.01692216797     0.00897761944     
2.04049e+10       -0.008073774165   0.01403916545     -0.4244521209     0.2540300823      -0.4244521209     0.2540300823      0.01763274034     0.007798948433    
2.060485e+10      -0.006932581827   0.01444793349     -0.3975702744     0.2942347588      -0.3975702744     0.2942347588      0.0180565183      0.006386445406    
2.08048e+10       -0.00561010035    0.01453893713     -0.3668490851     0.331537338       -0.3668490851     0.331537338       0.01811939419     0.004691218962    
2.100475e+10      -0.004214120833   0.01436634149     -0.3326395275     0.3656641521      -0.3326395275     0.3656641521      0.01776182245     0.002654934182    
2.12047e+10       -0.002682710937   0.01396808137     -0.2952948062     0.3962865877      -0.2952948062     0.3962865877      0.01750571152     0.0007215941061   
2.140465e+10      -0.001018025622   0.01330865958     -0.2549963351     0.4229600384      -0.2549963351     0.4229600384      0.01758215559     -0.0009446577889  
2.16046e+10       0.000673143379    0.01247724885     -0.2124009838     0.445661268       -0.2124009838     0.445661268       0.01709022474     -0.002379341502   
2.180455e+10      0.002320297784    0.01161881479     -0.1677291812     0.46405834        -0.1677291812     0.46405834        0.01623309596     -0.004208427875   
2.20045e+10       0.003778900236    0.01050953317     -0.1215346817     0.4780999113      -0.1215346817     0.4780999113      0.01555800802     -0.006098288782   
2.220445e+10      0.004985580067    0.009380219089    -0.07428611829    0.4875995699      -0.07428611829    0.4875995699      0.01504879385     -0.00816757541    
2.24044e+10       0.005948163485    0.008194977575    -0.0263877762     0.4924216875      -0.0263877762     0.4924216875      0.01481786465     -0.009999412792   
2.260435e+10      0.006446264973    0.007151315082    0.02166078719     0.4925781135      0.02166078719     0.4925781135      0.01404290236     -0.01221021475    
2.28043e+10       0.00672783649     0.006058206827    0.06961988598     0.4880950493      0.06961988598     0.4880950493      0.0124847792      -0.0143050556     
2.300425e+10      0.006749920115    0.004934780354    0.1166831261      0.4790251844      0.1166831261      0.4790251844      0.01101826224     -0.01653506868    
2.32042e+10       0.006585114001    0.00420676575     0.1627122788      0.4649797456      0.1627122788      0.4649797456      0.009456000299    -0.01852891019    
2.340415e+10      0.006195840604    0.003645893671    0.2073249293      0.4464923229      0.2073249293      0.4464923229      0.008171361145    -0.0206652676     
2.36041e+10       0.005807099348    0.003268704519    0.2500153411      0.4239454383      0.2500153411      0.4239454383      0.00684216777     -0.02246380368    
2.380405e+10      0.005197179042    0.003136004398    0.2903668265      0.3972678212      0.2903668265      0.3972678212      0.005751333184    -0.02393996635    
2.4004e+10        0.004490414495    0.003057845374    0.3276885048      0.3665125988      0.3276885048      0.3665125988      0.005010932965    -0.02471737599    
