! RsaToolbox (C) 2015 Rohde & Schwarz America
! 
! Number of points: 850
! Number of ports: 2
! Balanced ports?: No
! 
! 
# Hz S RI R 50
10000000          -0.01109815492    -0.005338850007   0.9910759219      -0.008105438163   0.9910759219      -0.008105438163   0.03517952231     -0.007583029347   
20000000          0.002469567967    0.006426974432    0.9972836173      -0.01120965121    0.9972836173      -0.01120965121    -0.00123168814    -0.008426528594   
30000000          -0.002190496415   0.0003355299319   0.9978711256      -0.0192606592     0.9978711256      -0.0192606592     0.004450465962    -0.001418819085   
40000000          -0.002777047558   0.0007142923818   0.9982689011      -0.02711562214    0.9982689011      -0.02711562214    0.002845085422    0.0007023113078   
50000000          0.0002314928435   -0.0003393943957  1.000043198       -0.03485456152    1.000043198       -0.03485456152    0.0008146642771   -6.16093641e-06   
60000000          -0.001800509215   -0.0001086333506  0.9990678102      -0.04141660544    0.9990678102      -0.04141660544    0.00369132088     0.001816588579    
70000000          -0.001123461557   -0.001590839252   0.9976953973      -0.04766274812    0.9976953973      -0.04766274812    -0.000191812394   0.001093527126    
80000000          -0.000695248999   -0.0004359556254  0.998949222       -0.05696462791    0.998949222       -0.05696462791    0.004276308296    -0.0001943334115  
90000000          8.604237784e-05   -0.001179714022   0.9989220433      -0.06309698131    0.9989220433      -0.06309698131    0.0009016082239   -1.086172858e-05  
100000000         0.0002907012852   -0.0003007597424  0.9982069448      -0.06942882621    0.9982069448      -0.06942882621    0.00118821238     0.000671096318    
110000000         -0.000272116481   -0.0007670623914  0.9965741584      -0.07591061351    0.9965741584      -0.07591061351    0.001617354156    0.0006709350606   
120000000         -1.677916879e-05  -0.000694363823   0.997445817       -0.08425666157    0.997445817       -0.08425666157    0.001950258348    -0.002414268294   
130000000         -0.0002565233002  -0.001314410993   0.9960485364      -0.09130819661    0.9960485364      -0.09130819661    0.001198702745    -0.0004509652269  
140000000         0.0005004956451   -0.001263353075   0.995859799       -0.09819216072    0.995859799       -0.09819216072    0.001528792288    -0.0017444679     
150000000         -0.0001945521236  -0.001373400548   0.9945509779      -0.1047892357     0.9945509779      -0.1047892357     0.0009226105635   -0.001291592941   
160000000         -2.720129529e-05  -0.001026606398   0.9943973168      -0.1112499417     0.9943973168      -0.1112499417     -7.891287576e-05  -0.002431573      
170000000         -0.0003242740334  -0.001415837972   0.9934372483      -0.118819593      0.9934372483      -0.118819593      0.000427988499    -0.001311600438   
180000000         -0.0003772894932  -0.001533557874   0.9923360826      -0.125214663      0.9923360826      -0.125214663      0.00152798507     -0.001376175189   
190000000         -0.0002037676696  -0.001828240593   0.9921148459      -0.1325804772     0.9921148459      -0.1325804772     0.000727278182    -0.002381198988   
200000000         -0.0008584329667  -0.001556996833   0.9911036419      -0.1393576462     0.9911036419      -0.1393576462     0.0009169841292   -0.001921508353   
210000000         -0.0003567005188  -0.00194332641    0.9898223507      -0.1465307615     0.9898223507      -0.1465307615     0.001182037063    -0.001355707115   
220000000         -0.0003709078689  -0.002221338142   0.9889517683      -0.1533913049     0.9889517683      -0.1533913049     0.0004544778935   -0.001339339078   
230000000         -0.0005041575755  -0.002561078413   0.9877452675      -0.1606041295     0.9877452675      -0.1606041295     0.001081273657    -0.001317692988   
240000000         -0.0002394418545  -0.002578207697   0.9868314498      -0.1678358229     0.9868314498      -0.1678358229     0.001481050274    -0.001444901531   
250000000         -0.000422930889   -0.002775231836   0.985481843       -0.1744223035     0.985481843       -0.1744223035     0.001146262817    -0.001027629708   
260000000         -0.0003837476475  -0.003201785723   0.9843513715      -0.1816788616     0.9843513715      -0.1816788616     0.001504977654    -0.001639278687   
270000000         -0.0003838018774  -0.003325214939   0.9829418383      -0.1884304239     0.9829418383      -0.1884304239     0.001494710943    -0.00134798064    
280000000         -0.0003287646416  -0.003537483051   0.981787241       -0.1954884567     0.981787241       -0.1954884567     0.0009245791671   -0.001687556471   
290000000         -0.0005679042143  -0.003550466591   0.980291955       -0.2023179995     0.980291955       -0.2023179995     0.0008996615236   -0.001508303929   
300000000         -0.000486146021   -0.003666828528   0.9788241577      -0.2093609052     0.9788241577      -0.2093609052     0.001388055048    -0.00170777564    
310000000         -0.0005520663023  -0.003892197034   0.977348873       -0.2166101176     0.977348873       -0.2166101176     0.0009986524531   -0.002175282852   
320000000         -0.0005433560332  -0.003912652827   0.9758252805      -0.2229675835     0.9758252805      -0.2229675835     0.00214102368     -0.00262164192    
330000000         -0.0006759783539  -0.004147521805   0.9743200653      -0.2303538691     0.9743200653      -0.2303538691     0.001771987185    -0.002401018547   
340000000         -0.0009994572628  -0.004187871326   0.9726154686      -0.2373554741     0.9726154686      -0.2373554741     0.001931913371    -0.001754965372   
350000000         -0.0008624156902  -0.004518489469   0.9711816515      -0.2438303903     0.9711816515      -0.2438303903     0.001833280963    -0.002536054786   
360000000         -0.001304903639   -0.004984155859   0.9692786508      -0.2511136477     0.9692786508      -0.2511136477     0.001691370252    -0.002087977423   
370000000         -0.001352546682   -0.004908375228   0.9675283797      -0.2577247289     0.9675283797      -0.2577247289     0.002229697357    -0.002197085797   
380000000         -0.00196065777    -0.004856025699   0.9654682724      -0.264736765      0.9654682724      -0.264736765      0.002344733187    -0.002452615995   
390000000         -0.002232766251   -0.005123642692   0.9635769997      -0.2714762416     0.9635769997      -0.2714762416     0.001520128741    -0.002191746129   
400000000         -0.002431365293   -0.005211511642   0.9617582184      -0.2783028891     0.9617582184      -0.2783028891     0.002134312629    -0.002807356971   
410000000         -0.002730765419   -0.005273248047   0.9594995899      -0.2854157475     0.9594995899      -0.2854157475     0.001820744404    -0.002739788814   
420000000         -0.003048145743   -0.005252143898   0.9573817403      -0.2917975638     0.9573817403      -0.2917975638     0.002339834425    -0.003160166584   
430000000         -0.003224290006   -0.005386626097   0.9554096211      -0.2983994432     0.9554096211      -0.2983994432     0.002098951224    -0.002393017164   
440000000         -0.003453778116   -0.005454081093   0.9530703103      -0.3051221088     0.9530703103      -0.3051221088     0.002465564841    -0.003164005802   
450000000         -0.003371642707   -0.005365088598   0.9509645085      -0.3119639757     0.9509645085      -0.3119639757     0.002021204941    -0.003282715905   
460000000         -0.003674374451   -0.005597045747   0.9486598821      -0.3186849686     0.9486598821      -0.3186849686     0.001975081138    -0.002863451017   
470000000         -0.003684926051   -0.005420592982   0.9464776851      -0.32524105       0.9464776851      -0.32524105       0.002026444983    -0.00302981869    
480000000         -0.003828174927   -0.005567759506   0.9442696443      -0.331874097      0.9442696443      -0.331874097      0.001653339384    -0.003306208797   
490000000         -0.003926758899   -0.005674474554   0.9418522157      -0.338413743      0.9418522157      -0.338413743      0.001847038355    -0.003303809435   
500000000         -0.003951292638   -0.005683930797   0.9393424417      -0.344866678      0.9393424417      -0.344866678      0.001899646294    -0.003037147263   
510000000         -0.004104416438   -0.005816386143   0.9370623386      -0.3517919588     0.9370623386      -0.3517919588     0.002024981152    -0.003072226057   
520000000         -0.004126427082   -0.005938033213   0.9344056977      -0.358361469      0.9344056977      -0.358361469      0.002090452953    -0.003110385752   
530000000         -0.004286078068   -0.005953938259   0.9319009158      -0.364931231      0.9319009158      -0.364931231      0.001943459912    -0.003040614159   
540000000         -0.004270991853   -0.00614223152    0.9292275005      -0.3716958408     0.9292275005      -0.3716958408     0.002368096204    -0.003316508457   
550000000         -0.004552437296   -0.006166316602   0.9266868128      -0.3781799415     0.9266868128      -0.3781799415     0.002396542235    -0.003163873602   
560000000         -0.004511508366   -0.006141750144   0.9240818973      -0.3845555946     0.9240818973      -0.3845555946     0.002551025544    -0.00318986593    
570000000         -0.00463859865    -0.006194092901   0.9215080987      -0.3912682142     0.9215080987      -0.3912682142     0.002680551021    -0.002879073708   
580000000         -0.004766252434   -0.006290899088   0.9184947013      -0.3976636767     0.9184947013      -0.3976636767     0.002609916161    -0.002911133555   
590000000         -0.004982513817   -0.006222576178   0.9157842832      -0.4042607482     0.9157842832      -0.4042607482     0.002712212337    -0.002878242921   
600000000         -0.005107858052   -0.006309826072   0.912844249       -0.4106668644     0.912844249       -0.4106668644     0.002662659196    -0.002887518055   
610000000         -0.005339227317   -0.006328945204   0.9099331399      -0.4171327199     0.9099331399      -0.4171327199     0.002883559959    -0.003121468757   
620000000         -0.00562188575    -0.006329244179   0.9068877993      -0.4235759776     0.9068877993      -0.4235759776     0.003191787081    -0.003614153877   
630000000         -0.005817091756   -0.006313856553   0.9040180948      -0.4300277011     0.9040180948      -0.4300277011     0.002980188229    -0.003484197071   
640000000         -0.006237069968   -0.006186350608   0.900988577       -0.4363751185     0.900988577       -0.4363751185     0.003068855351    -0.003735388253   
650000000         -0.006284511436   -0.006136182636   0.8977355147      -0.4427379994     0.8977355147      -0.4427379994     0.003399906909    -0.003777028664   
660000000         -0.006536734359   -0.006223485236   0.8945946872      -0.4491936966     0.8945946872      -0.4491936966     0.003444621689    -0.003772351094   
670000000         -0.006802160467   -0.006252219063   0.8914988532      -0.4555109999     0.8914988532      -0.4555109999     0.003522766424    -0.004179522427   
680000000         -0.007200330216   -0.006188237417   0.8881560826      -0.46182542       0.8881560826      -0.46182542       0.003328714215    -0.004459705605   
690000000         -0.007415419063   -0.006161071098   0.8849692413      -0.4680939959     0.8849692413      -0.4680939959     0.00340085203     -0.004157788921   
700000000         -0.007732634685   -0.006032106436   0.8815812096      -0.4743619557     0.8815812096      -0.4743619557     0.003338003643    -0.00449534625    
710000000         -0.007990326047   -0.006101845697   0.8781104962      -0.4807017794     0.8781104962      -0.4807017794     0.002996943131    -0.004565116626   
720000000         -0.008191782067   -0.006082760346   0.874725712       -0.4868009889     0.874725712       -0.4868009889     0.003311415553    -0.004838921058   
730000000         -0.008496631644   -0.006140869028   0.8712700888      -0.4929855365     0.8712700888      -0.4929855365     0.003204962413    -0.004894077032   
740000000         -0.008776003169   -0.00615105808    0.86775217        -0.4993122697     0.86775217        -0.4993122697     0.003180517834    -0.005412172721   
750000000         -0.009104877312   -0.006059110077   0.8642864739      -0.5052335963     0.8642864739      -0.5052335963     0.003183912974    -0.005317435827   
760000000         -0.009148069912   -0.006150785751   0.8606118051      -0.5115007939     0.8606118051      -0.5115007939     0.003446875293    -0.005576308634   
770000000         -0.009386219904   -0.005907337463   0.8568670336      -0.5174169433     0.8568670336      -0.5174169433     0.003120542548    -0.005307026951   
780000000         -0.009534623666   -0.00592943136    0.8532433683      -0.5236172698     0.8532433683      -0.5236172698     0.002869633141    -0.00531765729    
790000000         -0.009544690362   -0.005860557323   0.849438429       -0.529599721      0.849438429       -0.529599721      0.0030702304      -0.005294328082   
800000000         -0.009895301128   -0.005742504521   0.8457423488      -0.5357098335     0.8457423488      -0.5357098335     0.003057022513    -0.005692345511   
810000000         -0.01004693205    -0.005660362477   0.8418238068      -0.5414914479     0.8418238068      -0.5414914479     0.003137789907    -0.005792206696   
820000000         -0.01018308544    -0.005428044315   0.8379295709      -0.5474925222     0.8379295709      -0.5474925222     0.003044358766    -0.006041955368   
830000000         -0.01025141423    -0.005237573045   0.8340209008      -0.5534300129     0.8340209008      -0.5534300129     0.002891065553    -0.006005446388   
840000000         -0.01041686862    -0.005153771027   0.8299779075      -0.5593737126     0.8299779075      -0.5593737126     0.002941879332    -0.006159675504   
850000000         -0.01065956625    -0.004895505572   0.8259762686      -0.5652691782     0.8259762686      -0.5652691782     0.002848296727    -0.006087274074   
860000000         -0.01075957189    -0.004887091207   0.8219221431      -0.5710250403     0.8219221431      -0.5710250403     0.003169792106    -0.006355700261   
870000000         -0.01084317268    -0.004574094381   0.8177892223      -0.5767651587     0.8177892223      -0.5767651587     0.002813418289    -0.006586949614   
880000000         -0.01112154167    -0.004501778852   0.8138536371      -0.5824144178     0.8138536371      -0.5824144178     0.002643689972    -0.006588853936   
890000000         -0.01123936179    -0.004370743216   0.8097101992      -0.5880979024     0.8097101992      -0.5880979024     0.002694688395    -0.006891842229   
900000000         -0.01130000339    -0.004128716391   0.8054226712      -0.5937179099     0.8054226712      -0.5937179099     0.002522946958    -0.006831026506   
910000000         -0.01154329826    -0.00417728918    0.8012946525      -0.5994415478     0.8012946525      -0.5994415478     0.002521518838    -0.007093984258   
920000000         -0.01166068572    -0.004040044804   0.7970630881      -0.6049640477     0.7970630881      -0.6049640477     0.002814599233    -0.007417101433   
930000000         -0.01179878113    -0.003901247801   0.7927069494      -0.6106397479     0.7927069494      -0.6106397479     0.002528065252    -0.007479233444   
940000000         -0.01194766024    -0.003683216172   0.7883473795      -0.6162011978     0.7883473795      -0.6162011978     0.002449505251    -0.007548676644   
950000000         -0.01208173699    -0.003570247225   0.7840404281      -0.6218666471     0.7840404281      -0.6218666471     0.002247568073    -0.007767512545   
960000000         -0.01200116176    -0.003687567219   0.7796323345      -0.6272453699     0.7796323345      -0.6272453699     0.002105741298    -0.007867797455   
970000000         -0.01215658412    -0.00352474709    0.7751059211      -0.6326330357     0.7751059211      -0.6326330357     0.001889355331    -0.008173334211   
980000000         -0.01221449824    -0.00334111962    0.7705722795      -0.6381122687     0.7705722795      -0.6381122687     0.001851643646    -0.007977969293   
990000000         -0.0121160708     -0.003249099326   0.7660246652      -0.6436562416     0.7660246652      -0.6436562416     0.001509845091    -0.008118355296   
1000000000        -0.01228146039    -0.003267599501   0.7614795547      -0.6490551891     0.7614795547      -0.6490551891     0.001423826965    -0.008253491028   
1010000000        -0.01226755598    -0.003043805092   0.7567671373      -0.6543400109     0.7567671373      -0.6543400109     0.001292717147    -0.008330362824   
1020000000        -0.01228149886    -0.003029840845   0.752088204       -0.6597208511     0.752088204       -0.6597208511     0.001027662384    -0.008344213661   
1030000000        -0.01231421507    -0.002739919519   0.7472750699      -0.6651311238     0.7472750699      -0.6651311238     0.001096183651    -0.008876184924   
1040000000        -0.01234996722    -0.002763954412   0.7426005683      -0.6702476021     0.7426005683      -0.6702476021     0.001006714314    -0.008377992827   
1050000000        -0.01233431297    -0.002555603789   0.7378729095      -0.6755597309     0.7378729095      -0.6755597309     0.001012037883    -0.008949553027   
1060000000        -0.01240157141    -0.002505483856   0.7330627857      -0.6807241786     0.7330627857      -0.6807241786     0.0009661829838   -0.009032082536   
1070000000        -0.01253116907    -0.002380965218   0.7281988155      -0.6858592977     0.7281988155      -0.6858592977     0.001068777639    -0.00891111978    
1080000000        -0.0125041697     -0.002192301      0.7233257016      -0.6910551858     0.7233257016      -0.6910551858     0.0008615104565   -0.009291028946   
1090000000        -0.01260236914    -0.002131082895   0.7184314081      -0.6961618996     0.7184314081      -0.6961618996     0.001039248132    -0.009106234996   
1100000000        -0.01271386267    -0.001996664977   0.7135032925      -0.7011680015     0.7135032925      -0.7011680015     0.0008248296809   -0.009310261609   
1110000000        -0.01272929013    -0.001793663406   0.7085673268      -0.7060745173     0.7085673268      -0.7060745173     0.0006555166102   -0.009297690652   
1120000000        -0.012784009      -0.001719459899   0.7035272383      -0.711174816      0.7035272383      -0.711174816      0.0005337639495   -0.009629087513   
1130000000        -0.01288010774    -0.001528465547   0.6984907134      -0.7159794219     0.6984907134      -0.7159794219     0.0004791004225   -0.009864676964   
1140000000        -0.01289106312    -0.001568794265   0.6934698678      -0.7208638578     0.6934698678      -0.7208638578     0.0002986099442   -0.009758185231   
1150000000        -0.01308964652    -0.001375491209   0.688379958       -0.7256989603     0.688379958       -0.7256989603     0.0003053874361   -0.009848837023   
1160000000        -0.01319419892    -0.001272989773   0.6833134074      -0.7305268438     0.6833134074      -0.7305268438     8.467271302e-05   -0.01001766584    
1170000000        -0.01322661118    -0.001200559816   0.6781778059      -0.7352793048     0.6781778059      -0.7352793048     3.145503362e-05   -0.01015292711    
1180000000        -0.01318483703    -0.001185775069   0.6729554467      -0.740137986      0.6729554467      -0.740137986      -0.0001236799323  -0.01003648854    
1190000000        -0.01323538098    -0.001077299563   0.6677119367      -0.7447167308     0.6677119367      -0.7447167308     -0.0001492351212  -0.009963588188   
1200000000        -0.01324755948    -0.001040897381   0.6625197931      -0.7493657513     0.6625197931      -0.7493657513     -0.0003619249026  -0.01020610629    
1210000000        -0.01314578932    -0.0009864458231  0.6572087554      -0.7540004882     0.6572087554      -0.7540004882     -0.0005218022244  -0.01005972619    
