! RsaToolbox (C) 2015 Rohde & Schwarz America
! 
! Number of points: 850
! Number of ports: 2
! Balanced ports?: No
! 
! 
# Hz S RI R 50
10000000          -0.01054493429    -0.008336897366   1.00440228        -0.01086831214    1.00440228        -0.01086831214    0.008741013294    0.0161470633      
20000000          1.570023308e-05   -0.001903244248   1.000248759       -0.01604663058    1.000248759       -0.01604663058    0.005481573521    0.001862505943    
30000000          -0.001860824173   -0.0001857130608  0.9994096267      -0.02395359817    0.9994096267      -0.02395359817    0.002194977438    -0.001163711128   
40000000          -0.001555321303   -0.0002680951104  0.9981478535      -0.03140584405    0.9981478535      -0.03140584405    0.003337108836    0.0004545628935   
50000000          0.000141500588    7.09644799e-05    0.9994239204      -0.03892982196    0.9994239204      -0.03892982196    0.0008271170416   0.001921568337    
60000000          0.0003391926298   -0.001077753075   0.9986614753      -0.04535156701    0.9986614753      -0.04535156701    -0.000509812972   -0.0002919587295  
70000000          -0.0002356542051  -8.456570328e-05  0.9975713766      -0.05302877483    0.9975713766      -0.05302877483    0.002184033846    0.001563413926    
80000000          0.0002091243879   -0.0003197297721  0.9971815686      -0.06055964601    0.9971815686      -0.06055964601    -0.0002313359607  -0.0002623532252  
90000000          0.001082258303    0.0002286891666   0.9970626917      -0.06828068011    0.9970626917      -0.06828068011    0.002107442226    -0.00057965678    
100000000         0.0009365163146   -0.0001880466011  0.9965222214      -0.07555812809    0.9965222214      -0.07555812809    0.001962162914    0.0008933972171   
110000000         0.0007454964961   -0.0004932942344  0.995539022       -0.08407823944    0.995539022       -0.08407823944    0.002958897625    0.0005502508464   
120000000         0.001139996687    0.0001239205626   0.9945345821      -0.09034787847    0.9945345821      -0.09034787847    0.001142947285    -0.0008139852522  
130000000         0.0009347176056   -6.763190989e-05  0.9945035734      -0.0984172486     0.9945035734      -0.0984172486     0.002175113252    0.0001931304768   
140000000         0.0007661299158   -0.0002886833888  0.9934843985      -0.1060742731     0.9934843985      -0.1060742731     0.003594355439    -0.002006082433   
150000000         0.00138296393     -0.0001963593739  0.9929515556      -0.112963233      0.9929515556      -0.112963233      0.002025106063    4.189482759e-05   
160000000         0.001021549404    -0.0002994726438  0.9917202935      -0.1206506177     0.9917202935      -0.1206506177     0.003211024452    0.0002780113466   
170000000         0.001402447908    -7.46030778e-05   0.9908308629      -0.1280519875     0.9908308629      -0.1280519875     0.002860601004    -0.0001860097253  
180000000         0.001256656774    -0.0001329053406  0.989945728       -0.1351735349     0.989945728       -0.1351735349     0.00323208202     -9.710494401e-05  
190000000         0.001163549982    -0.0006205636825  0.9889369677      -0.1426802242     0.9889369677      -0.1426802242     0.002637721429    0.0004524125861   
200000000         0.001425691517    -0.0007683452529  0.987327038       -0.1499304913     0.987327038       -0.1499304913     0.002526497819    -0.0003418479094  
210000000         0.001765865389    -0.0008944913823  0.9865034774      -0.1574422028     0.9865034774      -0.1574422028     0.002313985529    -0.000867756737   
220000000         0.001538034544    -0.001305149429   0.9850758085      -0.1647955558     0.9850758085      -0.1647955558     0.002939141768    0.000379086091    
230000000         0.001524736594    -0.001459834955   0.9838940024      -0.1725217523     0.9838940024      -0.1725217523     0.002175142986    0.0008615388326   
240000000         0.001859573011    -0.001451305243   0.9823078137      -0.1796998729     0.9823078137      -0.1796998729     0.002832981787    0.0001096597992   
250000000         0.001719408988    -0.001727841077   0.9810162566      -0.1876073726     0.9810162566      -0.1876073726     0.003035234603    0.0007892390372   
260000000         0.001822052871    -0.001751705155   0.9797460549      -0.1943475557     0.9797460549      -0.1943475557     0.002723177405    0.000382823613    
270000000         0.002117370539    -0.001931962338   0.9779880256      -0.2020336475     0.9779880256      -0.2020336475     0.003071676186    -0.0004741464653  
280000000         0.001909149078    -0.001860200518   0.9767162137      -0.2094610869     0.9767162137      -0.2094610869     0.003492787303    -0.0002687698926  
290000000         0.001760900838    -0.001903431934   0.9748252159      -0.216597865      0.9748252159      -0.216597865      0.004038066119    -3.100054455e-05  
300000000         0.00177938105     -0.002027793367   0.9732025214      -0.2241357324     0.9732025214      -0.2241357324     0.003008577408    0.0003947272498   
310000000         0.001747155731    -0.002002491612   0.9714225386      -0.2313383876     0.9714225386      -0.2313383876     0.003851150398    0.0003389229085   
320000000         0.001561736646    -0.002139260375   0.9697057665      -0.2386379184     0.9697057665      -0.2386379184     0.003710227962    -0.0002977943685  
330000000         0.001772344057    -0.002316258339   0.9677864456      -0.2458659863     0.9677864456      -0.2458659863     0.00355344496     0.000124389383    
340000000         0.001592637327    -0.002199308781   0.9658804489      -0.2531374325     0.9658804489      -0.2531374325     0.004324493374    0.0007389957481   
350000000         0.001427548688    -0.00227821428    0.9638783814      -0.2603142219     0.9638783814      -0.2603142219     0.003196839935    0.0008448263038   
360000000         0.00138490467     -0.002315018371   0.9619768196      -0.2673394256     0.9619768196      -0.2673394256     0.003844738205    0.0007496414486   
370000000         0.001193341934    -0.002431816764   0.9595455567      -0.2746581835     0.9595455567      -0.2746581835     0.003800625454    0.001119421804    
380000000         0.001278571539    -0.002307537511   0.9575906342      -0.2817274162     0.9575906342      -0.2817274162     0.004458901414    0.0008127927827   
390000000         0.001157294243    -0.002572959049   0.955401411       -0.2888324188     0.955401411       -0.2888324188     0.004291619067    0.0006291681684   
400000000         0.001027442684    -0.002601778627   0.9531060497      -0.2960987371     0.9531060497      -0.2960987371     0.004415813573    0.001096097203    
410000000         0.001187302702    -0.002898240844   0.950929393       -0.3032653255     0.950929393       -0.3032653255     0.004329973596    -0.0002919859967  
420000000         0.001154375316    -0.002844390411   0.9485716044      -0.3097991869     0.9485716044      -0.3097991869     0.00512570325     0.0004775121248   
430000000         0.001123559048    -0.00297761702    0.9462987529      -0.3169361833     0.9462987529      -0.3169361833     0.005310296573    3.591230771e-05   
440000000         0.000997900428    -0.003094962205   0.9439002929      -0.3241314501     0.9439002929      -0.3241314501     0.005607483544    0.0004236661956   
450000000         0.001039317393    -0.003382745649   0.9415795208      -0.3313482376     0.9415795208      -0.3313482376     0.005652021581    0.0002491561944   
460000000         0.001009374337    -0.003475241654   0.9390575346      -0.3384229176     0.9390575346      -0.3384229176     0.005617632215    0.0002549413935   
470000000         0.0007853024526   -0.003670506112   0.9363185315      -0.3454797834     0.9363185315      -0.3454797834     0.005795196628    0.0002647244658   
480000000         0.0006038751396   -0.003877458137   0.933848041       -0.3524805238     0.933848041       -0.3524805238     0.005874723714    0.0002005149702   
490000000         0.0006567374437   -0.004041590096   0.9311248948      -0.3593003575     0.9311248948      -0.3593003575     0.006062562923    0.0001204707054   
500000000         0.0003771528705   -0.004190991703   0.9284665714      -0.3663155825     0.9284665714      -0.3663155825     0.005931812284    1.133764543e-05   
510000000         0.0003599245237   -0.004485228403   0.9259475077      -0.373293255      0.9259475077      -0.373293255      0.005879860242    -0.0004644991466  
520000000         4.111658983e-05   -0.004473996697   0.9228454919      -0.3802279713     0.9228454919      -0.3802279713     0.005810171629    0.0004991099399   
530000000         8.184483305e-05   -0.004714373785   0.9200641186      -0.3871408691     0.9200641186      -0.3871408691     0.006356910689    -7.504668725e-05  
540000000         -0.0002756445038  -0.0048893454     0.9171444396      -0.3940779562     0.9171444396      -0.3940779562     0.006075357701    -3.149372069e-05  
550000000         -0.0004239851431  -0.004872927859   0.9142375773      -0.4010009901     0.9142375773      -0.4010009901     0.006277334764    -0.0001752890733  
560000000         -0.0006089312555  -0.004990054175   0.9110889617      -0.4078152682     0.9110889617      -0.4078152682     0.00649463866     8.559610048e-05   
570000000         -0.0007739495332  -0.005101912552   0.9079834767      -0.4147703524     0.9079834767      -0.4147703524     0.006641495324    -0.0001018938981  
580000000         -0.0009745281732  -0.005059644844   0.9048686758      -0.4214522692     0.9048686758      -0.4214522692     0.006476455276    0.0005219692836   
590000000         -0.001120743705   -0.005087754014   0.9016588908      -0.4281955023     0.9016588908      -0.4281955023     0.006653520098    0.0003555534819   
600000000         -0.001256457217   -0.005173384766   0.8984140427      -0.434936726      0.8984140427      -0.434936726      0.006957787494    0.0001952698118   
610000000         -0.001452933057   -0.005168822268   0.8950822506      -0.4418099985     0.8950822506      -0.4418099985     0.00698265456     0.0001531249348   
620000000         -0.001729535286   -0.005104035222   0.8918405094      -0.448368047      0.8918405094      -0.448368047      0.007102946264    -5.606351148e-06  
630000000         -0.001990428663   -0.005177815786   0.8882803709      -0.4550311627     0.8882803709      -0.4550311627     0.007013917345    -0.0001269693362  
640000000         -0.002179139785   -0.005078184673   0.8849406474      -0.4618752667     0.8849406474      -0.4618752667     0.007516775142    -0.000307882694   
650000000         -0.002417507951   -0.004955630276   0.8814479196      -0.4683885732     0.8814479196      -0.4683885732     0.007492059726    -0.0005086020227  
660000000         -0.002649306323   -0.005061974033   0.8779295733      -0.474866912      0.8779295733      -0.474866912      0.007688697102    -0.0006705095612  
670000000         -0.002984660209   -0.004956458886   0.8742018116      -0.4815672774     0.8742018116      -0.4815672774     0.007268576123    -0.0007073322666  
680000000         -0.003136548162   -0.004828376666   0.8706670552      -0.4881741466     0.8706670552      -0.4881741466     0.007399172603    -0.0008073705863  
690000000         -0.003304091933   -0.00485196914    0.8669382596      -0.4945504738     0.8669382596      -0.4945504738     0.007814205839    -0.0005605717225  
700000000         -0.003545589395   -0.004867705497   0.8631873241      -0.5012038571     0.8631873241      -0.5012038571     0.007902763348    -0.0008417262969  
710000000         -0.003808758531   -0.004713234736   0.859460002       -0.5075606217     0.859460002       -0.5075606217     0.007735318815    -0.001020066868   
720000000         -0.004106172243   -0.004513574947   0.8557076408      -0.5140076065     0.8557076408      -0.5140076065     0.00765255944     -0.001113782495   
730000000         -0.004295461137   -0.004432512784   0.8517649121      -0.5204794451     0.8517649121      -0.5204794451     0.00776773562     -0.001101983555   
740000000         -0.004438019079   -0.004396948672   0.8478034416      -0.5268391438     0.8478034416      -0.5268391438     0.007819322687    -0.001083437317   
750000000         -0.004599063781   -0.004323591969   0.8438266849      -0.5331207087     0.8438266849      -0.5331207087     0.008117370563    -0.0008305533011  
760000000         -0.004730197069   -0.004201861634   0.8396640073      -0.5395704021     0.8396640073      -0.5395704021     0.007965642046    -0.001437438251   
770000000         -0.00491444533    -0.00411854665    0.8356548811      -0.5456543338     0.8356548811      -0.5456543338     0.007974449011    -0.001213039542   
780000000         -0.005006693316   -0.003921923927   0.8314123448      -0.5520530938     0.8314123448      -0.5520530938     0.007887133186    -0.00106347993    
790000000         -0.005204658391   -0.003709107057   0.8274068378      -0.5583103112     0.8274068378      -0.5583103112     0.007735696283    -0.001598462252   
800000000         -0.005302342655   -0.003516885601   0.8231622795      -0.564418143      0.8231622795      -0.564418143      0.007713194658    -0.001541247343   
810000000         -0.005439796637   -0.003396160484   0.8188864452      -0.5706348469     0.8188864452      -0.5706348469     0.007964956196    -0.001810907187   
820000000         -0.005550767808   -0.003148557008   0.8145469175      -0.5768162132     0.8145469175      -0.5768162132     0.008139776759    -0.001560506082   
830000000         -0.005560456793   -0.002820831222   0.8100608517      -0.5829735515     0.8100608517      -0.5829735515     0.008133628595    -0.001755127827   
840000000         -0.00568058824    -0.002671329115   0.8056341767      -0.5890985386     0.8056341767      -0.5890985386     0.007989113693    -0.001957233282   
850000000         -0.00586184095    -0.002302210069   0.8012194416      -0.5950685132     0.8012194416      -0.5950685132     0.008230389991    -0.001874782035   
860000000         -0.006002583837   -0.002092870424   0.7967726983      -0.6010514724     0.7967726983      -0.6010514724     0.008134086658    -0.002401393651   
870000000         -0.006061577285   -0.001849259234   0.7921410208      -0.6069607761     0.7921410208      -0.6069607761     0.008183158713    -0.002454816239   
880000000         -0.006029211804   -0.001677509722   0.7876412438      -0.6128882225     0.7876412438      -0.6128882225     0.007957512669    -0.002428941289   
890000000         -0.006226583665   -0.001424341334   0.7831443502      -0.6186403301     0.7831443502      -0.6186403301     0.008176187214    -0.002155843132   
900000000         -0.006309771182   -0.001154113765   0.7784424107      -0.6245651804     0.7784424107      -0.6245651804     0.008208678661    -0.00239065858    
910000000         -0.006346310371   -0.001128951692   0.7737041744      -0.6302497906     0.7737041744      -0.6302497906     0.008271895543    -0.002446298414   
920000000         -0.006250108815   -0.0007373664074  0.7689534814      -0.6359257271     0.7689534814      -0.6359257271     0.00828125433     -0.002748654182   
930000000         -0.006223520283   -0.0005746839339  0.764154672       -0.6418260448     0.764154672       -0.6418260448     0.008191083345    -0.002574911468   
940000000         -0.006392772727   -0.0003173239899  0.7592977066      -0.6474819474     0.7592977066      -0.6474819474     0.008361561804    -0.002887456373   
950000000         -0.00636048743    -0.0001688002229  0.7544381143      -0.6531634263     0.7544381143      -0.6531634263     0.008121610366    -0.003001506165   
960000000         -0.006374867457   -8.254013213e-05  0.7496330248      -0.6587494331     0.7496330248      -0.6587494331     0.008223308902    -0.003297251622   
970000000         -0.006340149365   9.27262937e-05    0.7445675891      -0.6643624282     0.7445675891      -0.6643624282     0.008142226139    -0.003179831504   
980000000         -0.006196598215   0.0002388192757   0.7394956115      -0.6698942464     0.7394956115      -0.6698942464     0.008395814952    -0.003357468418   
990000000         -0.006025956975   0.0004458233596   0.7344409737      -0.6754206018     0.7344409737      -0.6754206018     0.008041471654    -0.003458040157   
1000000000        -0.005950475348   0.0005954451581   0.7293146677      -0.6809603        0.7293146677      -0.6809603        0.007914195655    -0.003290063759   
1010000000        -0.005819868742   0.0008196399576   0.7242309167      -0.686397369      0.7242309167      -0.686397369      0.007806794268    -0.003265576752   
1020000000        -0.005676321282   0.0009958723481   0.719073916       -0.6917679356     0.719073916       -0.6917679356     0.007734511451    -0.00349819661    
1030000000        -0.005517813692   0.001025304089    0.7138432335      -0.6971403342     0.7138432335      -0.6971403342     0.007738659191    -0.003765294519   
1040000000        -0.005386140155   0.001299459448    0.7085359756      -0.7024757598     0.7085359756      -0.7024757598     0.007761604965    -0.003824507849   
1050000000        -0.005147855944   0.001389698287    0.7032930306      -0.7077881173     0.7032930306      -0.7077881173     0.007821443896    -0.003840864816   
1060000000        -0.005021501525   0.001666851376    0.6979116394      -0.7129744675     0.6979116394      -0.7129744675     0.007840841789    -0.004140373678   
1070000000        -0.004889446079   0.001753374414    0.6926633094      -0.7181699139     0.6926633094      -0.7181699139     0.007843541878    -0.004143662282   
1080000000        -0.00480616892    0.00205978291     0.6872812217      -0.7233325149     0.6872812217      -0.7233325149     0.008182328387    -0.004365300646   
1090000000        -0.004640327717   0.002196233655    0.6818822545      -0.7284239909     0.6818822545      -0.7284239909     0.007968174397    -0.004278224725   
1100000000        -0.004534579645   0.002279974422    0.6765146602      -0.7334139112     0.6765146602      -0.7334139112     0.007942988628    -0.004315305645   
1110000000        -0.004450538785   0.002508056286    0.6709570866      -0.7385349905     0.6709570866      -0.7385349905     0.008049939551    -0.004509318699   
1120000000        -0.004217186527   0.00264517266     0.665385639       -0.7435073321     0.665385639       -0.7435073321     0.008128621389    -0.00464888913    
1130000000        -0.004128113445   0.002668250308    0.6598275401      -0.748528158      0.6598275401      -0.748528158      0.008013163725    -0.004673030664   
1140000000        -0.003992393941   0.002698636697    0.6541711287      -0.7534558648     0.6541711287      -0.7534558648     0.007977765341    -0.004926161505   
1150000000        -0.003910105821   0.002709590318    0.6484898273      -0.7584260093     0.6484898273      -0.7584260093     0.007716590803    -0.004822142387   
1160000000        -0.003723840275   0.002776208602    0.6429056947      -0.7632085654     0.6429056947      -0.7632085654     0.007463700993    -0.005112360547   
1170000000        -0.003486822167   0.002753692637    0.6371573258      -0.7679603783     0.6371573258      -0.7679603783     0.007540646364    -0.005263141547   
1180000000        -0.003240124992   0.00268602692     0.6313284802      -0.7727966086     0.6313284802      -0.7727966086     0.007262292262    -0.005430567945   
1190000000        -0.003020355723   0.002831487147    0.6256455842      -0.7774725365     0.6256455842      -0.7774725365     0.007350281731    -0.005376185423   
1200000000        -0.002793865173   0.002734817332    0.6197372777      -0.7821745189     0.6197372777      -0.7821745189     0.00713715559     -0.005420087121   
1210000000        -0.002536803411   0.002765066247    0.6139787771      -0.7868043939     0.6139787771      -0.7868043939     0.007068274108    -0.005349158307   
