#  HZ   S   MA   R     50.00 
! Rohde & Schwarz Vector Network Analyzer 
! Rohde-Schwarz,ZNB8-4Port,1311601044100104,1.93.2.45
! Created: UTC 3/17/2014, 1:42:13 AM
! freq[Hz]                mag:S11                 ang:S11                 mag:S12                 ang:S12                 mag:S13                 ang:S13
!                         mag:S21                 ang:S21                 mag:S22                 ang:S22                 mag:S23                 ang:S23
!                         mag:S31                 ang:S31                 mag:S32                 ang:S32                 mag:S33                 ang:S33
! 
 1.000000000000000E6     8.441248536109924E-1    0.000000000000000       2.874305844306946E-2    0.000000000000000       1.006985664367676       0.000000000000000
                         2.939827367663384E-2    0.000000000000000       8.057423233985901E-1    0.000000000000000       1.085912704467773       0.000000000000000
                         1.084673643112183       0.000000000000000       9.921475648880005E-1    0.000000000000000       1.016312122344971       0.000000000000000
                        
 6.000000000000000E6     8.841230273246765E-1    0.000000000000000       3.055573441088200E-2    0.000000000000000       1.090856671333313       0.000000000000000
                         3.170688077807427E-2    0.000000000000000       8.843405842781067E-1    0.000000000000000       9.080507755279541E-1    0.000000000000000
                         9.067445993423462E-1    0.000000000000000       1.031595826148987       0.000000000000000       1.024381279945374       0.000000000000000
                        
 1.100000000000000E7     8.900932669639587E-1    0.000000000000000       2.939701639115810E-2    0.000000000000000       9.230170845985413E-1    0.000000000000000
                         3.383617103099823E-2    0.000000000000000       8.531513810157776E-1    0.000000000000000       1.018021225929260       0.000000000000000
                         1.012948989868164       0.000000000000000       9.454725980758667E-1    0.000000000000000       9.014038443565369E-1    0.000000000000000
                        
 1.600000000000000E7     9.501356482505798E-1    0.000000000000000       2.873657457530499E-2    0.000000000000000       9.682272076606751E-1    0.000000000000000
                         2.973701804876328E-2    0.000000000000000       8.513908982276917E-1    0.000000000000000       1.018845200538635       0.000000000000000
                         9.779992103576660E-1    0.000000000000000       1.072692036628723       0.000000000000000       1.057518243789673       0.000000000000000
                        
 2.100000000000000E7     8.575664162635803E-1    0.000000000000000       3.390861675143242E-2    0.000000000000000       1.061857938766480       0.000000000000000
                         3.475468605756760E-2    0.000000000000000       8.099218606948853E-1    0.000000000000000       1.099230885505676       0.000000000000000
                         1.071086764335632       0.000000000000000       1.097393751144409       0.000000000000000       1.023838043212891       0.000000000000000
                        
 2.600000000000000E7     8.965335488319397E-1    0.000000000000000       3.314931690692902E-2    0.000000000000000       9.419324398040772E-1    0.000000000000000
                         3.268034011125565E-2    0.000000000000000       8.638969063758850E-1    0.000000000000000       1.021823763847351       0.000000000000000
                         9.003601074218750E-1    0.000000000000000       1.018485069274902       0.000000000000000       9.470778703689575E-1    0.000000000000000
                        
 3.100000000000000E7     9.576232433319092E-1    0.000000000000000       3.372345119714737E-2    0.000000000000000       9.062013626098633E-1    0.000000000000000
                         3.517325595021248E-2    0.000000000000000       8.080778717994690E-1    0.000000000000000       1.036515355110169       0.000000000000000
                         9.825159311294556E-1    0.000000000000000       1.044187784194946       0.000000000000000       1.009006023406982       0.000000000000000
                        
 3.600000000000000E7     8.337637186050415E-1    0.000000000000000       3.181677311658859E-2    0.000000000000000       9.941129684448242E-1    0.000000000000000
                         3.024557232856751E-2    0.000000000000000       9.099330306053162E-1    0.000000000000000       9.186956286430359E-1    0.000000000000000
                         1.037302732467651       0.000000000000000       1.011551260948181       0.000000000000000       9.710043668746948E-1    0.000000000000000
                        
 4.100000000000000E7     8.049155473709106E-1    0.000000000000000       3.117124922573566E-2    0.000000000000000       1.093865752220154       0.000000000000000
                         3.077610209584236E-2    0.000000000000000       8.755133748054504E-1    0.000000000000000       9.325693845748901E-1    0.000000000000000
                         1.007028460502625       0.000000000000000       9.309884905815125E-1    0.000000000000000       1.043620109558106       0.000000000000000
                        
 4.600000000000000E7     9.099482297897339E-1    0.000000000000000       3.370610624551773E-2    0.000000000000000       9.744651913642883E-1    0.000000000000000
                         3.079435974359512E-2    0.000000000000000       8.848369121551514E-1    0.000000000000000       9.193914532661438E-1    0.000000000000000
                         1.001138329505920       0.000000000000000       1.055809140205383       0.000000000000000       1.081066370010376       0.000000000000000
                        
 5.100000000000000E7     8.987000584602356E-1    0.000000000000000       3.026847727596760E-2    0.000000000000000       9.943143725395203E-1    0.000000000000000
                         3.520934283733368E-2    0.000000000000000       9.003773927688599E-1    0.000000000000000       9.054384231567383E-1    0.000000000000000
                         1.012277603149414       0.000000000000000       1.057512164115906       0.000000000000000       1.012698769569397       0.000000000000000
                        
 5.600000000000000E7     8.055331110954285E-1    0.000000000000000       3.567725792527199E-2    0.000000000000000       1.096252322196960       0.000000000000000
                         3.333295881748200E-2    0.000000000000000       9.766957759857178E-1    0.000000000000000       9.998138546943665E-1    0.000000000000000
                         9.994781613349915E-1    0.000000000000000       9.908658266067505E-1    0.000000000000000       1.057860016822815       0.000000000000000
                        
 6.100000000000000E7     9.751779437065125E-1    0.000000000000000       2.990296855568886E-2    0.000000000000000       1.028562307357788       0.000000000000000
                         3.208526596426964E-2    0.000000000000000       8.241167068481445E-1    0.000000000000000       9.426465630531311E-1    0.000000000000000
                         1.097900271415710       0.000000000000000       1.087408065795898       0.000000000000000       1.014584779739380       0.000000000000000
                        
 6.600000000000000E7     9.206917881965637E-1    0.000000000000000       3.383125737309456E-2    0.000000000000000       9.188421368598938E-1    0.000000000000000
                         3.445240482687950E-2    0.000000000000000       8.468587398529053E-1    0.000000000000000       1.002554416656494       0.000000000000000
                         9.130496978759766E-1    0.000000000000000       1.071532368659973       0.000000000000000       9.831812381744385E-1    0.000000000000000
                        
 7.100000000000000E7     8.764631152153015E-1    0.000000000000000       3.419833630323410E-2    0.000000000000000       9.074953198432922E-1    0.000000000000000
                         3.531718626618385E-2    0.000000000000000       9.119183421134949E-1    0.000000000000000       1.013492226600647       0.000000000000000
                         1.062126517295837       0.000000000000000       1.080071449279785       0.000000000000000       1.002157688140869       0.000000000000000
                        
 7.600000000000000E7     9.374520182609558E-1    0.000000000000000       3.421733528375626E-2    0.000000000000000       1.029783010482788       0.000000000000000
                         3.081145137548447E-2    0.000000000000000       8.944884538650513E-1    0.000000000000000       9.130680561065674E-1    0.000000000000000
                         9.684652090072632E-1    0.000000000000000       9.818018078804016E-1    0.000000000000000       1.092779278755188       0.000000000000000
                        
 8.100000000000000E7     8.435121774673462E-1    0.000000000000000       3.018747270107269E-2    0.000000000000000       1.022830843925476       0.000000000000000
                         3.190565481781960E-2    0.000000000000000       8.007798790931702E-1    0.000000000000000       1.005813717842102       0.000000000000000
                         9.811365008354187E-1    0.000000000000000       1.022025227546692       0.000000000000000       1.028562307357788       0.000000000000000
                        
 8.600000000000000E7     9.406848549842835E-1    0.000000000000000       3.139856830239296E-2    0.000000000000000       1.057682991027832       0.000000000000000
                         2.962761931121349E-2    0.000000000000000       8.241037130355835E-1    0.000000000000000       9.514420032501221E-1    0.000000000000000
                         1.019437193870544       0.000000000000000       9.920133352279663E-1    0.000000000000000       1.029831886291504       0.000000000000000
                        
 9.100000000000000E7     9.437769055366516E-1    0.000000000000000       3.164018690586090E-2    0.000000000000000       9.963347315788269E-1    0.000000000000000
                         2.991613559424877E-2    0.000000000000000       8.015005588531494E-1    0.000000000000000       1.078173160552979       0.000000000000000
                         9.424329400062561E-1    0.000000000000000       9.236274361610413E-1    0.000000000000000       9.832422733306885E-1    0.000000000000000
                        
 9.600000000000000E7     9.419316649436951E-1    0.000000000000000       3.075326047837734E-2    0.000000000000000       9.737449288368225E-1    0.000000000000000
                         3.356232494115830E-2    0.000000000000000       8.473373055458069E-1    0.000000000000000       1.020950913429260       0.000000000000000
                         1.043510198593140       0.000000000000000       9.087954163551331E-1    0.000000000000000       9.863246679306030E-1    0.000000000000000
                        
 1.010000000000000E8     9.163175821304321E-1    0.000000000000000       3.410327062010765E-2    0.000000000000000       9.048768877983093E-1    0.000000000000000
                         3.327685967087746E-2    0.000000000000000       8.544451594352722E-1    0.000000000000000       1.084807872772217       0.000000000000000
                         1.069866061210632       0.000000000000000       1.044071793556213       0.000000000000000       1.016995787620544       0.000000000000000
                        
 1.060000000000000E8     9.017840623855591E-1    0.000000000000000       3.626661002635956E-2    0.000000000000000       9.167363643646240E-1    0.000000000000000
                         3.480103239417076E-2    0.000000000000000       8.167233467102051E-1    0.000000000000000       9.330698847770691E-1    0.000000000000000
                         9.670614004135132E-1    0.000000000000000       9.001342654228210E-1    0.000000000000000       9.280953407287598E-1    0.000000000000000
                        
 1.110000000000000E8     9.043236374855042E-1    0.000000000000000       3.529208526015282E-2    0.000000000000000       9.053956866264343E-1    0.000000000000000
                         3.585603088140488E-2    0.000000000000000       9.073504209518433E-1    0.000000000000000       1.000686645507813       0.000000000000000
                         9.485732316970825E-1    0.000000000000000       9.163640141487122E-1    0.000000000000000       9.669331908226013E-1    0.000000000000000
                        
 1.160000000000000E8     9.295176863670349E-1    0.000000000000000       3.130743652582169E-2    0.000000000000000       1.018021225929260       0.000000000000000
                         3.567114844918251E-2    0.000000000000000       9.581878185272217E-1    0.000000000000000       1.032486915588379       0.000000000000000
                         1.090295076370239       0.000000000000000       9.203314185142517E-1    0.000000000000000       1.019797325134277       0.000000000000000
                        
 1.210000000000000E8     9.444175362586975E-1    0.000000000000000       3.597602248191834E-2    0.000000000000000       1.059916973114014       0.000000000000000
                         3.544606640934944E-2    0.000000000000000       9.374951124191284E-1    0.000000000000000       9.464674592018127E-1    0.000000000000000
                         1.050065636634827       0.000000000000000       9.723593592643738E-1    0.000000000000000       9.814966320991516E-1    0.000000000000000
                        
 1.260000000000000E8     9.503283500671387E-1    0.000000000000000       3.263547644019127E-2    0.000000000000000       1.026529788970947       0.000000000000000
                         3.630359843373299E-2    0.000000000000000       8.285371065139771E-1    0.000000000000000       1.022086262702942       0.000000000000000
                         9.122318029403687E-1    0.000000000000000       9.350169301033020E-1    0.000000000000000       1.049906969070435       0.000000000000000
                        
 1.310000000000000E8     8.117321729660034E-1    0.000000000000000       3.417029976844788E-2    0.000000000000000       9.605181813240051E-1    0.000000000000000
                         3.469526022672653E-2    0.000000000000000       9.737761616706848E-1    0.000000000000000       1.013516664505005       0.000000000000000
                         9.571489691734314E-1    0.000000000000000       9.677083492279053E-1    0.000000000000000       9.454664587974548E-1    0.000000000000000
                        
 1.360000000000000E8     9.051315188407898E-1    0.000000000000000       3.138871863484383E-2    0.000000000000000       9.337595701217651E-1    0.000000000000000
                         3.542415052652359E-2    0.000000000000000       9.341777563095093E-1    0.000000000000000       9.879543185234070E-1    0.000000000000000
                         9.557328820228577E-1    0.000000000000000       9.461500644683838E-1    0.000000000000000       1.055742025375366       0.000000000000000
                        
 1.410000000000000E8     9.286545515060425E-1    0.000000000000000       3.266578912734985E-2    0.000000000000000       9.543901085853577E-1    0.000000000000000
                         3.531162813305855E-2    0.000000000000000       9.415738582611084E-1    0.000000000000000       1.088897347450256       0.000000000000000
                         9.889797568321228E-1    0.000000000000000       1.006924629211426       0.000000000000000       9.049317836761475E-1    0.000000000000000
                        
 1.460000000000000E8     9.498102664947510E-1    0.000000000000000       3.393710404634476E-2    0.000000000000000       9.988189339637756E-1    0.000000000000000
                         3.116809763014317E-2    0.000000000000000       8.024449944496155E-1    0.000000000000000       1.024399518966675       0.000000000000000
                         9.924954771995544E-1    0.000000000000000       1.017014026641846       0.000000000000000       9.484328627586365E-1    0.000000000000000
                        
 1.510000000000000E8     9.685461521148682E-1    0.000000000000000       3.320473805069923E-2    0.000000000000000       9.687826037406921E-1    0.000000000000000
                         3.210794925689697E-2    0.000000000000000       8.622023463249207E-1    0.000000000000000       1.080382704734802       0.000000000000000
                         1.026029229164124       0.000000000000000       9.683248400688171E-1    0.000000000000000       1.092333793640137       0.000000000000000
                        
 1.560000000000000E8     9.456436634063721E-1    0.000000000000000       3.589605167508125E-2    0.000000000000000       9.733604192733765E-1    0.000000000000000
                         3.550600260496140E-2    0.000000000000000       9.538097977638245E-1    0.000000000000000       1.058903813362122       0.000000000000000
                         1.068016648292542       0.000000000000000       1.097234964370728       0.000000000000000       9.379528164863586E-1    0.000000000000000
                        
 1.610000000000000E8     9.418027997016907E-1    0.000000000000000       3.730819746851921E-2    0.000000000000000       9.360179305076599E-1    0.000000000000000
                         3.412915393710136E-2    0.000000000000000       8.748721480369568E-1    0.000000000000000       9.414319396018982E-1    0.000000000000000
                         9.350901842117310E-1    0.000000000000000       9.290719628334045E-1    0.000000000000000       9.514114856719971E-1    0.000000000000000
                        
 1.660000000000000E8     8.360841274261475E-1    0.000000000000000       3.638765588402748E-2    0.000000000000000       9.266304373741150E-1    0.000000000000000
                         3.445459902286530E-2    0.000000000000000       7.977017760276794E-1    0.000000000000000       1.077166080474854       0.000000000000000
                         9.266426563262940E-1    0.000000000000000       1.047740101814270       0.000000000000000       9.581011533737183E-1    0.000000000000000
                        
 1.710000000000000E8     8.632858395576477E-1    0.000000000000000       3.344416618347168E-2    0.000000000000000       1.018509507179260       0.000000000000000
                         3.162498772144318E-2    0.000000000000000       9.046036601066589E-1    0.000000000000000       1.096246242523193       0.000000000000000
                         9.943143725395203E-1    0.000000000000000       9.901455640792847E-1    0.000000000000000       9.622638821601868E-1    0.000000000000000
                        
 1.760000000000000E8     8.456462025642395E-1    0.000000000000000       3.212246298789978E-2    0.000000000000000       1.070451974868774       0.000000000000000
                         3.634225204586983E-2    0.000000000000000       9.572347998619080E-1    0.000000000000000       9.480971693992615E-1    0.000000000000000
                         1.036552071571350       0.000000000000000       1.065813183784485       0.000000000000000       1.091497540473938       0.000000000000000
                        
 1.810000000000000E8     9.513535499572754E-1    0.000000000000000       3.194985538721085E-2    0.000000000000000       1.033750414848328       0.000000000000000
                         3.771007061004639E-2    0.000000000000000       8.616642355918884E-1    0.000000000000000       1.064684033393860       0.000000000000000
                         9.181402325630188E-1    0.000000000000000       9.013489484786987E-1    0.000000000000000       1.066295385360718       0.000000000000000
                        
 1.860000000000000E8     9.708219766616821E-1    0.000000000000000       3.197706118226051E-2    0.000000000000000       9.842249751091003E-1    0.000000000000000
