#  HZ   S   MA   R     50.00 
! Rohde & Schwarz Vector Network Analyzer 
! Rohde-Schwarz,ZNB8-4Port,1311601044100104,1.93.2.45
! Created: UTC 3/14/2014, 12:26:07 AM
! freq[Hz]                mag:S11                 ang:S11                 mag:S12                 ang:S12                 mag:S13                 ang:S13
!                         mag:S21                 ang:S21                 mag:S22                 ang:S22                 mag:S23                 ang:S23
!                         mag:S31                 ang:S31                 mag:S32                 ang:S32                 mag:S33                 ang:S33
! 
 1.000000000000000E6     8.322935104370117E-1    0.000000000000000       3.091899864375591E-2    0.000000000000000       9.044984579086304E-1    0.000000000000000
                         3.337243571877480E-2    0.000000000000000       8.601502180099487E-1    0.000000000000000       9.596942067146301E-1    0.000000000000000
                         1.066173315048218       0.000000000000000       1.015567541122437       0.000000000000000       9.906643629074097E-1    0.000000000000000
                        
 6.000000000000000E6     8.677529096603394E-1    0.000000000000000       3.211608529090881E-2    0.000000000000000       9.888149499893189E-1    0.000000000000000
                         2.994715794920921E-2    0.000000000000000       9.292957186698914E-1    0.000000000000000       9.771141409873962E-1    0.000000000000000
                         1.091320514678955       0.000000000000000       1.099633812904358       0.000000000000000       9.281563758850098E-1    0.000000000000000
                        
 1.100000000000000E7     8.153014183044434E-1    0.000000000000000       3.216676041483879E-2    0.000000000000000       9.175908565521240E-1    0.000000000000000
                         3.108835406601429E-2    0.000000000000000       8.325108885765076E-1    0.000000000000000       1.092486381530762       0.000000000000000
                         1.002713084220886       0.000000000000000       1.066698193550110       0.000000000000000       9.265877008438110E-1    0.000000000000000
                        
 1.600000000000000E7     8.151797652244568E-1    0.000000000000000       3.179975226521492E-2    0.000000000000000       9.367564916610718E-1    0.000000000000000
                         3.242444619536400E-2    0.000000000000000       8.402302265167236E-1    0.000000000000000       1.064323902130127       0.000000000000000
                         9.642475843429565E-1    0.000000000000000       9.061708450317383E-1    0.000000000000000       9.204107522964478E-1    0.000000000000000
                        
 2.100000000000000E7     8.147374391555786E-1    0.000000000000000       3.444355353713036E-2    0.000000000000000       1.002304196357727       0.000000000000000
                         3.279000893235207E-2    0.000000000000000       8.742251396179199E-1    0.000000000000000       1.091900348663330       0.000000000000000
                         9.049684405326843E-1    0.000000000000000       9.359080791473389E-1    0.000000000000000       1.060808181762695       0.000000000000000
                        
 2.600000000000000E7     8.308526277542114E-1    0.000000000000000       3.407730534672737E-2    0.000000000000000       9.248298406600952E-1    0.000000000000000
                         2.948680706322193E-2    0.000000000000000       8.425357937812805E-1    0.000000000000000       9.159917235374451E-1    0.000000000000000
                         9.761375784873962E-1    0.000000000000000       9.842249751091003E-1    0.000000000000000       1.022690534591675       0.000000000000000
                        
 3.100000000000000E7     9.672394394874573E-1    0.000000000000000       3.259310498833656E-2    0.000000000000000       1.039109468460083       0.000000000000000
                         3.032496944069862E-2    0.000000000000000       9.072006940841675E-1    0.000000000000000       1.044712662696838       0.000000000000000
                         9.332102537155151E-1    0.000000000000000       1.096948146820068       0.000000000000000       1.036777853965759       0.000000000000000
                        
 3.600000000000000E7     8.310695886611939E-1    0.000000000000000       2.926040627062321E-2    0.000000000000000       9.985503554344177E-1    0.000000000000000
                         3.125567361712456E-2    0.000000000000000       9.729900956153870E-1    0.000000000000000       9.042420983314514E-1    0.000000000000000
                         1.042918205261231       0.000000000000000       9.694356918334961E-1    0.000000000000000       1.046604871749878       0.000000000000000
                        
 4.100000000000000E7     8.409529924392700E-1    0.000000000000000       3.341500833630562E-2    0.000000000000000       1.094805717468262       0.000000000000000
                         2.995865233242512E-2    0.000000000000000       8.218318819999695E-1    0.000000000000000       9.146549701690674E-1    0.000000000000000
                         9.152592420578003E-1    0.000000000000000       9.036194682121277E-1    0.000000000000000       9.905422925949097E-1    0.000000000000000
                        
 4.600000000000000E7     9.758836030960083E-1    0.000000000000000       2.965881302952766E-2    0.000000000000000       9.022461771965027E-1    0.000000000000000
                         3.073636814951897E-2    0.000000000000000       8.919929862022400E-1    0.000000000000000       1.090667486190796       0.000000000000000
                         1.060582280158997       0.000000000000000       1.090038776397705       0.000000000000000       1.008859515190125       0.000000000000000
                        
 5.100000000000000E7     8.819645047187805E-1    0.000000000000000       3.084182366728783E-2    0.000000000000000       1.047532558441162       0.000000000000000
                         3.408854827284813E-2    0.000000000000000       8.550834655761719E-1    0.000000000000000       9.674093127250671E-1    0.000000000000000
                         9.715476036071777E-1    0.000000000000000       1.014835000038147       0.000000000000000       9.757225513458252E-1    0.000000000000000
                        
 5.600000000000000E7     8.015875816345215E-1    0.000000000000000       3.194718435406685E-2    0.000000000000000       9.040955901145935E-1    0.000000000000000
                         3.020035475492477E-2    0.000000000000000       9.735860228538513E-1    0.000000000000000       1.051274180412293       0.000000000000000
                         9.302133321762085E-1    0.000000000000000       9.918363094329834E-1    0.000000000000000       9.562456011772156E-1    0.000000000000000
                        
 6.100000000000000E7     8.344804644584656E-1    0.000000000000000       3.248529881238937E-2    0.000000000000000       1.011740446090698       0.000000000000000
                         3.545733168721199E-2    0.000000000000000       9.007650613784790E-1    0.000000000000000       9.956083893775940E-1    0.000000000000000
                         9.400525093078613E-1    0.000000000000000       1.019547104835510       0.000000000000000       9.885219931602478E-1    0.000000000000000
                        
 6.600000000000000E7     8.441408872604370E-1    0.000000000000000       3.066022880375385E-2    0.000000000000000       1.021097421646118       0.000000000000000
                         3.569489717483521E-2    0.000000000000000       9.041132926940918E-1    0.000000000000000       9.015564322471619E-1    0.000000000000000
                         9.829736948013306E-1    0.000000000000000       9.632099270820618E-1    0.000000000000000       9.906277656555176E-1    0.000000000000000
                        
 7.100000000000000E7     8.308708667755127E-1    0.000000000000000       3.461818024516106E-2    0.000000000000000       9.632221460342407E-1    0.000000000000000
                         3.082223422825337E-2    0.000000000000000       8.879235386848450E-1    0.000000000000000       9.438306689262390E-1    0.000000000000000
                         1.001364231109619       0.000000000000000       1.061815261840820       0.000000000000000       9.927030205726624E-1    0.000000000000000
                        
 7.600000000000000E7     8.823688626289368E-1    0.000000000000000       3.207188099622726E-2    0.000000000000000       1.044077873229981       0.000000000000000
                         3.173427283763886E-2    0.000000000000000       9.496421217918396E-1    0.000000000000000       9.214667081832886E-1    0.000000000000000
                         1.005099654197693       0.000000000000000       9.601336717605591E-1    0.000000000000000       1.093939065933228       0.000000000000000
                        
 8.100000000000000E7     8.801018595695496E-1    0.000000000000000       3.586784005165100E-2    0.000000000000000       9.640888571739197E-1    0.000000000000000
                         3.501025214791298E-2    0.000000000000000       8.029755949974060E-1    0.000000000000000       9.336252808570862E-1    0.000000000000000
                         9.036194682121277E-1    0.000000000000000       1.065764307975769       0.000000000000000       9.446241855621338E-1    0.000000000000000
                        
 8.600000000000000E7     8.498612642288208E-1    0.000000000000000       3.553821519017220E-2    0.000000000000000       9.626850485801697E-1    0.000000000000000
                         3.429509326815605E-2    0.000000000000000       9.113010764122009E-1    0.000000000000000       9.803796410560608E-1    0.000000000000000
                         1.062907814979553       0.000000000000000       1.031138062477112       0.000000000000000       9.531937837600708E-1    0.000000000000000
                        
 9.100000000000000E7     8.902078866958618E-1    0.000000000000000       3.149840980768204E-2    0.000000000000000       9.877956509590149E-1    0.000000000000000
                         3.596531599760056E-2    0.000000000000000       8.893624544143677E-1    0.000000000000000       1.088482260704041       0.000000000000000
                         9.875515103340149E-1    0.000000000000000       9.605914354324341E-1    0.000000000000000       1.018228650093079       0.000000000000000
                        
 9.600000000000000E7     8.568081259727478E-1    0.000000000000000       3.416341543197632E-2    0.000000000000000       9.904080033302307E-1    0.000000000000000
                         3.284396231174469E-2    0.000000000000000       8.586015105247498E-1    0.000000000000000       9.621418118476868E-1    0.000000000000000
                         9.277779459953308E-1    0.000000000000000       9.423474669456482E-1    0.000000000000000       9.854945540428162E-1    0.000000000000000
                        
 1.010000000000000E8     8.681771755218506E-1    0.000000000000000       3.405026718974114E-2    0.000000000000000       9.440992474555969E-1    0.000000000000000
                         3.473203256726265E-2    0.000000000000000       9.591873288154602E-1    0.000000000000000       9.588397145271301E-1    0.000000000000000
                         1.011471867561340       0.000000000000000       9.055848717689514E-1    0.000000000000000       1.030008792877197       0.000000000000000
                        
 1.060000000000000E8     8.568869829177856E-1    0.000000000000000       3.542067855596542E-2    0.000000000000000       9.895595908164978E-1    0.000000000000000
                         3.042296133935452E-2    0.000000000000000       9.735760688781738E-1    0.000000000000000       9.900540113449097E-1    0.000000000000000
                         9.011963009834290E-1    0.000000000000000       1.002462863922119       0.000000000000000       9.630146026611328E-1    0.000000000000000
                        
 1.110000000000000E8     9.419285655021668E-1    0.000000000000000       3.461189568042755E-2    0.000000000000000       9.041138887405396E-1    0.000000000000000
                         3.327244892716408E-2    0.000000000000000       9.485831856727600E-1    0.000000000000000       9.471022486686707E-1    0.000000000000000
                         9.762596487998962E-1    0.000000000000000       9.151127934455872E-1    0.000000000000000       1.064067482948303       0.000000000000000
                        
 1.160000000000000E8     8.471670150756836E-1    0.000000000000000       3.561777994036675E-2    0.000000000000000       1.096276760101318       0.000000000000000
                         3.144634887576103E-2    0.000000000000000       8.631747961044312E-1    0.000000000000000       1.051866173744202       0.000000000000000
                         1.039707660675049       0.000000000000000       1.087749838829041       0.000000000000000       1.038010835647583       0.000000000000000
                        
 1.210000000000000E8     8.501660227775574E-1    0.000000000000000       3.661192953586578E-2    0.000000000000000       9.252571463584900E-1    0.000000000000000
                         3.532215207815170E-2    0.000000000000000       9.396221637725830E-1    0.000000000000000       9.326182007789612E-1    0.000000000000000
                         9.503799676895142E-1    0.000000000000000       1.083617687225342       0.000000000000000       1.097064137458801       0.000000000000000
                        
 1.260000000000000E8     8.901767730712891E-1    0.000000000000000       3.388948738574982E-2    0.000000000000000       9.455214142799377E-1    0.000000000000000
                         3.586452081799507E-2    0.000000000000000       8.238292932510376E-1    0.000000000000000       1.024778008460999       0.000000000000000
                         9.799340963363648E-1    0.000000000000000       1.067070484161377       0.000000000000000       9.677999019622803E-1    0.000000000000000
                        
 1.310000000000000E8     8.517454266548157E-1    0.000000000000000       3.678197786211968E-2    0.000000000000000       1.076293230056763       0.000000000000000
                         3.383010253310204E-2    0.000000000000000       8.276054263114929E-1    0.000000000000000       1.096704006195068       0.000000000000000
                         1.094879031181335       0.000000000000000       1.010599136352539       0.000000000000000       1.023239850997925       0.000000000000000
                        
 1.360000000000000E8     9.586858749389648E-1    0.000000000000000       3.310380131006241E-2    0.000000000000000       1.096093654632568       0.000000000000000
                         3.316977247595787E-2    0.000000000000000       7.987313270568848E-1    0.000000000000000       9.004455804824829E-1    0.000000000000000
                         9.635883569717407E-1    0.000000000000000       1.026853203773499       0.000000000000000       9.398022294044495E-1    0.000000000000000
                        
 1.410000000000000E8     8.607265353202820E-1    0.000000000000000       3.259966894984245E-2    0.000000000000000       1.062297463417053       0.000000000000000
                         3.180931508541107E-2    0.000000000000000       8.752412199974060E-1    0.000000000000000       9.475966691970825E-1    0.000000000000000
                         1.088366389274597       0.000000000000000       1.025669097900391       0.000000000000000       1.079418301582336       0.000000000000000
                        
 1.460000000000000E8     9.580230712890625E-1    0.000000000000000       3.402690589427948E-2    0.000000000000000       1.055613875389099       0.000000000000000
                         3.682997450232506E-2    0.000000000000000       9.322006106376648E-1    0.000000000000000       1.009988665580750       0.000000000000000
                         1.062450051307678       0.000000000000000       1.096111893653870       0.000000000000000       9.964995384216309E-1    0.000000000000000
                        
 1.510000000000000E8     8.234822154045105E-1    0.000000000000000       3.671213611960411E-2    0.000000000000000       1.049681067466736       0.000000000000000
                         3.662978857755661E-2    0.000000000000000       8.483316302299500E-1    0.000000000000000       9.455274939537048E-1    0.000000000000000
                         9.520462751388550E-1    0.000000000000000       1.013498306274414       0.000000000000000       1.070006370544434       0.000000000000000
                        
 1.560000000000000E8     9.254689216613770E-1    0.000000000000000       3.612456098198891E-2    0.000000000000000       9.055360555648804E-1    0.000000000000000
                         3.131895884871483E-2    0.000000000000000       8.830441236495972E-1    0.000000000000000       1.048960804939270       0.000000000000000
                         1.003378391265869       0.000000000000000       1.071434617042542       0.000000000000000       1.060460209846497       0.000000000000000
                        
 1.610000000000000E8     9.178229570388794E-1    0.000000000000000       3.726704791188240E-2    0.000000000000000       1.091198444366455       0.000000000000000
                         3.372826799750328E-2    0.000000000000000       9.242420792579651E-1    0.000000000000000       9.276497960090637E-1    0.000000000000000
                         1.074694037437439       0.000000000000000       1.038834810256958       0.000000000000000       9.919766783714294E-1    0.000000000000000
                        
 1.660000000000000E8     8.750607371330261E-1    0.000000000000000       3.156115859746933E-2    0.000000000000000       9.261421561241150E-1    0.000000000000000
                         3.374540060758591E-2    0.000000000000000       9.098128080368042E-1    0.000000000000000       9.023743271827698E-1    0.000000000000000
                         9.933133721351624E-1    0.000000000000000       1.041978240013123       0.000000000000000       9.593157768249512E-1    0.000000000000000
                        
 1.710000000000000E8     8.667100667953491E-1    0.000000000000000       3.241987526416779E-2    0.000000000000000       9.508987665176392E-1    0.000000000000000
                         3.485275059938431E-2    0.000000000000000       8.282710313796997E-1    0.000000000000000       9.330881834030151E-1    0.000000000000000
                         1.037656784057617       0.000000000000000       9.715048670768738E-1    0.000000000000000       1.059892535209656       0.000000000000000
                        
 1.760000000000000E8     8.197969198226929E-1    0.000000000000000       3.331574425101280E-2    0.000000000000000       1.021536946296692       0.000000000000000
                         3.373979404568672E-2    0.000000000000000       8.299865126609802E-1    0.000000000000000       1.069713473320007       0.000000000000000
                         9.442762732505798E-1    0.000000000000000       1.014493227005005       0.000000000000000       1.050810217857361       0.000000000000000
                        
 1.810000000000000E8     8.458566665649414E-1    0.000000000000000       3.141836822032929E-2    0.000000000000000       9.291940331459045E-1    0.000000000000000
                         3.141773864626885E-2    0.000000000000000       9.181134700775147E-1    0.000000000000000       1.027909159660339       0.000000000000000
                         1.039878487586975       0.000000000000000       9.114322066307068E-1    0.000000000000000       9.308847188949585E-1    0.000000000000000
                        
 1.860000000000000E8     9.705845117568970E-1    0.000000000000000       3.519253432750702E-2    0.000000000000000       9.446485638618469E-1    0.000000000000000
