#  Hz   S   RI   R     50.00
 1.000000000000000e+06   8.322935104370117e-01   0.000000000000000e+00   3.091899864375591e-02   0.000000000000000e+00   9.044984579086304e-01   0.000000000000000e+00   3.337243571877480e-02   0.000000000000000e+00  
                         8.601502180099487e-01   0.000000000000000e+00   9.596942067146301e-01   0.000000000000000e+00   1.066173315048218e+00   0.000000000000000e+00   1.015567541122437e+00   0.000000000000000e+00  
                        
 6.000000000000000e+06   8.677529096603394e-01   0.000000000000000e+00   3.211608529090881e-02   0.000000000000000e+00   9.888149499893188e-01   0.000000000000000e+00   2.994715794920921e-02   0.000000000000000e+00  
                         9.292957186698914e-01   0.000000000000000e+00   9.771141409873962e-01   0.000000000000000e+00   1.091320514678955e+00   0.000000000000000e+00   1.099633812904358e+00   0.000000000000000e+00  
                        
 1.100000000000000e+07   8.153014183044434e-01   0.000000000000000e+00   3.216676041483879e-02   0.000000000000000e+00   9.175908565521240e-01   0.000000000000000e+00   3.108835406601429e-02   0.000000000000000e+00  
                         8.325108885765076e-01   0.000000000000000e+00   1.092486381530762e+00   0.000000000000000e+00   1.002713084220886e+00   0.000000000000000e+00   1.066698193550110e+00   0.000000000000000e+00  
                        
 1.600000000000000e+07   8.151797652244568e-01   0.000000000000000e+00   3.179975226521492e-02   0.000000000000000e+00   9.367564916610718e-01   0.000000000000000e+00   3.242444619536400e-02   0.000000000000000e+00  
                         8.402302265167236e-01   0.000000000000000e+00   1.064323902130127e+00   0.000000000000000e+00   9.642475843429565e-01   0.000000000000000e+00   9.061708450317383e-01   0.000000000000000e+00  
                        
 2.100000000000000e+07   8.147374391555786e-01   0.000000000000000e+00   3.444355353713036e-02   0.000000000000000e+00   1.002304196357727e+00   0.000000000000000e+00   3.279000893235207e-02   0.000000000000000e+00  
                         8.742251396179199e-01   0.000000000000000e+00   1.091900348663330e+00   0.000000000000000e+00   9.049684405326843e-01   0.000000000000000e+00   9.359080791473389e-01   0.000000000000000e+00  
                        
 2.600000000000000e+07   8.308526277542114e-01   0.000000000000000e+00   3.407730534672737e-02   0.000000000000000e+00   9.248298406600952e-01   0.000000000000000e+00   2.948680706322193e-02   0.000000000000000e+00  
                         8.425357937812805e-01   0.000000000000000e+00   9.159917235374451e-01   0.000000000000000e+00   9.761375784873962e-01   0.000000000000000e+00   9.842249751091003e-01   0.000000000000000e+00  
                        
 3.100000000000000e+07   9.672394394874573e-01   0.000000000000000e+00   3.259310498833656e-02   0.000000000000000e+00   1.039109468460083e+00   0.000000000000000e+00   3.032496944069862e-02   0.000000000000000e+00  
                         9.072006940841675e-01   0.000000000000000e+00   1.044712662696838e+00   0.000000000000000e+00   9.332102537155151e-01   0.000000000000000e+00   1.096948146820068e+00   0.000000000000000e+00  
                        
 3.600000000000000e+07   8.310695886611938e-01   0.000000000000000e+00   2.926040627062321e-02   0.000000000000000e+00   9.985503554344177e-01   0.000000000000000e+00   3.125567361712456e-02   0.000000000000000e+00  
                         9.729900956153870e-01   0.000000000000000e+00   9.042420983314514e-01   0.000000000000000e+00   1.042918205261231e+00   0.000000000000000e+00   9.694356918334961e-01   0.000000000000000e+00  
                        
 4.100000000000000e+07   8.409529924392700e-01   0.000000000000000e+00   3.341500833630562e-02   0.000000000000000e+00   1.094805717468262e+00   0.000000000000000e+00   2.995865233242512e-02   0.000000000000000e+00  
                         8.218318819999695e-01   0.000000000000000e+00   9.146549701690674e-01   0.000000000000000e+00   9.152592420578003e-01   0.000000000000000e+00   9.036194682121277e-01   0.000000000000000e+00  
                        
 4.600000000000000e+07   9.758836030960083e-01   0.000000000000000e+00   2.965881302952766e-02   0.000000000000000e+00   9.022461771965027e-01   0.000000000000000e+00   3.073636814951897e-02   0.000000000000000e+00  
                         8.919929862022400e-01   0.000000000000000e+00   1.090667486190796e+00   0.000000000000000e+00   1.060582280158997e+00   0.000000000000000e+00   1.090038776397705e+00   0.000000000000000e+00  
                        
 5.100000000000000e+07   8.819645047187805e-01   0.000000000000000e+00   3.084182366728783e-02   0.000000000000000e+00   1.047532558441162e+00   0.000000000000000e+00   3.408854827284813e-02   0.000000000000000e+00  
                         8.550834655761719e-01   0.000000000000000e+00   9.674093127250671e-01   0.000000000000000e+00   9.715476036071777e-01   0.000000000000000e+00   1.014835000038147e+00   0.000000000000000e+00  
                        
 5.600000000000000e+07   8.015875816345215e-01   0.000000000000000e+00   3.194718435406685e-02   0.000000000000000e+00   9.040955901145935e-01   0.000000000000000e+00   3.020035475492477e-02   0.000000000000000e+00  
                         9.735860228538513e-01   0.000000000000000e+00   1.051274180412293e+00   0.000000000000000e+00   9.302133321762085e-01   0.000000000000000e+00   9.918363094329834e-01   0.000000000000000e+00  
                        
 6.100000000000000e+07   8.344804644584656e-01   0.000000000000000e+00   3.248529881238937e-02   0.000000000000000e+00   1.011740446090698e+00   0.000000000000000e+00   3.545733168721199e-02   0.000000000000000e+00  
                         9.007650613784790e-01   0.000000000000000e+00   9.956083893775940e-01   0.000000000000000e+00   9.400525093078613e-01   0.000000000000000e+00   1.019547104835510e+00   0.000000000000000e+00  
                        
 6.600000000000000e+07   8.441408872604370e-01   0.000000000000000e+00   3.066022880375385e-02   0.000000000000000e+00   1.021097421646118e+00   0.000000000000000e+00   3.569489717483521e-02   0.000000000000000e+00  
                         9.041132926940918e-01   0.000000000000000e+00   9.015564322471619e-01   0.000000000000000e+00   9.829736948013306e-01   0.000000000000000e+00   9.632099270820618e-01   0.000000000000000e+00  
                        
 7.100000000000000e+07   8.308708667755127e-01   0.000000000000000e+00   3.461818024516106e-02   0.000000000000000e+00   9.632221460342407e-01   0.000000000000000e+00   3.082223422825337e-02   0.000000000000000e+00  
                         8.879235386848450e-01   0.000000000000000e+00   9.438306689262390e-01   0.000000000000000e+00   1.001364231109619e+00   0.000000000000000e+00   1.061815261840820e+00   0.000000000000000e+00  
                        
 7.600000000000000e+07   8.823688626289368e-01   0.000000000000000e+00   3.207188099622726e-02   0.000000000000000e+00   1.044077873229981e+00   0.000000000000000e+00   3.173427283763886e-02   0.000000000000000e+00  
                         9.496421217918396e-01   0.000000000000000e+00   9.214667081832886e-01   0.000000000000000e+00   1.005099654197693e+00   0.000000000000000e+00   9.601336717605591e-01   0.000000000000000e+00  
                        
 8.100000000000000e+07   8.801018595695496e-01   0.000000000000000e+00   3.586784005165100e-02   0.000000000000000e+00   9.640888571739197e-01   0.000000000000000e+00   3.501025214791298e-02   0.000000000000000e+00  
                         8.029755949974060e-01   0.000000000000000e+00   9.336252808570862e-01   0.000000000000000e+00   9.036194682121277e-01   0.000000000000000e+00   1.065764307975769e+00   0.000000000000000e+00  
                        
 8.600000000000000e+07   8.498612642288208e-01   0.000000000000000e+00   3.553821519017220e-02   0.000000000000000e+00   9.626850485801697e-01   0.000000000000000e+00   3.429509326815605e-02   0.000000000000000e+00  
                         9.113010764122009e-01   0.000000000000000e+00   9.803796410560608e-01   0.000000000000000e+00   1.062907814979553e+00   0.000000000000000e+00   1.031138062477112e+00   0.000000000000000e+00  
                        
 9.100000000000000e+07   8.902078866958618e-01   0.000000000000000e+00   3.149840980768204e-02   0.000000000000000e+00   9.877956509590149e-01   0.000000000000000e+00   3.596531599760056e-02   0.000000000000000e+00  
                         8.893624544143677e-01   0.000000000000000e+00   1.088482260704041e+00   0.000000000000000e+00   9.875515103340149e-01   0.000000000000000e+00   9.605914354324341e-01   0.000000000000000e+00  
                        
 9.600000000000000e+07   8.568081259727478e-01   0.000000000000000e+00   3.416341543197632e-02   0.000000000000000e+00   9.904080033302307e-01   0.000000000000000e+00   3.284396231174469e-02   0.000000000000000e+00  
                         8.586015105247498e-01   0.000000000000000e+00   9.621418118476868e-01   0.000000000000000e+00   9.277779459953308e-01   0.000000000000000e+00   9.423474669456482e-01   0.000000000000000e+00  
                        
 1.010000000000000e+08   8.681771755218506e-01   0.000000000000000e+00   3.405026718974114e-02   0.000000000000000e+00   9.440992474555969e-01   0.000000000000000e+00   3.473203256726265e-02   0.000000000000000e+00  
                         9.591873288154602e-01   0.000000000000000e+00   9.588397145271301e-01   0.000000000000000e+00   1.011471867561340e+00   0.000000000000000e+00   9.055848717689514e-01   0.000000000000000e+00  
                        
 1.060000000000000e+08   8.568869829177856e-01   0.000000000000000e+00   3.542067855596542e-02   0.000000000000000e+00   9.895595908164978e-01   0.000000000000000e+00   3.042296133935452e-02   0.000000000000000e+00  
                         9.735760688781738e-01   0.000000000000000e+00   9.900540113449097e-01   0.000000000000000e+00   9.011963009834290e-01   0.000000000000000e+00   1.002462863922119e+00   0.000000000000000e+00  
                        
 1.110000000000000e+08   9.419285655021667e-01   0.000000000000000e+00   3.461189568042755e-02   0.000000000000000e+00   9.041138887405396e-01   0.000000000000000e+00   3.327244892716408e-02   0.000000000000000e+00  
                         9.485831856727600e-01   0.000000000000000e+00   9.471022486686707e-01   0.000000000000000e+00   9.762596487998962e-01   0.000000000000000e+00   9.151127934455872e-01   0.000000000000000e+00  
                        
 1.160000000000000e+08   8.471670150756836e-01   0.000000000000000e+00   3.561777994036675e-02   0.000000000000000e+00   1.096276760101318e+00   0.000000000000000e+00   3.144634887576103e-02   0.000000000000000e+00  
                         8.631747961044312e-01   0.000000000000000e+00   1.051866173744202e+00   0.000000000000000e+00   1.039707660675049e+00   0.000000000000000e+00   1.087749838829041e+00   0.000000000000000e+00  
                        
 1.210000000000000e+08   8.501660227775574e-01   0.000000000000000e+00   3.661192953586578e-02   0.000000000000000e+00   9.252571463584900e-01   0.000000000000000e+00   3.532215207815170e-02   0.000000000000000e+00  
                         9.396221637725830e-01   0.000000000000000e+00   9.326182007789612e-01   0.000000000000000e+00   9.503799676895142e-01   0.000000000000000e+00   1.083617687225342e+00   0.000000000000000e+00  
                        
 1.260000000000000e+08   8.901767730712891e-01   0.000000000000000e+00   3.388948738574982e-02   0.000000000000000e+00   9.455214142799377e-01   0.000000000000000e+00   3.586452081799507e-02   0.000000000000000e+00  
                         8.238292932510376e-01   0.000000000000000e+00   1.024778008460999e+00   0.000000000000000e+00   9.799340963363647e-01   0.000000000000000e+00   1.067070484161377e+00   0.000000000000000e+00  
                        
 1.310000000000000e+08   8.517454266548157e-01   0.000000000000000e+00   3.678197786211968e-02   0.000000000000000e+00   1.076293230056763e+00   0.000000000000000e+00   3.383010253310204e-02   0.000000000000000e+00  
                         8.276054263114929e-01   0.000000000000000e+00   1.096704006195068e+00   0.000000000000000e+00   1.094879031181335e+00   0.000000000000000e+00   1.010599136352539e+00   0.000000000000000e+00  
                        
 1.360000000000000e+08   9.586858749389648e-01   0.000000000000000e+00   3.310380131006241e-02   0.000000000000000e+00   1.096093654632568e+00   0.000000000000000e+00   3.316977247595787e-02   0.000000000000000e+00  
                         7.987313270568848e-01   0.000000000000000e+00   9.004455804824829e-01   0.000000000000000e+00   9.635883569717407e-01   0.000000000000000e+00   1.026853203773499e+00   0.000000000000000e+00  
                        
 1.410000000000000e+08   8.607265353202820e-01   0.000000000000000e+00   3.259966894984245e-02   0.000000000000000e+00   1.062297463417053e+00   0.000000000000000e+00   3.180931508541107e-02   0.000000000000000e+00  
                         8.752412199974060e-01   0.000000000000000e+00   9.475966691970825e-01   0.000000000000000e+00   1.088366389274597e+00   0.000000000000000e+00   1.025669097900391e+00   0.000000000000000e+00  
                        
 1.460000000000000e+08   9.580230712890625e-01   0.000000000000000e+00   3.402690589427948e-02   0.000000000000000e+00   1.055613875389099e+00   0.000000000000000e+00   3.682997450232506e-02   0.000000000000000e+00  
                         9.322006106376648e-01   0.000000000000000e+00   1.009988665580750e+00   0.000000000000000e+00   1.062450051307678e+00   0.000000000000000e+00   1.096111893653870e+00   0.000000000000000e+00  
                        
 1.510000000000000e+08   8.234822154045105e-01   0.000000000000000e+00   3.671213611960411e-02   0.000000000000000e+00   1.049681067466736e+00   0.000000000000000e+00   3.662978857755661e-02   0.000000000000000e+00  
                         8.483316302299500e-01   0.000000000000000e+00   9.455274939537048e-01   0.000000000000000e+00   9.520462751388550e-01   0.000000000000000e+00   1.013498306274414e+00   0.000000000000000e+00  
                        
 1.560000000000000e+08   9.254689216613770e-01   0.000000000000000e+00   3.612456098198891e-02   0.000000000000000e+00   9.055360555648804e-01   0.000000000000000e+00   3.131895884871483e-02   0.000000000000000e+00  
                         8.830441236495972e-01   0.000000000000000e+00   1.048960804939270e+00   0.000000000000000e+00   1.003378391265869e+00   0.000000000000000e+00   1.071434617042542e+00   0.000000000000000e+00  
                        
 1.610000000000000e+08   9.178229570388794e-01   0.000000000000000e+00   3.726704791188240e-02   0.000000000000000e+00   1.091198444366455e+00   0.000000000000000e+00   3.372826799750328e-02   0.000000000000000e+00  
                         9.242420792579651e-01   0.000000000000000e+00   9.276497960090637e-01   0.000000000000000e+00   1.074694037437439e+00   0.000000000000000e+00   1.038834810256958e+00   0.000000000000000e+00  
                        
 1.660000000000000e+08   8.750607371330261e-01   0.000000000000000e+00   3.156115859746933e-02   0.000000000000000e+00   9.261421561241150e-01   0.000000000000000e+00   3.374540060758591e-02   0.000000000000000e+00  
                         9.098128080368042e-01   0.000000000000000e+00   9.023743271827698e-01   0.000000000000000e+00   9.933133721351624e-01   0.000000000000000e+00   1.041978240013123e+00   0.000000000000000e+00  
                        
 1.710000000000000e+08   8.667100667953491e-01   0.000000000000000e+00   3.241987526416779e-02   0.000000000000000e+00   9.508987665176392e-01   0.000000000000000e+00   3.485275059938431e-02   0.000000000000000e+00  
                         8.282710313796997e-01   0.000000000000000e+00   9.330881834030151e-01   0.000000000000000e+00   1.037656784057617e+00   0.000000000000000e+00   9.715048670768738e-01   0.000000000000000e+00  
                        
 1.760000000000000e+08   8.197969198226929e-01   0.000000000000000e+00   3.331574425101280e-02   0.000000000000000e+00   1.021536946296692e+00   0.000000000000000e+00   3.373979404568672e-02   0.000000000000000e+00  
                         8.299865126609802e-01   0.000000000000000e+00   1.069713473320007e+00   0.000000000000000e+00   9.442762732505798e-01   0.000000000000000e+00   1.014493227005005e+00   0.000000000000000e+00  
                        
 1.810000000000000e+08   8.458566665649414e-01   0.000000000000000e+00   3.141836822032929e-02   0.000000000000000e+00   9.291940331459045e-01   0.000000000000000e+00   3.141773864626885e-02   0.000000000000000e+00  
                         9.181134700775146e-01   0.000000000000000e+00   1.027909159660339e+00   0.000000000000000e+00   1.039878487586975e+00   0.000000000000000e+00   9.114322066307068e-01   0.000000000000000e+00  
                        
 1.860000000000000e+08   9.705845117568970e-01   0.000000000000000e+00   3.519253432750702e-02   0.000000000000000e+00   9.446485638618469e-01   0.000000000000000e+00   3.501708433032036e-02   0.000000000000000e+00  
                         9.273550510406494e-01   0.000000000000000e+00   1.089886188507080e+00   0.000000000000000e+00   1.098364233970642e+00   0.000000000000000e+00   9.383007287979126e-01   0.000000000000000e+00  
                        
 1.910000000000000e+08   7.975471615791321e-01   0.000000000000000e+00   3.500821068882942e-02   0.000000000000000e+00   1.087810873985291e+00   0.000000000000000e+00   3.631654754281044e-02   0.000000000000000e+00  
                         9.668560624122620e-01   0.000000000000000e+00   9.301339983940125e-01   0.000000000000000e+00   9.228522777557373e-01   0.000000000000000e+00   1.013589859008789e+00   0.000000000000000e+00  
                        
 1.960000000000000e+08   8.739550113677979e-01   0.000000000000000e+00   3.300632908940315e-02   0.000000000000000e+00   9.222540855407715e-01   0.000000000000000e+00   3.580640628933907e-02   0.000000000000000e+00  
                         9.123805761337280e-01   0.000000000000000e+00   9.662678837776184e-01   0.000000000000000e+00   1.052745103836060e+00   0.000000000000000e+00   9.303109645843506e-01   0.000000000000000e+00  
                        
 2.010000000000000e+08   8.067586421966553e-01   0.000000000000000e+00   3.610924631357193e-02   0.000000000000000e+00   1.074791669845581e+00   0.000000000000000e+00   3.674712777137756e-02   0.000000000000000e+00  
                         8.932869434356689e-01   0.000000000000000e+00   1.034745335578919e+00   0.000000000000000e+00   9.956877231597900e-01   0.000000000000000e+00   9.130496978759766e-01   0.000000000000000e+00  
                        
 2.060000000000000e+08   8.493230938911438e-01   0.000000000000000e+00   3.244157135486603e-02   0.000000000000000e+00   1.079943180084229e+00   0.000000000000000e+00   3.654404729604721e-02   0.000000000000000e+00  
                         8.290936946868896e-01   0.000000000000000e+00   9.916898012161255e-01   0.000000000000000e+00   9.846766591072083e-01   0.000000000000000e+00   1.099993944168091e+00   0.000000000000000e+00  
                        
 2.110000000000000e+08   9.462254643440247e-01   0.000000000000000e+00   3.443795070052147e-02   0.000000000000000e+00   9.495132565498352e-01   0.000000000000000e+00   3.628238663077354e-02   0.000000000000000e+00  
                         9.604008197784424e-01   0.000000000000000e+00   1.038669943809509e+00   0.000000000000000e+00   1.060039043426514e+00   0.000000000000000e+00   9.499527215957642e-01   0.000000000000000e+00  
                        
 2.160000000000000e+08   9.495621323585510e-01   0.000000000000000e+00   3.619083389639854e-02   0.000000000000000e+00   1.067125439643860e+00   0.000000000000000e+00   3.381829708814621e-02   0.000000000000000e+00  
