! RsaToolbox (C) 2015 Rohde & Schwarz America
! 
! Number of points: 911
! Number of ports: 2
! Balanced ports?: No
! 
! 
# Hz S RI R 50
9900000000        -0.004522683562   0.5874603983      -0.8522148925     0.02723642045     -0.8522148925     0.02723642045     0.2081023349      0.7420648931      
9910000000        0.003581476555    0.5770616244      -0.8585734762     0.05115673986     -0.8585734762     0.05115673986     0.2316585089      0.7263857695      
9920000000        0.01104310373     0.5669600552      -0.8637868788     0.07527064643     -0.8637868788     0.07527064643     0.2539663339      0.7096314065      
9930000000        0.01789705934     0.5568669789      -0.8681259713     0.09946661215     -0.8681259713     0.09946661215     0.2756786302      0.6924361061      
9940000000        0.02414162021     0.5470361162      -0.8711001278     0.1236545276      -0.8711001278     0.1236545276      0.2956399531      0.6744054747      
9950000000        0.02987135269     0.5373685529      -0.8731257188     0.1475932925      -0.8731257188     0.1475932925      0.3143934155      0.6560006896      
9960000000        0.03508890854     0.5278917415      -0.8742422109     0.1716995635      -0.8742422109     0.1716995635      0.3323466425      0.6370599192      
9970000000        0.03993276201     0.5187407195      -0.8741443212     0.1954293452      -0.8741443212     0.1954293452      0.3483160583      0.6175712285      
9980000000        0.04425763915     0.5098735519      -0.8735279879     0.2190970014      -0.8735279879     0.2190970014      0.363979266       0.5981343005      
9990000000        0.04827404835     0.5013243055      -0.8719046838     0.2421759474      -0.8719046838     0.2421759474      0.3779609696      0.5789534581      
1e+10             0.05192861096     0.4930077995      -0.8693141577     0.2652586634      -0.8693141577     0.2652586634      0.3910970081      0.558751859       
1.001e+10         0.05518019897     0.4850418248      -0.865827541      0.2880361394      -0.865827541      0.2880361394      0.4030797914      0.5384251788      
1.002e+10         0.05819841177     0.4773963268      -0.8619326282     0.3102185322      -0.8619326282     0.3102185322      0.4142766859      0.5188638191      
1.003e+10         0.06092624134     0.4699064199      -0.85702083       0.3321667659      -0.85702083       0.3321667659      0.4239087743      0.4985269478      
1.004e+10         0.06350582008     0.4628427031      -0.8514838171     0.3536053291      -0.8514838171     0.3536053291      0.4326388985      0.4788766708      
1.005e+10         0.06587210738     0.4559498006      -0.8451113414     0.3745957383      -0.8451113414     0.3745957383      0.4398996825      0.458712918       
1.006e+10         0.06806930039     0.449368442       -0.8383797881     0.395232195       -0.8383797881     0.395232195       0.446894032       0.4392527548      
1.007e+10         0.07006151061     0.4431701707      -0.8310354556     0.4155197487      -0.8310354556     0.4155197487      0.4532054906      0.4194711429      
1.008e+10         0.07206952101     0.4371187741      -0.8230589603     0.4347544032      -0.8230589603     0.4347544032      0.4575539048      0.4009570369      
1.009e+10         0.07399226812     0.4312310155      -0.8146111145     0.4542330923      -0.8146111145     0.4542330923      0.4620605484      0.3818105802      
1.01e+10          0.07579678121     0.4258405695      -0.8056568709     0.4728101625      -0.8056568709     0.4728101625      0.4652664223      0.363199913       
1.011e+10         0.07754818517     0.4204707655      -0.7964290189     0.4911037993      -0.7964290189     0.4911037993      0.4680030204      0.3451585465      
1.012e+10         0.07925040677     0.4154877719      -0.7868009602     0.5086247136      -0.7868009602     0.5086247136      0.4698159744      0.3276538564      
1.013e+10         0.0808725495      0.4106209457      -0.7766537881     0.5258616719      -0.7766537881     0.5258616719      0.4712922465      0.3101494798      
1.014e+10         0.0824981614      0.4059190292      -0.766324452      0.5427298487      -0.766324452      0.5427298487      0.4720227741      0.2930583784      
1.015e+10         0.08415479002     0.401408832       -0.7555695241     0.5591296222      -0.7555695241     0.5591296222      0.4725428967      0.276213918       
1.016e+10         0.08586709666     0.3971546328      -0.7445691872     0.5750771686      -0.7445691872     0.5750771686      0.4721712283      0.2596643068      
1.017e+10         0.0874919273      0.3930409794      -0.7332879113     0.590370494       -0.7332879113     0.590370494       0.471258674       0.2437711961      
1.018e+10         0.08918446887     0.3888785926      -0.7217563662     0.6053434849      -0.7217563662     0.6053434849      0.470027501       0.2283485453      
1.019e+10         0.0909105947      0.384869765       -0.7100831627     0.6198582012      -0.7100831627     0.6198582012      0.4683395899      0.2134122443      
1.02e+10          0.09262655315     0.3811083778      -0.6981417647     0.6340759406      -0.6981417647     0.6340759406      0.4664317236      0.1985739627      
1.021e+10         0.09445440362     0.3772941488      -0.6861947565     0.6478236248      -0.6861947565     0.6478236248      0.4641323427      0.1847827499      
1.022e+10         0.09622999522     0.3737758104      -0.673927241      0.6609141872      -0.673927241      0.6609141872      0.4611212185      0.1709248007      
1.023e+10         0.09798260598     0.3701885955      -0.6615195279     0.6739233514      -0.6615195279     0.6739233514      0.4584677749      0.1573045787      
1.024e+10         0.09996287647     0.3666804959      -0.6489820236     0.6864759212      -0.6489820236     0.6864759212      0.4549244782      0.1442844799      
1.025e+10         0.1019136977      0.3633493183      -0.6364190235     0.6985960303      -0.6364190235     0.6985960303      0.4515309203      0.1317275899      
1.026e+10         0.103857395       0.3600591591      -0.6235526717     0.7103333471      -0.6235526717     0.7103333471      0.4476993004      0.1194535015      
1.027e+10         0.1058341821      0.3567684854      -0.6107029527     0.7216452151      -0.6107029527     0.7216452151      0.4435163071      0.1077783368      
1.028e+10         0.1078671127      0.3536849717      -0.5976554769     0.7325817031      -0.5976554769     0.7325817031      0.439326585       0.09612099405     
1.029e+10         0.1099743918      0.3505008667      -0.5846328957     0.7433614808      -0.5846328957     0.7433614808      0.4350842905      0.08501454197     
1.03e+10          0.1119913511      0.3473134484      -0.5714092048     0.7537395277      -0.5714092048     0.7537395277      0.4306716526      0.07412067039     
1.031e+10         0.11399086        0.3441501148      -0.558398766      0.7638296354      -0.558398766      0.7638296354      0.4262175028      0.06409962948     
1.032e+10         0.1159861723      0.3410515619      -0.5450883293     0.7734583137      -0.5450883293     0.7734583137      0.4212191029      0.05388466312     
1.033e+10         0.1180936694      0.3378953122      -0.5318699059     0.782873137       -0.5318699059     0.782873137       0.4161911577      0.04422935322     
1.034e+10         0.1201392812      0.3347115096      -0.5184755455     0.7919386168      -0.5184755455     0.7919386168      0.4111910296      0.03483146229     
1.035e+10         0.1221709807      0.3315137116      -0.505222074      0.8007574446      -0.505222074      0.8007574446      0.4059907185      0.0259759729      
1.036e+10         0.1243956072      0.3283832502      -0.4917733894     0.8090635002      -0.4917733894     0.8090635002      0.400350716       0.01701245268     
1.037e+10         0.1265813587      0.3251651603      -0.4782962146     0.8172688033      -0.4782962146     0.8172688033      0.3949334888      0.008781821469    
1.038e+10         0.1288779903      0.3220240254      -0.4647526671     0.8249778992      -0.4647526671     0.8249778992      0.3889201414      0.0004955514733   
1.039e+10         0.1310010176      0.3188252241      -0.4512446833     0.8326397535      -0.4512446833     0.8326397535      0.3834244509      -0.00733163133    
1.04e+10          0.1333095848      0.315715915       -0.4376989752     0.8399603489      -0.4376989752     0.8399603489      0.3777465177      -0.01479037574    
1.041e+10         0.135437553       0.3125369615      -0.4239821359     0.8469566516      -0.4239821359     0.8469566516      0.3721542591      -0.02241541862    
1.042e+10         0.1375336017      0.3092887218      -0.410278121      0.8538237429      -0.410278121      0.8538237429      0.3665086655      -0.0293684938     
1.043e+10         0.1396633324      0.3059226804      -0.3965405091     0.8603349964      -0.3965405091     0.8603349964      0.3608205875      -0.03628085862    
1.044e+10         0.1417782245      0.302680191       -0.382879795      0.8666584404      -0.382879795      0.8666584404      0.355246589       -0.04283138318    
1.045e+10         0.143695854       0.2994000787      -0.3692752969     0.8727848259      -0.3692752969     0.8727848259      0.3496401884      -0.04891255519    
1.046e+10         0.1459141195      0.2960910827      -0.3555737621     0.8783781014      -0.3555737621     0.8783781014      0.3434418059      -0.0551026095     
1.047e+10         0.1478889906      0.2927598407      -0.3419694452     0.8838496414      -0.3419694452     0.8838496414      0.3375454516      -0.06102890851    
1.048e+10         0.1500192271      0.2893183129      -0.328304995      0.889142064       -0.328304995      0.889142064       0.3314591941      -0.06645978879    
1.049e+10         0.1519509804      0.286009367       -0.3146365054     0.8944128023      -0.3146365054     0.8944128023      0.325903587       -0.07171211405    
1.05e+10          0.1540718747      0.2825339426      -0.3010809108     0.899015399       -0.3010809108     0.899015399       0.3195049891      -0.07689182413    
1.051e+10         0.1560603672      0.2791638471      -0.2872450086     0.9035016457      -0.2872450086     0.9035016457      0.3134974905      -0.08210705001    
1.052e+10         0.1578908695      0.2757408353      -0.2735735052     0.9080226235      -0.2735735052     0.9080226235      0.3076852281      -0.08681094121    
1.053e+10         0.1598233989      0.2722168989      -0.2598551426     0.9120508298      -0.2598551426     0.9120508298      0.3016091488      -0.09145852389    
1.054e+10         0.1614481653      0.268791903       -0.2460613877     0.9161690215      -0.2460613877     0.9161690215      0.2961040861      -0.09585087882    
1.055e+10         0.1632061458      0.2653593111      -0.2323262255     0.919898371       -0.2323262255     0.919898371       0.2901976643      -0.1002430339     
1.056e+10         0.1647972686      0.2618068924      -0.2185711834     0.9235212764      -0.2185711834     0.9235212764      0.284565283       -0.1041225802     
1.057e+10         0.1663835971      0.2582318333      -0.2048432211     0.9269094647      -0.2048432211     0.9269094647      0.2789223745      -0.1079944284     
1.058e+10         0.1679274433      0.2547024204      -0.1911459165     0.9301069443      -0.1911459165     0.9301069443      0.2732584647      -0.1116562017     
1.059e+10         0.1695719086      0.2510880979      -0.1774807015     0.9329960783      -0.1774807015     0.9329960783      0.2674068354      -0.1150341171     
1.06e+10          0.1709062837      0.2474428848      -0.1638900386     0.9356981007      -0.1638900386     0.9356981007      0.2617682167      -0.1182991645     
1.061e+10         0.1725036031      0.2437077856      -0.1502654072     0.938109806       -0.1502654072     0.938109806       0.2560889557      -0.1214347857     
1.062e+10         0.1738980473      0.2398813575      -0.1367074078     0.9403496892      -0.1367074078     0.9403496892      0.2504874705      -0.124305059      
1.063e+10         0.1752955145      0.2363287919      -0.1230539766     0.9424365863      -0.1230539766     0.9424365863      0.2449622219      -0.1272636186     
1.064e+10         0.1766282371      0.2326054897      -0.1096241226     0.9443389972      -0.1096241226     0.9443389972      0.2392473993      -0.1297624252     
1.065e+10         0.1777469805      0.2289346125      -0.09599833931    0.9459620488      -0.09599833931    0.9459620488      0.2339581067      -0.1324981047     
1.066e+10         0.1790015807      0.2252091775      -0.08242735669    0.9474021868      -0.08242735669    0.9474021868      0.2284465715      -0.1350071825     
1.067e+10         0.1800832695      0.2215457859      -0.06885776724    0.948735788       -0.06885776724    0.948735788       0.223201642       -0.1372547797     
1.068e+10         0.1810981261      0.2181062074      -0.05532625205    0.9498445269      -0.05532625205    0.9498445269      0.2178456817      -0.1396156063     
1.069e+10         0.1819552557      0.2144661747      -0.04194930496    0.9507350387      -0.04194930496    0.9507350387      0.2124674066      -0.1416830659     
1.07e+10          0.1828013273      0.2108375466      -0.02842565822    0.9514591564      -0.02842565822    0.9514591564      0.2073089177      -0.1437394157     
1.071e+10         0.1836469663      0.2069837127      -0.01509180827    0.9520063453      -0.01509180827    0.9520063453      0.202092629       -0.1453755065     
1.072e+10         0.1843298168      0.2033179916      -0.001737684419   0.9523594831      -0.001737684419   0.9523594831      0.1968255903      -0.1469929307     
1.073e+10         0.1852053972      0.1995222068      0.01154493287     0.9525202807      0.01154493287     0.9525202807      0.1914537136      -0.1483531418     
1.074e+10         0.1857134169      0.1958677415      0.02476967449     0.9524947343      0.02476967449     0.9524947343      0.186254648       -0.1498928111     
1.075e+10         0.1862588301      0.1922004054      0.03809244529     0.9523132122      0.03809244529     0.9523132122      0.1813949284      -0.1512390727     
1.076e+10         0.1867779057      0.1885373438      0.05135172657     0.9519358151      0.05135172657     0.9519358151      0.1765277465      -0.1524333875     
1.077e+10         0.1873288827      0.1848323618      0.06455150607     0.9513154861      0.06455150607     0.9513154861      0.1715805812      -0.1535878906     
1.078e+10         0.1877633167      0.1812678499      0.07776449724     0.9506260789      0.07776449724     0.9506260789      0.1668232216      -0.1546076952     
1.079e+10         0.1880923092      0.1778627005      0.09088835261     0.9498090712      0.09088835261     0.9498090712      0.1622211912      -0.1553776932     
1.08e+10          0.1883651888      0.1742948341      0.1038981712      0.9485906424      0.1038981712      0.9485906424      0.1574351428      -0.1562725651     
1.081e+10         0.1886990292      0.1707642257      0.1168752501      0.9474099206      0.1168752501      0.9474099206      0.1527835158      -0.1568636172     
1.082e+10         0.1888656269      0.1671809843      0.129755112       0.9460190394      0.129755112       0.9460190394      0.1481782201      -0.1574347899     
1.083e+10         0.1889937556      0.1637252         0.1426135335      0.9444272933      0.1426135335      0.9444272933      0.1435752638      -0.1578871166     
1.084e+10         0.1890332869      0.160284678       0.1553561873      0.9426532446      0.1553561873      0.9426532446      0.1389599063      -0.1583320546     
1.085e+10         0.1890331462      0.156710223       0.1681827331      0.94072816        0.1681827331      0.94072816        0.1346256872      -0.1586703604     
1.086e+10         0.1888576489      0.1533251874      0.1808337705      0.9386285367      0.1808337705      0.9386285367      0.1301489686      -0.1589134195     
1.087e+10         0.1888041266      0.1500046425      0.1934887851      0.9364531032      0.1934887851      0.9364531032      0.1257155051      -0.1589748689     
1.088e+10         0.1886757846      0.1467456916      0.2061908777      0.9339623811      0.2061908777      0.9339623811      0.1214919769      -0.1592334258     
1.089e+10         0.1883078649      0.1434937744      0.2187753887      0.9313820185      0.2187753887      0.9313820185      0.117434306       -0.1592703643     
1.09e+10          0.1881105227      0.1402244284      0.2313657701      0.9285843292      0.2313657701      0.9285843292      0.1133807917      -0.1593237097     
1.091e+10         0.1878341067      0.1370820249      0.2438676429      0.9255755954      0.2438676429      0.9255755954      0.1093833437      -0.1593506908     
1.092e+10         0.187458644       0.1340187335      0.2562027848      0.9225715654      0.2562027848      0.9225715654      0.1052919138      -0.159207293      
1.093e+10         0.1869405778      0.1307548096      0.2684572839      0.9192942896      0.2684572839      0.9192942896      0.1014264782      -0.1590559514     
1.094e+10         0.1864174511      0.127555145       0.2806223253      0.9158976252      0.2806223253      0.9158976252      0.09741503996     -0.1587887297     
1.095e+10         0.1858542433      0.1244409292      0.2927544689      0.9123305836      0.2927544689      0.9123305836      0.09362197827     -0.1583541507     
1.096e+10         0.1852869374      0.1213518999      0.3047846418      0.9086562942      0.3047846418      0.9086562942      0.08967502952     -0.1579778945     
1.097e+10         0.1846843254      0.1182943319      0.3168302678      0.9048224292      0.3168302678      0.9048224292      0.08586287241     -0.1574353277     
1.098e+10         0.1840219663      0.1152228413      0.3287654785      0.9008618764      0.3287654785      0.9008618764      0.08235652679     -0.1568421475     
1.099e+10         0.1832660707      0.1123567848      0.3405891584      0.8967131957      0.3405891584      0.8967131957      0.07869643929     -0.1563078362     
1.1e+10           0.18269715        0.1092878335      0.3524132989      0.8923059825      0.3524132989      0.8923059825      0.07533602663     -0.1556982191     
1.101e+10         0.1819124171      0.1064938155      0.3642502206      0.8878443983      0.3642502206      0.8878443983      0.07198592989     -0.1551326431     
1.102e+10         0.1811633496      0.1037427463      0.3758323508      0.8832379555      0.3758323508      0.8832379555      0.0685642476      -0.154394857      
1.103e+10         0.1804559812      0.1010066661      0.3874196424      0.8785681267      0.3874196424      0.8785681267      0.06519976422     -0.153550874      
1.104e+10         0.1796716191      0.09838384624     0.3988394567      0.8737250392      0.3988394567      0.8737250392      0.06205114201     -0.1526799381     
1.105e+10         0.1787661166      0.09571089599     0.4102167836      0.868733341       0.4102167836      0.868733341       0.05890340841     -0.1516922845     
1.106e+10         0.1778480596      0.09298437939     0.4214870035      0.8635931875      0.4214870035      0.8635931875      0.0556649487      -0.1506922719     
1.107e+10         0.1768166771      0.09032858698     0.4326587041      0.8583488319      0.4326587041      0.8583488319      0.0525853195      -0.1497596512     
1.108e+10         0.1758550098      0.08778812449     0.4437588284      0.8529732877      0.4437588284      0.8529732877      0.04934672087     -0.1487788004     
1.109e+10         0.1747596254      0.08525974429     0.45468148        0.8473884573      0.45468148        0.8473884573      0.04633189335     -0.1477048347     
1.11e+10          0.173762956       0.08274934752     0.4656709533      0.8417125402      0.4656709533      0.8417125402      0.04344691547     -0.1465275678     
