! RsaToolbox (C) 2015 Rohde & Schwarz America
! 
! Number of points: 401
! Number of ports: 2
! Balanced ports?: No
! 
! 
# Hz S RI R 50
300000            0.001054749532    -0.0001083465854  0.317874711       -0.0003761362996  0.317874711       -0.0003761362996  -0.002689740956   -0.001763514165   
20299250          0.0001705357901   0.000295017378    0.3178558415      -0.003716203779   0.3178558415      -0.003716203779   -0.007166564474   0.003107689925    
40298500          0.0001711976607   0.0002443482325   0.3173905815      -0.006995051663   0.3173905815      -0.006995051663   -0.003324540377   0.003028698408    
60297750          0.0003043922155   -0.0001058691508  0.3171040969      -0.01015848043    0.3171040969      -0.01015848043    -0.001246379113   0.0018378976      
80297000          0.0003250019712   -0.0005462793735  0.3168474743      -0.01354861142    0.3168474743      -0.01354861142    -0.001511854169   0.003217748021    
100296250         0.0003484588319   -0.0008644775392  0.3164896804      -0.01668423652    0.3164896804      -0.01668423652    -0.003158379107   0.001049380423    
120295500         0.0002151637094   -0.001246643626   0.3162505048      -0.01990005485    0.3162505048      -0.01990005485    -0.003166863733   0.001412001778    
140294750         -3.605590082e-05  -0.001553432933   0.315847864       -0.02320111421    0.315847864       -0.02320111421    -0.001940978539   0.00120080504     
160294000         -0.0001634527598  -0.001797472793   0.3156539885      -0.02627233321    0.3156539885      -0.02627233321    -0.002739063578   -0.001109819676   
180293250         -0.000221567434   -0.001960110835   0.3153441616      -0.02963633646    0.3153441616      -0.02963633646    -0.001163596073   -0.0003259208537  
200292500         -0.0003732123587  -0.001997266391   0.3149164815      -0.03272656138    0.3149164815      -0.03272656138    0.0001914742633   -0.001037349448   
220291750         -0.0005864943895  -0.002171339044   0.3146134606      -0.03586983044    0.3146134606      -0.03586983044    -0.0009078841854  -0.001224486246   
240291000         -0.0007848385614  -0.00226745422    0.3141686159      -0.03909073637    0.3141686159      -0.03909073637    -0.0004616657304  -0.002516682666   
260290250         -0.001075124995   -0.002315100481   0.3136497514      -0.04226126971    0.3136497514      -0.04226126971    0.0007702394815   -0.0008647965611  
280289500         -0.001224163594   -0.00257348067    0.3132022823      -0.04556623478    0.3132022823      -0.04556623478    -0.0008446553602  -0.0007859273759  
300288750         -0.001491484509   -0.002730707302   0.3126693439      -0.04879363589    0.3126693439      -0.04879363589    -0.0005268428751  -0.000358368864   
320288000         -0.001720135071   -0.002817605779   0.3121722056      -0.051878421      0.3121722056      -0.051878421      -0.000484478278   -0.001838918671   
340287250         -0.001997485794   -0.002818092527   0.3115662064      -0.05507470195    0.3115662064      -0.05507470195    -0.0006266403071  -2.138408627e-05  
360286500         -0.00232575008    -0.003075122666   0.3109764509      -0.05819596417    0.3109764509      -0.05819596417    -0.0008139354858  -0.001027444066   
380285750         -0.002480267424   -0.003128311558   0.3104172324      -0.06138687042    0.3104172324      -0.06138687042    -0.0005012762399  -0.001806986947   
400285000         -0.00277749969    -0.003169474882   0.3097165389      -0.0645136712     0.3097165389      -0.0645136712     0.0008477486455   -0.001424609128   
420284250         -0.002906976009   -0.003184142761   0.3091092283      -0.06770807794    0.3091092283      -0.06770807794    0.0003823332382   -0.003930713419   
440283500         -0.002920948251   -0.003200077252   0.3083544393      -0.07089992552    0.3083544393      -0.07089992552    0.0006094995882   -0.002188889274   
460282750         -0.003027990844   -0.003251642825   0.3074993381      -0.073943405      0.3074993381      -0.073943405      -0.0004935695593  -0.002371228432   
480282000         -0.003207139468   -0.003278540913   0.306833365       -0.07710707819    0.306833365       -0.07710707819    -1.752058835e-05  -0.004365037374   
500281250         -0.00346900045    -0.003164914129   0.3059384726      -0.08021902831    0.3059384726      -0.08021902831    7.753095596e-05   -0.00254515475    
520280500         -0.00363630877    -0.003169389288   0.3050538952      -0.08328021523    0.3050538952      -0.08328021523    0.001413504118    -0.001394738556   
540279750         -0.003817733416   -0.003110691572   0.3042536985      -0.08645879034    0.3042536985      -0.08645879034    -0.0007374694879  -0.001701721644   
560279000         -0.003921937125   -0.003042921998   0.3032873148      -0.08955064531    0.3032873148      -0.08955064531    0.0005342876019   -0.001355782682   
580278250         -0.004148046214   -0.002959458047   0.3024039213      -0.09260132659    0.3024039213      -0.09260132659    0.0007180753064   -0.00250242829    
600277500         -0.004398801011   -0.002730970188   0.3013980596      -0.09564620051    0.3013980596      -0.09564620051    0.0002598259234   -0.001898285126   
620276750         -0.004760342556   -0.002529187134   0.3004977762      -0.09878869205    0.3004977762      -0.09878869205    -0.0007569736413  -0.004451571995   
640276000         -0.005044159363   -0.002532075931   0.2994027557      -0.1018391038     0.2994027557      -0.1018391038     -0.0009277660879  -0.003258797081   
660275250         -0.005258603912   -0.002484450779   0.2983617285      -0.104880819      0.2983617285      -0.104880819      -0.001568517574   -0.003627906107   
680274500         -0.005565351005   -0.002352090037   0.2972272481      -0.1079153095     0.2972272481      -0.1079153095     -0.001060541039   -0.003471333574   
700273750         -0.005725696727   -0.002305919838   0.2960742028      -0.1110635232     0.2960742028      -0.1110635232     -0.002010228948   -0.003026341048   
720273000         -0.00592190154    -0.002359841344   0.294931884       -0.1139406987     0.294931884       -0.1139406987     -0.001775760484   -0.003728829464   
740272250         -0.006211647898   -0.002307251831   0.2937467678      -0.1169438711     0.2937467678      -0.1169438711     -0.0008129975311  -0.004631332368   
760271500         -0.006297538302   -0.00228073412    0.2925042884      -0.1198767668     0.2925042884      -0.1198767668     -0.001995094642   -0.002297464788   
780270750         -0.006491615302   -0.002293154914   0.2912666461      -0.1228496451     0.2912666461      -0.1228496451     -0.001490063041   -0.004003149341   
800270000         -0.006641754168   -0.002305582689   0.2899062187      -0.1257975106     0.2899062187      -0.1257975106     -0.001922407104   -0.003546486514   
820269250         -0.006680211218   -0.00226491489    0.2888290421      -0.1287637713     0.2888290421      -0.1287637713     -0.001688884744   -0.004303283222   
840268500         -0.006702256751   -0.002313539525   0.2873663568      -0.1316615645     0.2873663568      -0.1316615645     -0.0009573475816  -0.004450397527   
860267750         -0.006729509627   -0.001997642139   0.2859875539      -0.1346599733     0.2859875539      -0.1346599733     -0.00271076488    -0.006713861766   
880267000         -0.00695728976    -0.001989378962   0.2846293875      -0.137412948      0.2846293875      -0.137412948      -0.0003064189971  -0.004989258896   
900266250         -0.00700608501    -0.001783405363   0.2831374987      -0.1402638709     0.2831374987      -0.1402638709     -0.001290775851   -0.005492945516   
920265500         -0.00709335556    -0.001792723471   0.2818377268      -0.143231448      0.2818377268      -0.143231448      -0.000651669536   -0.004652824131   
940264750         -0.007128726145   -0.001705548771   0.2802103228      -0.1460469604     0.2802103228      -0.1460469604     -0.0022758994     -0.005413164614   
960264000         -0.007113572791   -0.001423075371   0.2788380793      -0.1489848703     0.2788380793      -0.1489848703     -0.001198606137   -0.005928502434   
980263250         -0.007147221938   -0.001389117221   0.2773262839      -0.1517703715     0.2773262839      -0.1517703715     -0.001606111437   -0.00520662569    
1000262500        -0.007181837753   -0.001182285421   0.2757345057      -0.1546146876     0.2757345057      -0.1546146876     -0.001702013185   -0.005752593532   
1020261750        -0.007434059838   -0.001020930715   0.2740727203      -0.1572820882     0.2740727203      -0.1572820882     -0.001056152897   -0.005782693025   
1040261000        -0.007628616601   -0.001034807694   0.2724480649      -0.1600839815     0.2724480649      -0.1600839815     -0.001915098119   -0.005482374532   
1060260250        -0.007725116838   -0.0009477290729  0.2707804047      -0.1628468327     0.2707804047      -0.1628468327     -0.003038510605   -0.006360455183   
1080259500        -0.007733355665   -0.0009939262358  0.2690526521      -0.1656777608     0.2690526521      -0.1656777608     -0.001356508973   -0.005844769609   
1100258750        -0.007600234947   -0.001044294841   0.267377609       -0.168513736      0.267377609       -0.168513736      -0.0004490142851  -0.004872361147   
1120258000        -0.007498216071   -0.0009937101813  0.2655833074      -0.1712240784     0.2655833074      -0.1712240784     -0.002390121539   -0.006187378825   
1140257250        -0.0073626398     -0.0008494471662  0.2637848736      -0.1738476463     0.2637848736      -0.1738476463     -0.002706151695   -0.007140936007   
1160256500        -0.007196317618   -0.000577866435   0.2620369827      -0.1765971377     0.2620369827      -0.1765971377     -0.0008137462101  -0.007841573119   
1180255750        -0.007302183495   -0.0002997180628  0.2602189558      -0.1791261573     0.2602189558      -0.1791261573     -0.001366377279   -0.006806208091   
1200255000        -0.007414442201   -0.0001221971012  0.2584417361      -0.1817782918     0.2584417361      -0.1817782918     -0.002241824386   -0.007480280093   
1220254250        -0.007225221812   -9.361259504e-05  0.2565180443      -0.1844421478     0.2565180443      -0.1844421478     -0.0007142382978  -0.008201670155   
1240253500        -0.00729681541    0.0001235119903   0.2546848942      -0.1869626059     0.2546848942      -0.1869626059     -0.0009096313656  -0.005343907284   
1260252750        -0.007276584454   0.0003582461945   0.2528400755      -0.1896129637     0.2528400755      -0.1896129637     -0.001644650548   -0.005768069125   
1280252000        -0.00734499472    0.0005246551875   0.2508514318      -0.1920969609     0.2508514318      -0.1920969609     -0.002689467105   -0.006816106006   
1300251250        -0.007445661263   0.000696301618    0.2488464591      -0.194602899      0.2488464591      -0.194602899      -0.002654773766   -0.006788616085   
1320250500        -0.007599951652   0.0007170545393   0.2468764427      -0.1971404169     0.2468764427      -0.1971404169     -0.001979035874   -0.006822315399   
1340249750        -0.007738970836   0.0007613683193   0.2447971941      -0.1996319603     0.2447971941      -0.1996319603     -0.002957676543   -0.006726678626   
1360249000        -0.007761619208   0.0006976317253   0.242771521       -0.2022450217     0.242771521       -0.2022450217     -0.002505622325   -0.00748894231    
1380248250        -0.007724151924   0.0005757226483   0.2407355427      -0.2045900046     0.2407355427      -0.2045900046     -0.0006204412074  -0.007657134939   
1400247500        -0.007692453302   0.0006936318007   0.2385833161      -0.2069262509     0.2385833161      -0.2069262509     -0.002847247167   -0.007731820657   
1420246750        -0.007616728614   0.0007614118899   0.2364645938      -0.2093925716     0.2364645938      -0.2093925716     -0.003233427168   -0.007724614032   
1440246000        -0.007642612884   0.000824930793    0.234296774       -0.2118789376     0.234296774       -0.2118789376     -0.00311415391    -0.00620714431    
1460245250        -0.007606357508   0.0007794195523   0.232088506       -0.2142043405     0.232088506       -0.2142043405     -0.004280692446   -0.006099972811   
1480244500        -0.007678521389   0.0006372870702   0.2298567371      -0.2165360394     0.2298567371      -0.2165360394     -0.00294696426    -0.00834930086    
1500243750        -0.007629841426   0.0006113812674   0.2275955072      -0.218934164      0.2275955072      -0.218934164      -0.003407533892   -0.008248121509   
1520243000        -0.007619195651   0.0006204838247   0.2253503066      -0.2212585701     0.2253503066      -0.2212585701     -0.003344958738   -0.00940539228    
1540242250        -0.007342601866   0.0007642204315   0.2230954165      -0.2234554213     0.2230954165      -0.2234554213     -0.004169885736   -0.007651036457   
1560241500        -0.007301894525   0.0008061558765   0.2208426785      -0.2257627482     0.2208426785      -0.2257627482     -0.00345421884    -0.00851872664    
1580240750        -0.007506157207   0.0009336630932   0.2185045164      -0.2280989638     0.2185045164      -0.2280989638     -0.004601314714   -0.007581520882   
1600240000        -0.007685775493   0.0008827614837   0.2161775302      -0.2301651339     0.2161775302      -0.2301651339     -0.003856441923   -0.008685856452   
1620239250        -0.007656848966   0.0007791053242   0.2139102275      -0.232250639      0.2139102275      -0.232250639      -0.005117230901   -0.007163853608   
1640238500        -0.00772065174    0.0007112763988   0.2114167653      -0.2344754771     0.2114167653      -0.2344754771     -0.003829761559   -0.007633575915   
1660237750        -0.007702902039   0.0006823788372   0.2091238108      -0.2365837899     0.2091238108      -0.2365837899     -0.004849952664   -0.006096659028   
1680237000        -0.007716127405   0.0006157422242   0.2066489129      -0.2387879183     0.2066489129      -0.2387879183     -0.005006804441   -0.006712238615   
1700236250        -0.007821241743   0.0007881990062   0.2041627379      -0.2407547337     0.2041627379      -0.2407547337     -0.004886070451   -0.008844583245   
1720235500        -0.007866269537   0.0007449948786   0.2016845712      -0.2428210439     0.2016845712      -0.2428210439     -0.00730728086    -0.009575875438   
1740234750        -0.008134082161   0.0006135153839   0.199145185       -0.2449463681     0.199145185       -0.2449463681     -0.004934206712   -0.008330176008   
1760234000        -0.008188221989   0.000566056177    0.1967766599      -0.2469986957     0.1967766599      -0.2469986957     -0.004805498387   -0.007436870832   
1780233250        -0.008098119764   0.0004693711947   0.1941228456      -0.2489336436     0.1941228456      -0.2489336436     -0.005247776366   -0.008114881633   
1800232500        -0.00826215905    0.0004622759795   0.1915853731      -0.2509864844     0.1915853731      -0.2509864844     -0.006746514831   -0.006622566679   
1820231750        -0.008357146166   0.0003976052165   0.1890195621      -0.252876524      0.1890195621      -0.252876524      -0.005177635911   -0.00846431099    
1840231000        -0.008545312661   0.0003876437899   0.1864259544      -0.2546801192     0.1864259544      -0.2546801192     -0.005478389233   -0.008589864293   
1860230250        -0.008779824699   0.0004882369553   0.1838094755      -0.2566230045     0.1838094755      -0.2566230045     -0.005896439207   -0.007414338225   
1880229500        -0.009039869532   0.0003309432721   0.1812204857      -0.2584738387     0.1812204857      -0.2584738387     -0.005661930318   -0.00721115989    
1900228750        -0.009178008572   8.487761254e-05   0.1786049138      -0.2602815415     0.1786049138      -0.2602815415     -0.007594420485   -0.006714176136   
1920228000        -0.009129613672   -5.62126598e-05   0.1758437897      -0.2620198287     0.1758437897      -0.2620198287     -0.007360429438   -0.009851502475   
1940227250        -0.009087781087   -7.002682198e-05  0.1731634811      -0.2639069612     0.1731634811      -0.2639069612     -0.006576536258   -0.009034068109   
1960226500        -0.009365733084   -4.082962317e-05  0.170442223       -0.2655496119     0.170442223       -0.2655496119     -0.007588155691   -0.007722966464   
1980225750        -0.009442394876   -7.478046262e-06  0.1677277474      -0.2673181538     0.1677277474      -0.2673181538     -0.005788409547   -0.008358450965   
2000225000        -0.009677242207   -1.568715331e-05  0.1651169855      -0.2689329633     0.1651169855      -0.2689329633     -0.007149883049   -0.008170138885   
2020224250        -0.009822241504   -0.0001282290954  0.1623576571      -0.2706283165     0.1623576571      -0.2706283165     -0.007489067834   -0.01061177608    
2040223500        -0.01003868225    -0.0001127232668  0.1596105327      -0.2723177708     0.1596105327      -0.2723177708     -0.006577098367   -0.009669469094   
2060222750        -0.01015083432    -0.0001876680381  0.1568094481      -0.2739429164     0.1568094481      -0.2739429164     -0.00737668619    -0.009560592564   
2080222000        -0.01038790754    -7.853429153e-05  0.1540681142      -0.2754232922     0.1540681142      -0.2754232922     -0.007063158704   -0.008925620571   
2100221250        -0.01059721298    6.97493057e-05    0.1512069043      -0.2771991372     0.1512069043      -0.2771991372     -0.008117240813   -0.009462128964   
2120220500        -0.01078304149    -4.330531547e-05  0.1483427855      -0.2784970454     0.1483427855      -0.2784970454     -0.006781099972   -0.009245787614   
2140219750        -0.01107287431    -0.0001408133654  0.1454977295      -0.2799066805     0.1454977295      -0.2799066805     -0.005423123141   -0.009481354363   
2160219000        -0.01136245589    -0.0001010114996  0.1425874845      -0.2814961811     0.1425874845      -0.2814961811     -0.007393288928   -0.009008424758   
2180218250        -0.01166190819    -0.0002447307282  0.1397704459      -0.2829705217     0.1397704459      -0.2829705217     -0.00729929808    -0.009288374782   
2200217500        -0.0116674988     -0.0003204163306  0.1368280901      -0.2842614513     0.1368280901      -0.2842614513     -0.007143899413   -0.008823389444   
2220216750        -0.01185577123    -0.0001837141236  0.1339619611      -0.2857912095     0.1339619611      -0.2857912095     -0.007724801274   -0.008670847699   
2240216000        -0.01190572806    -0.000116291128   0.1310384464      -0.2870384597     0.1310384464      -0.2870384597     -0.008031370117   -0.008344821767   
2260215250        -0.01207227506    -1.798673342e-06  0.128007379       -0.2883336246     0.128007379       -0.2883336246     -0.008657552596   -0.0083687667     
2280214500        -0.01228554369    0.0001628401806   0.1250217333      -0.2895500028     0.1250217333      -0.2895500028     -0.009652804741   -0.006956835501   
2300213750        -0.01266107332    0.0001412514248   0.1223061324      -0.2909060871     0.1223061324      -0.2909060871     -0.008410550576   -0.01048179795    
2320213000        -0.01264772611    0.0003129388457   0.1192044121      -0.292110329      0.1192044121      -0.292110329      -0.008713408849   -0.008277643424   
2340212250        -0.01289668717    0.0005800177657   0.1165133643      -0.2932093161     0.1165133643      -0.2932093161     -0.008094039777   -0.009226220682   
2360211500        -0.013139874      0.0008259733022   0.1132088243      -0.2943797173     0.1132088243      -0.2943797173     -0.01040044939    -0.009041310204   
2380210750        -0.0134882324     0.0009760049652   0.1101949264      -0.295480687      0.1101949264      -0.295480687      -0.008851544722   -0.008476443063   
2400210000        -0.01377380377    0.001011467314    0.1072462767      -0.2966766537     0.1072462767      -0.2966766537     -0.0110828975     -0.008991297623   
