! RsaToolbox (C) 2015 Rohde & Schwarz America
! 
! Number of points: 401
! Number of ports: 2
! Balanced ports?: No
! 
! 
# Hz S RI R 50
300000            0.004570793465    0.0006875026051   0.7285705132      -0.0004166945871  0.7285705132      -0.0004166945871  0.0001510469839   -0.001982108334   
20299250          0.00389668595     -2.201400284e-05  0.7280200246      -0.008627525907   0.7280200246      -0.008627525907   -0.001035359725   0.0002703915939   
40298500          0.003819294967    -0.0001701218387  0.7275501359      -0.0167368599     0.7275501359      -0.0167368599     -0.001053379209   0.0009054889085   
60297750          0.00391277862     -0.0003128377945  0.726970466       -0.02453644654    0.726970466       -0.02453644654    -0.001076957402   0.0004102866143   
80297000          0.004154295163    -0.0004724816462  0.7264185021      -0.03221376149    0.7264185021      -0.03221376149    -0.0008679134394  -0.000464132507   
100296250         0.004349340352    -0.0004726338067  0.7258202626      -0.0400221562     0.7258202626      -0.0400221562     -0.0007969390197  -0.001309466291   
120295500         0.004590394552    -0.0004211508942  0.7251720927      -0.0477534266     0.7251720927      -0.0477534266     -0.0003413023101  -0.001769860856   
140294750         0.004675506138    -0.0004442127169  0.724451531       -0.05541501206    0.724451531       -0.05541501206    -0.0002149418795  -0.002424893167   
160294000         0.004782609671    -0.0004106681731  0.7237522039      -0.06325542424    0.7237522039      -0.06325542424    9.259448815e-05   -0.002640660365   
180293250         0.004746838472    -0.0003315995588  0.7228037207      -0.07091938589    0.7228037207      -0.07091938589    0.0008617790833   -0.002872639771   
200292500         0.004839595933    -0.0003679431244  0.7219377038      -0.07868094142    0.7219377038      -0.07868094142    0.0009123066616   -0.002756765885   
220291750         0.004867352101    -0.0004116115014  0.7209444964      -0.0862347402     0.7209444964      -0.0862347402     0.001152585231    -0.003047293852   
240291000         0.004934677073    -0.0005720278088  0.7199039741      -0.09397525044    0.7199039741      -0.09397525044    0.0012729248      -0.003204720731   
260290250         0.004966912492    -0.0006730352854  0.7187796458      -0.1016899264     0.7187796458      -0.1016899264     0.001524926879    -0.003527895156   
280289500         0.00504123333     -0.0006643541732  0.7175620266      -0.109361443      0.7175620266      -0.109361443      0.00196589969     -0.003547217042   
300288750         0.005233832947    -0.0008674130439  0.7162398226      -0.1169368498     0.7162398226      -0.1169368498     0.001927336894    -0.004101101078   
320288000         0.005338224431    -0.0008436113318  0.7148588631      -0.1246456439     0.7148588631      -0.1246456439     0.002330172056    -0.00434289345    
340287250         0.00540185413     -0.000905824315   0.7134579291      -0.1322861359     0.7134579291      -0.1322861359     0.00271941204     -0.004743247544   
360286500         0.005518218579    -0.0008662035754  0.7119225611      -0.1398072985     0.7119225611      -0.1398072985     0.003310426948    -0.004557354335   
380285750         0.005588326326    -0.0008923941031  0.7103321904      -0.1473702583     0.7103321904      -0.1473702583     0.004013693543    -0.004631679706   
400285000         0.005646558258    -0.0007736330651  0.7086593338      -0.1549610456     0.7086593338      -0.1549610456     0.004150510684    -0.004627155323   
420284250         0.005582331484    -0.0006933264882  0.7069504115      -0.1625043924     0.7069504115      -0.1625043924     0.004295929225    -0.00465376212    
440283500         0.005577015432    -0.0007119169191  0.7050806353      -0.1699660383     0.7050806353      -0.1699660383     0.004560788505    -0.004681793606   
460282750         0.005523153105    -0.0007083332179  0.7032673964      -0.1775490678     0.7032673964      -0.1775490678     0.004674176557    -0.005103959366   
480282000         0.00533750051     -0.0007761875001  0.701267973       -0.1849791525     0.701267973       -0.1849791525     0.004852629706    -0.00529327519    
500281250         0.005228545024    -0.0008464049     0.699159001       -0.192369723      0.699159001       -0.192369723      0.005401710574    -0.005337931567   
520280500         0.005199134937    -0.0009967192189  0.6970889516      -0.199786688      0.6970889516      -0.199786688      0.005853027105    -0.005632948147   
540279750         0.005105301636    -0.001093718746   0.6948181091      -0.2072272938     0.6948181091      -0.2072272938     0.00582608039     -0.005855175002   
560279000         0.005077501925    -0.001308145404   0.6926288827      -0.2146732887     0.6926288827      -0.2146732887     0.006545909643    -0.005785983092   
580278250         0.005142338703    -0.001403942567   0.6901884946      -0.2219848127     0.6901884946      -0.2219848127     0.00705090516     -0.005651018777   
600277500         0.005093588779    -0.00153940919    0.6877519624      -0.2293540653     0.6877519624      -0.2293540653     0.007559411838    -0.005678072522   
620276750         0.005092457584    -0.001643474891   0.6852763516      -0.2367120593     0.6852763516      -0.2367120593     0.007550833673    -0.005536358295   
640276000         0.005131046627    -0.001715075994   0.6826346414      -0.2439443521     0.6826346414      -0.2439443521     0.007456977034    -0.004951044318   
660275250         0.005053615686    -0.001770965237   0.6800073246      -0.2512615053     0.6800073246      -0.2512615053     0.007675455006    -0.005199739977   
680274500         0.005175753449    -0.001817737062   0.6771987041      -0.2584914407     0.6771987041      -0.2584914407     0.007401900856    -0.004937858883   
700273750         0.005161851792    -0.001800319001   0.6743962203      -0.265682642      0.6743962203      -0.265682642      0.007611846897    -0.004712278948   
720273000         0.005113878073    -0.00185386403    0.671500704       -0.272840737      0.671500704       -0.272840737      0.00815782687     -0.005194607193   
740272250         0.005053568669    -0.001860840024   0.6684836479      -0.2799685639     0.6684836479      -0.2799685639     0.008267641436    -0.005110865187   
760271500         0.004967581042    -0.001993339519   0.6654227107      -0.2870131148     0.6654227107      -0.2870131148     0.008615321936    -0.004835704798   
780270750         0.004955454513    -0.002082326192   0.6623069243      -0.2940280175     0.6623069243      -0.2940280175     0.00884718509     -0.004380117041   
800270000         0.004923837278    -0.002112969415   0.6590788593      -0.3010710427     0.6590788593      -0.3010710427     0.009146745588    -0.004319366108   
820269250         0.004860316064    -0.00231748764    0.6558362593      -0.3080275263     0.6558362593      -0.3080275263     0.00916014353     -0.003923694979   
840268500         0.004928581121    -0.002321346363   0.6525073069      -0.3149806504     0.6525073069      -0.3149806504     0.008982523932    -0.003827365348   
860267750         0.004907390151    -0.002367567486   0.6490968443      -0.3219409754     0.6490968443      -0.3219409754     0.008722058522    -0.003663999591   
880267000         0.004918202074    -0.002389271157   0.6456072344      -0.3288451881     0.6456072344      -0.3288451881     0.008688362593    -0.003701192242   
900266250         0.004822936546    -0.002363576734   0.6420750175      -0.3356799203     0.6420750175      -0.3356799203     0.008718903177    -0.003502231963   
920265500         0.004718773036    -0.002334222981   0.6384859305      -0.3424442814     0.6384859305      -0.3424442814     0.009149444255    -0.003578362409   
940264750         0.004650694481    -0.00244733831    0.6347791759      -0.349241694      0.6347791759      -0.349241694      0.009232900126    -0.003128078235   
960264000         0.004709954151    -0.002447631251   0.6310180166      -0.3559711248     0.6310180166      -0.3559711248     0.008875730497    -0.003029144215   
980263250         0.004537901875    -0.002282260136   0.6271235808      -0.3626407379     0.6271235808      -0.3626407379     0.009324602536    -0.002499325651   
1000262500        0.004425559238    -0.00232475446    0.6232348862      -0.3693915403     0.6232348862      -0.3693915403     0.008931040696    -0.002472585353   
1020261750        0.004237384207    -0.002307084513   0.6192443069      -0.3759871567     0.6192443069      -0.3759871567     0.008756004584    -0.002188834709   
1040261000        0.004001365034    -0.002398603404   0.6151490455      -0.3825608217     0.6151490455      -0.3825608217     0.008417846229    -0.001932025697   
1060260250        0.003834346348    -0.002527238848   0.6110132819      -0.3890867264     0.6110132819      -0.3890867264     0.00768173823     -0.001714266522   
1080259500        0.003808760498    -0.002773191564   0.6067897412      -0.3956230905     0.6067897412      -0.3956230905     0.00731202102     -0.001680531754   
1100258750        0.003718088638    -0.00265634265    0.6024978533      -0.4020881039     0.6024978533      -0.4020881039     0.007236825344    -0.001785372974   
1120258000        0.003646871294    -0.002840118695   0.5980829872      -0.4084544901     0.5980829872      -0.4084544901     0.006729641989    -0.001820120762   
1140257250        0.003673442597    -0.002891026481   0.5936589272      -0.414899915      0.5936589272      -0.414899915      0.006981869822    -0.002013127897   
1160256500        0.003514759029    -0.003110806803   0.5892243347      -0.4211404722     0.5892243347      -0.4211404722     0.006995234488    -0.002062839949   
1180255750        0.003541569799    -0.003201883974   0.5846666618      -0.4272992962     0.5846666618      -0.4272992962     0.006527348461    -0.001616731076   
1200255000        0.003574533891    -0.003110498884   0.5801381701      -0.4333899985     0.5801381701      -0.4333899985     0.006608304349    -0.001166321408   
1220254250        0.003541474055    -0.003077075257   0.5754511133      -0.4395555256     0.5754511133      -0.4395555256     0.006163614338    -0.001032648298   
1240253500        0.003585220252    -0.003188481963   0.5706451839      -0.4456403264     0.5706451839      -0.4456403264     0.005605268213    -0.0009241185709  
1260252750        0.003561311197    -0.003033052295   0.5659217786      -0.4516842734     0.5659217786      -0.4516842734     0.005283093968    -0.0005978383036  
1280252000        0.003371096927    -0.002918592023   0.5610282193      -0.4576992228     0.5610282193      -0.4576992228     0.004580755047    -0.0007476842958  
1300251250        0.003358231178    -0.002948851155   0.556104091       -0.4636584925     0.556104091       -0.4636584925     0.004338612715    -0.0007260853301  
1320250500        0.003175938603    -0.002972515529   0.5511211323      -0.4695530962     0.5511211323      -0.4695530962     0.003528960774    -0.001316893633   
1340249750        0.003024800172    -0.002938797395   0.5460565515      -0.4754760299     0.5460565515      -0.4754760299     0.003690238614    -0.001343532771   
1360249000        0.002800334282    -0.002936298654   0.5409940292      -0.4812277698     0.5409940292      -0.4812277698     0.003367266215    -0.001620511886   
1380248250        0.002754522698    -0.002954924778   0.5358999384      -0.4869640239     0.5358999384      -0.4869640239     0.002969354002    -0.001299458352   
1400247500        0.0026604699      -0.002908255339   0.530606872       -0.4927013301     0.530606872       -0.4927013301     0.003170583241    -0.001544246234   
1420246750        0.002416133196    -0.002938066591   0.5253158176      -0.4982741589     0.5253158176      -0.4982741589     0.002528342437    -0.001917623804   
1440246000        0.002313670326    -0.003058623636   0.5199243783      -0.5038466795     0.5199243783      -0.5038466795     0.002159013347    -0.001967313187   
1460245250        0.002109302265    -0.003033738298   0.5145336205      -0.5093061924     0.5145336205      -0.5093061924     0.001306550825    -0.001959929408   
1480244500        0.001864556497    -0.003020013898   0.5090299688      -0.5147589509     0.5090299688      -0.5147589509     0.0004192833361   -0.002608811179   
1500243750        0.001759988411    -0.003017857925   0.5034553899      -0.520218012      0.5034553899      -0.520218012      7.811382451e-05   -0.003285942686   
1520243000        0.001647111531    -0.003041227236   0.4978521978      -0.5255110874     0.4978521978      -0.5255110874     -0.0004838819666  -0.00322790642    
1540242250        0.001514619296    -0.003002666398   0.4922528969      -0.5308491573     0.4922528969      -0.5308491573     -0.0007762761507  -0.003560935722   
1560241500        0.00130872917     -0.00295418125    0.4865363103      -0.536119848      0.4865363103      -0.536119848      -0.001224966056   -0.004282543677   
1580240750        0.001063152755    -0.003011546405   0.480796974       -0.5412423687     0.480796974       -0.5412423687     -0.0016867123     -0.004457963305   
1600240000        0.0007661854695   -0.003119887487   0.4750061376      -0.5463482755     0.4750061376      -0.5463482755     -0.001720611151   -0.004731977967   
1620239250        0.0007077995376   -0.003182685446   0.4691621586      -0.5513445057     0.4691621586      -0.5513445057     -0.002289773631   -0.004772142742   
1640238500        0.0005386014382   -0.003305081363   0.4632497416      -0.5562573486     0.4632497416      -0.5562573486     -0.002501439686   -0.005062692332   
1660237750        0.0004289115907   -0.003301806897   0.4571550172      -0.5611597464     0.4571550172      -0.5611597464     -0.002607254072   -0.005581115862   
1680237000        0.0005158386259   -0.00333941934    0.4511951073      -0.5660006326     0.4511951073      -0.5660006326     -0.003173094771   -0.005850657914   
1700236250        0.0004801953082   -0.003115513615   0.4451043845      -0.5706540247     0.4451043845      -0.5706540247     -0.00337748645    -0.006930697012   
1720235500        0.0004214035865   -0.003167997668   0.4390135137      -0.5754184317     0.4390135137      -0.5754184317     -0.003846778713   -0.007306449652   
1740234750        0.0003122013212   -0.003060960376   0.4328332475      -0.5800159197     0.4328332475      -0.5800159197     -0.004273839858   -0.008023460833   
1760234000        0.0002033158206   -0.002884826084   0.4265812118      -0.5846229321     0.4265812118      -0.5846229321     -0.004249330903   -0.008149587618   
1780233250        4.922351745e-05   -0.002769741364   0.4202972345      -0.589107122      0.4202972345      -0.589107122      -0.004225141051   -0.009010883438   
1800232500        -0.0001482937952  -0.002553372914   0.4140159297      -0.5935157142     0.4140159297      -0.5935157142     -0.004674367145   -0.009113389734   
1820231750        -0.0004429073364  -0.00241610644    0.4076877577      -0.5978541657     0.4076877577      -0.5978541657     -0.005018964806   -0.009477120306   
1840231000        -0.0007022937327  -0.002222048107   0.4013195099      -0.6020896182     0.4013195099      -0.6020896182     -0.005057783145   -0.01009244274    
1860230250        -0.0009642876279  -0.002195215973   0.3948350744      -0.6063152635     0.3948350744      -0.6063152635     -0.005666703705   -0.01092357134    
1880229500        -0.001435574917   -0.002017727406   0.3883409791      -0.6104557883     0.3883409791      -0.6104557883     -0.005781099507   -0.01110299449    
1900228750        -0.001672017389   -0.002214172155   0.3817527726      -0.6145887803     0.3817527726      -0.6145887803     -0.006038202215   -0.01201596358    
1920228000        -0.001800275126   -0.002165454789   0.3752689531      -0.6186115866     0.3752689531      -0.6186115866     -0.00607945129    -0.01214958662    
1940227250        -0.001985780549   -0.002120053599   0.3685245017      -0.6226281488     0.3685245017      -0.6226281488     -0.006067532106   -0.01295287575    
1960226500        -0.002164405452   -0.002044323016   0.3618820782      -0.6264620079     0.3618820782      -0.6264620079     -0.006030639432   -0.01367865678    
1980225750        -0.002217930742   -0.002004162045   0.3552110318      -0.6302992104     0.3552110318      -0.6302992104     -0.00599890731    -0.01418920582    
2000225000        -0.002417087923   -0.001991111598   0.3483704699      -0.6340228889     0.3483704699      -0.6340228889     -0.005596430176   -0.01482114712    
2020224250        -0.002513072859   -0.001733915514   0.3415721655      -0.6376804279     0.3415721655      -0.6376804279     -0.005599151597   -0.01553639695    
2040223500        -0.002693857072   -0.001600170712   0.3347326815      -0.6412514134     0.3347326815      -0.6412514134     -0.005654402715   -0.01560296702    
2060222750        -0.002821546852   -0.001442554517   0.3279463732      -0.6447930257     0.3279463732      -0.6447930257     -0.005789991781   -0.01593782437    
2080222000        -0.003061217686   -0.001201813542   0.3210856047      -0.648291014      0.3210856047      -0.648291014      -0.005896751144   -0.01642123813    
2100221250        -0.003133088879   -0.0010626106     0.3140981198      -0.651505885      0.3140981198      -0.651505885      -0.005488649081   -0.01689852266    
2120220500        -0.003387837369   -0.0009591382763  0.3070822228      -0.6548568392     0.3070822228      -0.6548568392     -0.005257502257   -0.01747676773    
2140219750        -0.003634786149   -0.0007394923946  0.3001534129      -0.6581098897     0.3001534129      -0.6581098897     -0.005538801347   -0.01797108465    
2160219000        -0.003834535679   -0.000600106338   0.2930640997      -0.6613012201     0.2930640997      -0.6613012201     -0.005140392674   -0.01846328442    
2180218250        -0.003940001137   -0.0005607331002  0.2860048373      -0.6643358519     0.2860048373      -0.6643358519     -0.005009257047   -0.01856053655    
2200217500        -0.003988994572   -0.0005260615465  0.2789532081      -0.6673208359     0.2789532081      -0.6673208359     -0.004546996789   -0.01875914917    
2220216750        -0.004056477405   -0.0003128419945  0.2718310365      -0.6702966372     0.2718310365      -0.6702966372     -0.004846136417   -0.01891366372    
2240216000        -0.004024875958   -9.215472128e-05  0.2646560748      -0.6730473397     0.2646560748      -0.6730473397     -0.004674823136   -0.01921530656    
2260215250        -0.00406623858    6.452060869e-05   0.2574517936      -0.6758915254     0.2574517936      -0.6758915254     -0.004861762275   -0.01964245719    
2280214500        -0.004206392394   0.0002366933294   0.2502588574      -0.6785061171     0.2502588574      -0.6785061171     -0.00441174973    -0.02053965014    
2300213750        -0.004155308948   0.0004166596561   0.2429738441      -0.6811358956     0.2429738441      -0.6811358956     -0.004689246952   -0.02040058255    
2320213000        -0.004291713473   0.0007711427533   0.2357761375      -0.6836197771     0.2357761375      -0.6836197771     -0.004141791456   -0.02088716226    
2340212250        -0.00415342983    0.0009325532051   0.2283631296      -0.6861526885     0.2283631296      -0.6861526885     -0.003674807805   -0.02083714937    
2360211500        -0.004397868808   0.001223318919    0.2210320508      -0.6884982899     0.2210320508      -0.6884982899     -0.003113921284   -0.02071768445    
2380210750        -0.004381435574   0.001540092656    0.2136883694      -0.6908821013     0.2136883694      -0.6908821013     -0.003300762406   -0.02116691037    
2400210000        -0.004493998689   0.001631398172    0.2063602101      -0.6930284663     0.2063602101      -0.6930284663     -0.002791555315   -0.02098575998    
