#  HZ   S   DB   R     50.00 
! Rohde & Schwarz Vector Network Analyzer 
! Rohde-Schwarz,ZNB8-4Port,1311601044101761,1.95
! Created: UTC 2/19/2014, 9:16:25 AM
! freq[Hz]                db:S11                  ang:S11                 db:S21                  ang:S21                 db:S12                  ang:S12                 db:S22                  ang:S22
 3.000000000000000E5    -4.850605288177131E1     3.006914629653894E1    -9.969907690696642      -2.003681346508581E-1   -9.972315395303564      -1.949246082509385E-1   -5.725257801898379E1     2.707417834725455E1
 2.029925000000000E7    -5.306375927562751E1    -1.942027803284625E1    -1.001429642238086E1    -9.218097442882227E-1   -1.001918479670299E1    -9.127413739260725E-1   -6.048258718601861E1     2.900521065985392E1
 4.029850000000000E7    -5.590321702752976E1    -3.805118784093746E1    -1.000510998916037E1    -1.705877080333621      -1.002494119554468E1    -1.704486831893606      -6.152785234410998E1     4.806877350149500
 6.029775000000000E7    -5.838284802237795E1    -5.650185856690246E1    -1.000976068399510E1    -2.630672802788831      -1.002664414648176E1    -2.642586187314238      -5.871370234042411E1    -1.465107238330891E1
 8.029700000000000E7    -5.995847618568075E1    -6.410176537182666E1    -1.001551288294501E1    -3.522257291822255      -1.003514965814232E1    -3.562973914960181      -5.748531555889063E1    -2.219220884995023E1
 1.002962500000000E8    -6.059538873839614E1    -7.532936831843738E1    -1.001954368824858E1    -4.426871267021931      -1.003836838604294E1    -4.447176009060066      -5.669043125812138E1    -3.023073033180224E1
 1.202955000000000E8    -6.010470544198889E1    -8.421047810035928E1    -1.001967029674594E1    -5.342769661390495      -1.003800085846296E1    -5.311743268818943      -5.718499227567386E1    -4.232712905622925E1
 1.402947500000000E8    -5.967157268713594E1    -9.874725926068049E1    -1.001657120986601E1    -6.174025399605518      -1.003686892669230E1    -6.171732198440012      -5.750883058362702E1    -5.703048360227032E1
 1.602940000000000E8    -5.889450438950249E1    -1.054349125561388E2    -1.001795462086952E1    -7.070788779556655      -1.003965844108808E1    -7.080158411792633      -5.718527070659714E1    -7.532310765574673E1
 1.802932500000000E8    -5.870617475115381E1    -1.101557652097120E2    -1.001611517373955E1    -7.952414750363329      -1.003822047799112E1    -7.937999948897555      -5.704477971721302E1    -8.014623938529905E1
 2.002925000000000E8    -5.834702852385992E1    -1.039528822654839E2    -1.001754098605949E1    -8.877229988479432      -1.004342366317397E1    -8.904161867152492      -5.553766975969356E1    -9.055402571304306E1
 2.202917500000000E8    -5.769379463768600E1    -1.074280720954049E2    -1.001911527986364E1    -9.802059891297180      -1.004056509462594E1    -9.802307833824811      -5.423518814630319E1    -9.990327438068233E1
 2.402910000000000E8    -5.672053707266068E1    -1.100905617113556E2    -1.002084791331182E1    -1.074676773079602E1    -1.003934157226016E1    -1.059247608801608E1    -5.298863799714123E1    -1.095108600351979E2
 2.602902500000000E8    -5.634147464441683E1    -1.154787975666772E2    -1.001793927080390E1    -1.159225132419572E1    -1.003869598255461E1    -1.156201497791517E1    -5.167634599670301E1    -1.145388826349877E2
 2.802895000000000E8    -5.594659525067982E1    -1.202784590904788E2    -1.001739322322260E1    -1.248606802242494E1    -1.004072206068908E1    -1.245014468949118E1    -5.062740306519264E1    -1.130405179284124E2
 3.002887500000000E8    -5.525387261696830E1    -1.224786672537045E2    -1.001734718348534E1    -1.337058538588846E1    -1.004045283819269E1    -1.334236797249889E1    -5.004133288247630E1    -1.144806240236829E2
 3.202880000000000E8    -5.481938174231598E1    -1.236798606826500E2    -1.001859727042300E1    -1.428450052009226E1    -1.004091277960169E1    -1.424510995590909E1    -4.957798566745652E1    -1.172510902108792E2
 3.402872500000000E8    -5.354902433122925E1    -1.254853011173205E2    -1.001825224995796E1    -1.518671581582952E1    -1.004157434887235E1    -1.514156626379544E1    -4.914839579196304E1    -1.201519681539520E2
 3.602865000000000E8    -5.264267361943765E1    -1.262619765498161E2    -1.001966674586794E1    -1.608891610600625E1    -1.004240253265240E1    -1.603938283016372E1    -4.861841571046742E1    -1.231275261842302E2
 3.802857500000000E8    -5.128252219618922E1    -1.255361250758603E2    -1.002054262230660E1    -1.697430731570854E1    -1.004227807583824E1    -1.691429430566835E1    -4.846807121897528E1    -1.268342374086716E2
 4.002850000000000E8    -5.093162782447853E1    -1.258297486257837E2    -1.002047247147054E1    -1.788035606393702E1    -1.004409297073183E1    -1.780268386655203E1    -4.807607699298763E1    -1.324721435155196E2
 4.202842500000000E8    -5.071471367188549E1    -1.225661257970702E2    -1.002200122170786E1    -1.874256366853208E1    -1.004345800975951E1    -1.869347580475801E1    -4.801217853400015E1    -1.370652268669964E2
 4.402835000000000E8    -5.015139886535771E1    -1.192788830309900E2    -1.002318808914327E1    -1.963096313705986E1    -1.004427831640566E1    -1.957490242114786E1    -4.785412392602608E1    -1.387515955306437E2
 4.602827500000000E8    -4.987674684287052E1    -1.158122648663969E2    -1.002080409402011E1    -2.054009763088346E1    -1.004326124490849E1    -2.047409313595451E1    -4.738010249996354E1    -1.405664020322954E2
 4.802820000000000E8    -4.952742580189342E1    -1.131920068033904E2    -1.002231581147657E1    -2.144586883874725E1    -1.004462041674100E1    -2.136529960749760E1    -4.693198498162264E1    -1.439183748541894E2
 5.002812500000000E8    -4.928957939256780E1    -1.130920744658557E2    -1.002180492719770E1    -2.237487303058660E1    -1.004506749779346E1    -2.224424412771661E1    -4.621472686039633E1    -1.470135598731185E2
 5.202805000000000E8    -4.931158814450588E1    -1.117490310749642E2    -1.002526893198523E1    -2.323248782186987E1    -1.004613465751041E1    -2.319114702460631E1    -4.557366698782028E1    -1.479124697850708E2
 5.402797500000000E8    -4.909604538987828E1    -1.110314188719061E2    -1.002638433503651E1    -2.413020012699361E1    -1.005092497145639E1    -2.407494184396518E1    -4.515132752312917E1    -1.479015928763290E2
 5.602790000000000E8    -4.879025017876338E1    -1.127883006856361E2    -1.002564457130655E1    -2.502917416440972E1    -1.004902278572838E1    -2.495394999918614E1    -4.476955330882470E1    -1.491724545602148E2
 5.802782500000000E8    -4.896769373507617E1    -1.117513907146363E2    -1.002824158119412E1    -2.590792867183562E1    -1.005088410581163E1    -2.584161757798615E1    -4.454638724776993E1    -1.497966555234914E2
 6.002775000000000E8    -4.899635518103229E1    -1.145928635211291E2    -1.002935368520639E1    -2.679619491141688E1    -1.005162513445226E1    -2.672782230472089E1    -4.437734630807641E1    -1.518231252761761E2
 6.202767500000000E8    -4.869660840255759E1    -1.164668657606655E2    -1.002956790560667E1    -2.768613993675562E1    -1.005204235085090E1    -2.763011912382199E1    -4.420768552770802E1    -1.528667910167840E2
 6.402760000000000E8    -4.822297909607410E1    -1.179466934552689E2    -1.003018439756473E1    -2.857962882621884E1    -1.005189182314547E1    -2.850765433957351E1    -4.389661634415371E1    -1.538211869430178E2
 6.602752500000000E8    -4.774636050084878E1    -1.189775541400261E2    -1.003184862990800E1    -2.947573563407859E1    -1.005177914335456E1    -2.938607205709990E1    -4.381599630805815E1    -1.535913336227591E2
 6.802745000000000E8    -4.745884436115000E1    -1.179827470960671E2    -1.003012046264072E1    -3.037967994822229E1    -1.005337563545121E1    -3.026160075178039E1    -4.386557811767048E1    -1.557600282295096E2
 7.002737500000000E8    -4.718699621137649E1    -1.187995707459345E2    -1.003058917904130E1    -3.127161455648615E1    -1.005365625446711E1    -3.112139989643681E1    -4.388402692502720E1    -1.570429800403083E2
 7.202730000000000E8    -4.697486125595561E1    -1.185417039576418E2    -1.002866621088814E1    -3.214294128596799E1    -1.005210360324194E1    -3.200577240514190E1    -4.379672652817077E1    -1.590485633313226E2
 7.402722500000000E8    -4.679391030483220E1    -1.194361251674381E2    -1.002790550113791E1    -3.302608281810256E1    -1.005409177359649E1    -3.290294348411165E1    -4.361028028337686E1    -1.618947140443679E2
 7.602715000000000E8    -4.652742738003749E1    -1.211754567423541E2    -1.002859107772603E1    -3.390525830977994E1    -1.005344747525711E1    -3.382806976991081E1    -4.353395711027898E1    -1.649786427798423E2
 7.802707500000000E8    -4.624177042813788E1    -1.218803273967567E2    -1.002910528881377E1    -3.481934171016472E1    -1.005454339938700E1    -3.470350574228480E1    -4.319348098499567E1    -1.665792118942925E2
 8.002700000000000E8    -4.592893187412465E1    -1.226645477666110E2    -1.002808918542002E1    -3.577040616769903E1    -1.005171876929853E1    -3.557569476150466E1    -4.296881375362070E1    -1.681027098741773E2
 8.202692500000000E8    -4.540385220814365E1    -1.231899127645909E2    -1.002998844762937E1    -3.663999431036755E1    -1.005274349799166E1    -3.651989944566241E1    -4.278027609012583E1    -1.689929807572666E2
 8.402685000000000E8    -4.511820760641466E1    -1.231605959271151E2    -1.002838223163393E1    -3.752598812977093E1    -1.005296969664194E1    -3.742716126670135E1    -4.257605452734364E1    -1.697274687763525E2
 8.602677500000000E8    -4.471791858217475E1    -1.233473562675624E2    -1.002996099160140E1    -3.843365221851695E1    -1.005206488949891E1    -3.830293877697615E1    -4.240202840002547E1    -1.718156551651356E2
 8.802670000000000E8    -4.447786857106694E1    -1.229446763127639E2    -1.003048840455082E1    -3.931495849651633E1    -1.005308044333031E1    -3.918671643221367E1    -4.220164781479441E1    -1.722199690058637E2
 9.002662500000000E8    -4.420693392625549E1    -1.236266057924704E2    -1.003134670420396E1    -4.020742238059192E1    -1.005436047093639E1    -4.008703113781671E1    -4.204868871223447E1    -1.730817909409692E2
 9.202655000000000E8    -4.388638423264520E1    -1.244495863431681E2    -1.003116690398606E1    -4.106085955276624E1    -1.005531147227244E1    -4.100299563512481E1    -4.198643967733096E1    -1.723193936629498E2
 9.402647500000000E8    -4.364305410588081E1    -1.229727217336028E2    -1.003317969070637E1    -4.196164484653642E1    -1.005602988096527E1    -4.188955857826791E1    -4.201060293267798E1    -1.730746960359576E2
 9.602640000000000E8    -4.350408304289328E1    -1.224395500383786E2    -1.003460235363531E1    -4.287427237866992E1    -1.005979085157936E1    -4.276808059880137E1    -4.215214410037319E1    -1.749850835621023E2
 9.802632500000000E8    -4.361264032959202E1    -1.217046410335419E2    -1.003707600484340E1    -4.376520716483615E1    -1.005898548520144E1    -4.367089855596035E1    -4.226790981449224E1    -1.761905411307728E2
 1.000262500000000E9    -4.359232838072732E1    -1.219287892842014E2    -1.003769415096548E1    -4.466543343669527E1    -1.006117430324870E1    -4.456203794580303E1    -4.232765575795238E1    -1.791196368923704E2
 1.020261750000000E9    -4.358579391247553E1    -1.226774763262759E2    -1.004012878098988E1    -4.555183851252916E1    -1.006204789193642E1    -4.545283254455816E1    -4.195398254841148E1     1.786703275437935E2
 1.040261000000000E9    -4.345327591395349E1    -1.250107179774943E2    -1.004040599302184E1    -4.641786555094387E1    -1.006320391118194E1    -4.634623094391557E1    -4.169314418074872E1     1.773941893304896E2
 1.060260250000000E9    -4.343198924338567E1    -1.270307189406869E2    -1.004316681432361E1    -4.732411329869494E1    -1.006376973856171E1    -4.725180630689801E1    -4.143564370440468E1     1.771086370463036E2
 1.080259500000000E9    -4.308697902421550E1    -1.278482452550349E2    -1.004006493079377E1    -4.821645685013385E1    -1.006496814180506E1    -4.809453972525809E1    -4.134645426143473E1     1.765553377575329E2
 1.100258750000000E9    -4.299336702801792E1    -1.289100301098781E2    -1.003984226698125E1    -4.906940799190329E1    -1.006246452932702E1    -4.900338663572740E1    -4.124991563213159E1     1.775725111691238E2
 1.120258000000000E9    -4.274304058334995E1    -1.295854490301353E2    -1.003577524170049E1    -4.998335688900615E1    -1.006156910034823E1    -4.984316430698270E1    -4.111289768407375E1     1.769742570786187E2
 1.140257250000000E9    -4.255561876392542E1    -1.303982763498166E2    -1.003651778918421E1    -5.092405375116984E1    -1.005956071200471E1    -5.071245164374887E1    -4.107191784838358E1     1.767801839594702E2
 1.160256500000000E9    -4.219081002683513E1    -1.324843638560283E2    -1.003515522145989E1    -5.183919451071645E1    -1.006185004210368E1    -5.159630813531606E1    -4.102925262822052E1     1.771749645097329E2
 1.180255750000000E9    -4.206486221689480E1    -1.330804123767577E2    -1.003505072433741E1    -5.271264796735710E1    -1.006177206839334E1    -5.250488917084454E1    -4.087059081343652E1     1.770834667157178E2
 1.200255000000000E9    -4.191766488310604E1    -1.337760116330882E2    -1.003485422595157E1    -5.364197468954122E1    -1.006262266061912E1    -5.340739201648214E1    -4.082246530925624E1     1.773569226621259E2
 1.220254250000000E9    -4.189082908546749E1    -1.350817651198306E2    -1.003507923608105E1    -5.453824138795911E1    -1.006292982281703E1    -5.431274971149360E1    -4.098486299367569E1     1.780526760670097E2
 1.240253500000000E9    -4.180318601330753E1    -1.344194413760116E2    -1.003786557588621E1    -5.543631538098414E1    -1.006394592325124E1    -5.518046160041764E1    -4.109416445436948E1     1.794312071804075E2
 1.260252750000000E9    -4.171128070915258E1    -1.352793451548790E2    -1.003851299150730E1    -5.633115505374003E1    -1.006312324819794E1    -5.607139304707729E1    -4.137156323053581E1     1.788950643016434E2
 1.280252000000000E9    -4.169210995394760E1    -1.367596962608718E2    -1.003872168402565E1    -5.720587136469941E1    -1.006366160873120E1    -5.694550490840849E1    -4.163464486969196E1     1.785567939448826E2
 1.300251250000000E9    -4.149666163981227E1    -1.373173481199077E2    -1.003994159655717E1    -5.807650476608990E1    -1.006424916463816E1    -5.785982562159441E1    -4.175716902970677E1     1.766966191953313E2
 1.320250500000000E9    -4.131690635233988E1    -1.378831617930780E2    -1.004075795065511E1    -5.894582756270906E1    -1.006418709014517E1    -5.875522085742028E1    -4.179707570079700E1     1.751799381073477E2
 1.340249750000000E9    -4.116151324843358E1    -1.399482737784302E2    -1.004213163435600E1    -5.985522644844597E1    -1.006689324672812E1    -5.965481273127607E1    -4.177084761735701E1     1.743033442683041E2
 1.360249000000000E9    -4.101751133368146E1    -1.403002880780705E2    -1.004096799065149E1    -6.075391390365388E1    -1.006594890819149E1    -6.055787588598221E1    -4.179663003302074E1     1.735988142958148E2
 1.380248250000000E9    -4.097987081687749E1    -1.407451208731632E2    -1.004281458527697E1    -6.166492777599699E1    -1.006685664231817E1    -6.143296061646549E1    -4.161769509463137E1     1.722612606274852E2
 1.400247500000000E9    -4.090090294115822E1    -1.415602263633130E2    -1.004270332311226E1    -6.254159315104443E1    -1.006737696805572E1    -6.231559444801541E1    -4.153410252207510E1     1.720435777506816E2
 1.420246750000000E9    -4.076195845319052E1    -1.425465565208884E2    -1.004486177391813E1    -6.345987515697794E1    -1.006790031059086E1    -6.316358029210910E1    -4.135197372323802E1     1.710633353898014E2
 1.440246000000000E9    -4.066012008677309E1    -1.434274150436361E2    -1.004585355056563E1    -6.438348223102446E1    -1.007036172999126E1    -6.403138384639068E1    -4.110064398011151E1     1.714328309471732E2
 1.460245250000000E9    -4.051852709675229E1    -1.451934641449573E2    -1.004774506652796E1    -6.529209159485052E1    -1.007208382387615E1    -6.490929045907330E1    -4.099649652519145E1     1.722468271807377E2
 1.480244500000000E9    -4.037625488888147E1    -1.463904713092304E2    -1.004761444668568E1    -6.615745383927326E1    -1.007295999939092E1    -6.579631637627765E1    -4.091511500224363E1     1.741590718816068E2
 1.500243750000000E9    -4.036782945658040E1    -1.481495977009121E2    -1.004555413733236E1    -6.698926468277941E1    -1.007013983902936E1    -6.670129938299056E1    -4.093654281507456E1     1.765827369926975E2
 1.520243000000000E9    -4.023074998590246E1    -1.491297938289826E2    -1.004710415704998E1    -6.786442699943891E1    -1.007049897874758E1    -6.760361072975533E1    -4.109255867095159E1     1.774816620954990E2
 1.540242250000000E9    -4.013779432992923E1    -1.504313754247534E2    -1.004836317970141E1    -6.874858521442889E1    -1.007114627298867E1    -6.848034611974128E1    -4.147465738753725E1     1.781751495664019E2
 1.560241500000000E9    -4.002458162123742E1    -1.515572502116702E2    -1.004848852547136E1    -6.965230761366121E1    -1.006937565572909E1    -6.937823558650432E1    -4.174435526433111E1     1.780819317182373E2
 1.580240750000000E9    -3.972630746817629E1    -1.528597782335367E2    -1.005117948044282E1    -7.054325021632272E1    -1.007045265598598E1    -7.026252784615109E1    -4.183619102592299E1     1.766911887324754E2
 1.600240000000000E9    -3.950424727021057E1    -1.535288815118086E2    -1.005181931745042E1    -7.143903198084932E1    -1.007186189845750E1    -7.116821339207642E1    -4.177384046658627E1     1.760244179289055E2
 1.620239250000000E9    -3.929029373122496E1    -1.543187214248414E2    -1.005089165046220E1    -7.233900065561497E1    -1.007076398641394E1    -7.206210268637641E1    -4.172556771629779E1     1.750847539675428E2
 1.640238500000000E9    -3.911914623803976E1    -1.542158236459867E2    -1.005263610204406E1    -7.322307545072208E1    -1.007049123136326E1    -7.296158336438096E1    -4.161700463799775E1     1.737367108159947E2
 1.660237750000000E9    -3.902990100717378E1    -1.548155057960264E2    -1.005291560695918E1    -7.412067655025992E1    -1.007059136067881E1    -7.385880881205227E1    -4.134610789077375E1     1.727423886662647E2
 1.680237000000000E9    -3.894620835207901E1    -1.543005988146234E2    -1.005031736103978E1    -7.500821983823678E1    -1.007019203813250E1    -7.474646933010634E1    -4.123488987895730E1     1.725011717196917E2
 1.700236250000000E9    -3.893872514148566E1    -1.552812014207539E2    -1.004963811961411E1    -7.590572210064869E1    -1.006948752362652E1    -7.563706091577970E1    -4.097167021591141E1     1.717713858761738E2
 1.720235500000000E9    -3.888779256726689E1    -1.550911991138611E2    -1.004887510728553E1    -7.680057563253349E1    -1.006738477403433E1    -7.652517594086396E1    -4.061180645443063E1     1.726569551058311E2
 1.740234750000000E9    -3.888328434037109E1    -1.560376872840367E2    -1.004999165411966E1    -7.769171127013118E1    -1.006910080637397E1    -7.740207920365809E1    -4.029678953781117E1     1.748305524031638E2
 1.760234000000000E9    -3.893720514386071E1    -1.569630976247385E2    -1.004946633748402E1    -7.857555198227566E1    -1.006928031113677E1    -7.828635236010314E1    -4.020339566378414E1     1.762780384341369E2
 1.780233250000000E9    -3.901777559516452E1    -1.577156574023481E2    -1.004970303055221E1    -7.948218469028576E1    -1.006840085082635E1    -7.917354058810405E1    -4.020186304481694E1     1.789144152359114E2
 1.800232500000000E9    -3.913574324912926E1    -1.597305707186970E2    -1.004926918083639E1    -8.037873048755216E1    -1.006738461858453E1    -8.007375288737748E1    -4.015477269769719E1    -1.799675234788831E2
