#  HZ   S   DB   R     50.00 
! Rohde & Schwarz Vector Network Analyzer 
! Rohde-Schwarz,ZNB8-4Port,1311601044101761,1.95
! Created: UTC 2/19/2014, 9:15:01 AM
! freq[Hz]                db:S11                  ang:S11                 db:S21                  ang:S21                 db:S12                  ang:S12                 db:S22                  ang:S22
 3.000000000000000E5    -4.383005626360782E1     3.814538897365129E1    -2.761366889098032      -2.029023764241318E-1   -2.763794054887540      -2.027221143902209E-1   -4.298632033634395E1     2.189714297348982E1
 2.029925000000000E7    -4.494621828395096E1    -1.230990305395488E1    -2.807037627756517      -9.652250719226126E-1   -2.809101018437519      -9.371469869947835E-1   -4.122272418825126E1     7.329995509924203
 4.029850000000000E7    -4.627839724915500E1    -2.252180431976770E1    -2.799638904103058      -1.805872183243210      -2.816682642711189      -1.796919402767760      -4.072215413582523E1     2.491316414200986
 6.029775000000000E7    -4.676878497047036E1    -1.873047723300337E1    -2.805614184213811      -2.744871133342425      -2.820253527347607      -2.758528342669352      -4.000687249279959E1     6.748370366561446E-4
 8.029700000000000E7    -4.671072143310269E1    -1.192152377989213E1    -2.811874748762281      -3.674052268379655      -2.829199661604401      -3.697615420272413      -3.947427493412725E1     1.326021882185855E-2
 1.002962500000000E8    -4.675681995434309E1    -8.896405855073448      -2.815322911001756      -4.594159514029324      -2.830837243863810      -4.617583201338352      -3.926509988061659E1    -4.674998086002969E-3
 1.202955000000000E8    -4.651849069383643E1    -7.926095934198449      -2.816705782356768      -5.541036450189383      -2.832298862740683      -5.514337806633533      -3.938526883444060E1    -8.192264932361829E-1
 1.402947500000000E8    -4.696281676076282E1    -9.844531190940204      -2.814824221736425      -6.403597850310741      -2.831818799371202      -6.405892628004899      -3.961763677774205E1    -1.032589470334548
 1.602940000000000E8    -4.704397628824231E1    -7.602593939442171      -2.816219646096642      -7.327364990689772      -2.833657010551203      -7.330190875855006      -3.994304174808293E1    -2.041135351197054
 1.802932500000000E8    -4.699019463146297E1    -1.036261895454375E1    -2.813917794204939      -8.232503972954461      -2.834351539623685      -8.226374627903365      -3.977808400587090E1    -2.117954923760040
 2.002925000000000E8    -4.667825658129027E1    -1.210060558502471E1    -2.815487696123662      -9.183035858492595      -2.837944151183596      -9.210691581016034      -3.998317277904268E1    -4.163576596848592
 2.202917500000000E8    -4.654730894944503E1    -1.462005332212851E1    -2.817493331430562      -1.013390542863324E1    -2.835352002579269      -1.012164143559295E1    -4.010417962983034E1    -5.702104705764962
 2.402910000000000E8    -4.669380266388348E1    -1.883172477850550E1    -2.819873697547415      -1.109672796469287E1    -2.835225542882137      -1.096529021516568E1    -4.043705663252673E1    -8.944161441120368
 2.602902500000000E8    -4.683561172845621E1    -2.244447684991985E1    -2.818011073322793      -1.197580783321542E1    -2.834736157985706      -1.195677191401922E1    -4.075533733703794E1    -1.125928204932125E1
 2.802895000000000E8    -4.697150580325013E1    -2.318016389905661E1    -2.817725307101029      -1.289047903505119E1    -2.835007121782249      -1.286994205560206E1    -4.081509312275350E1    -1.341705198033102E1
 3.002887500000000E8    -4.690941630287850E1    -2.270457375992342E1    -2.818201437237492      -1.381533510954615E1    -2.836280765601359      -1.378234786061806E1    -4.090535401661536E1    -1.575258497747632E1
 3.202880000000000E8    -4.638622821191652E1    -2.446204340417722E1    -2.818697488510153      -1.474633303530309E1    -2.837409946186122      -1.471140234532918E1    -4.099984542877646E1    -1.646820163124982E1
 3.402872500000000E8    -4.621903163727463E1    -2.870451679916656E1    -2.819077320999824      -1.566937410715431E1    -2.838442218793353      -1.563462760718606E1    -4.138321011580694E1    -1.738990528256204E1
 3.602865000000000E8    -4.647590275139987E1    -3.153333326616991E1    -2.820877302541524      -1.660460343203620E1    -2.839080583342655      -1.655424247407263E1    -4.166027325255178E1    -1.944928912959996E1
 3.802857500000000E8    -4.616669292860122E1    -3.765039639416256E1    -2.822228950749510      -1.750995862811290E1    -2.839915654219900      -1.745212100523919E1    -4.218482911437896E1    -1.976084539543742E1
 4.002850000000000E8    -4.641913242298533E1    -3.897572610130514E1    -2.822701610769955      -1.844063292510477E1    -2.838685594842755      -1.838449549311402E1    -4.274334322142427E1    -2.061665995558482E1
 4.202842500000000E8    -4.567684862458751E1    -3.771166618455826E1    -2.822660714524052      -1.932805618452030E1    -2.839633770543153      -1.928858843206332E1    -4.309301316750997E1    -1.941306786572572E1
 4.402835000000000E8    -4.520192056265084E1    -4.084081253554205E1    -2.825156866511174      -2.024265293894814E1    -2.840094728115460      -2.020659367573067E1    -4.343286306535292E1    -2.060841136922663E1
 4.602827500000000E8    -4.444874097182628E1    -4.131991194135465E1    -2.823983871956831      -2.117048751866403E1    -2.840306319008072      -2.112056471432474E1    -4.346103831529813E1    -2.246100684363445E1
 4.802820000000000E8    -4.406259332828422E1    -4.366045439510457E1    -2.824516405699249      -2.210604835963387E1    -2.842624622280474      -2.204082493128746E1    -4.410278899831663E1    -2.263866723201162E1
 5.002812500000000E8    -4.399144938959856E1    -4.584505740947307E1    -2.826143809181933      -2.305847155031714E1    -2.843433090490287      -2.294463226953085E1    -4.488055560659242E1    -2.483829687787204E1
 5.202805000000000E8    -4.369508405991659E1    -4.747893048386504E1    -2.827959141183669      -2.395758955862769E1    -2.844199827043074      -2.391459855052531E1    -4.506062467040409E1    -2.913200432535800E1
 5.402797500000000E8    -4.363778640095041E1    -4.862764229977887E1    -2.830112418028500      -2.487580447861155E1    -2.848001211297149      -2.482438152276910E1    -4.532768059593974E1    -3.195626203370052E1
 5.602790000000000E8    -4.342310368479311E1    -4.976289267603313E1    -2.829598694712862      -2.579269612973166E1    -2.846935537517632      -2.572909990473250E1    -4.624485393695181E1    -3.374282353055887E1
 5.802782500000000E8    -4.341769341331399E1    -4.811383136471643E1    -2.830999896478641      -2.670525512895052E1    -2.850396231583426      -2.664355032998063E1    -4.634078858044781E1    -3.583484745570934E1
 6.002775000000000E8    -4.349146512379682E1    -4.851569378068642E1    -2.832700421607506      -2.761375839012047E1    -2.850223012013629      -2.756257992664467E1    -4.705341461718646E1    -3.519430150812871E1
 6.202767500000000E8    -4.344856153270012E1    -4.951652728996370E1    -2.832406090684798      -2.853008463445524E1    -2.851069186748943      -2.847266792842778E1    -4.752883916078250E1    -3.618419015192106E1
 6.402760000000000E8    -4.330072089618547E1    -5.302589524448804E1    -2.832631527401698      -2.944999822936815E1    -2.851007948711209      -2.938245819234854E1    -4.818113622666018E1    -4.076092386023262E1
 6.602752500000000E8    -4.296210956236975E1    -5.543681506007189E1    -2.833191304484477      -3.036386122295319E1    -2.852487596449391      -3.029392623347552E1    -4.830566616294574E1    -4.417793201704405E1
 6.802745000000000E8    -4.276833770665544E1    -5.710540456781844E1    -2.834433496821013      -3.128142125327100E1    -2.851712432595682      -3.119007937277002E1    -4.870632682532747E1    -4.506195541507260E1
 7.002737500000000E8    -4.252560634618823E1    -5.969598320154776E1    -2.834138039365033      -3.220744967842984E1    -2.854036612242375      -3.208172842563288E1    -4.946213366788884E1    -4.654631914527371E1
 7.202730000000000E8    -4.228958663620179E1    -6.025219820576169E1    -2.833626711099639      -3.311768506414924E1    -2.853522222132964      -3.299957370761172E1    -4.994062632368462E1    -4.845486838258856E1
 7.402722500000000E8    -4.211892500634397E1    -6.098779487844670E1    -2.832788074207864      -3.402841583932471E1    -2.853969967927667      -3.391414638555749E1    -5.108600377018288E1    -5.309491931182944E1
 7.602715000000000E8    -4.204113904347808E1    -6.405824976786613E1    -2.832313886547718      -3.492883885137739E1    -2.853755740647705      -3.485596623563335E1    -5.230616856259533E1    -5.301262979757761E1
 7.802707500000000E8    -4.189473832867674E1    -6.526115389468792E1    -2.833353689918659      -3.586249526180945E1    -2.854336627407369      -3.577648522065771E1    -5.381986254774903E1    -6.050325800544826E1
 8.002700000000000E8    -4.150378237522527E1    -6.729335246368680E1    -2.833340853832378      -3.683121804893609E1    -2.853904382639434      -3.665224920863600E1    -5.443738048324998E1    -6.913952367363399E1
 8.202692500000000E8    -4.135366305394578E1    -7.035702499368642E1    -2.834080317937025      -3.772904528467519E1    -2.853968282790266      -3.762577214433965E1    -5.482034077334422E1    -8.130905823864167E1
 8.402685000000000E8    -4.120374372048300E1    -7.162302439446485E1    -2.834088035457563      -3.863893363473085E1    -2.854171342123881      -3.855381014899353E1    -5.519118597108243E1    -9.023956079808835E1
 8.602677500000000E8    -4.105072524193349E1    -7.318048274409435E1    -2.834990719132918      -3.956838339714972E1    -2.854996165729519      -3.945797673815562E1    -5.601926750818980E1    -9.764784086134485E1
 8.802670000000000E8    -4.094419028588267E1    -7.454946733730866E1    -2.834483656913659      -4.048454986276183E1    -2.854097302679322      -4.036937408794442E1    -5.567261674524174E1    -1.078628039417328E2
 9.002662500000000E8    -4.085172327463337E1    -7.587000169524166E1    -2.836452666288026      -4.138268283924342E1    -2.856252501387357      -4.129492266792771E1    -5.582272576597471E1    -1.123778680718555E2
 9.202655000000000E8    -4.075686908111411E1    -7.727772022850445E1    -2.835882520578434      -4.228312665499434E1    -2.857467908181798      -4.222358415027180E1    -5.506877481256336E1    -1.102775201920085E2
 9.402647500000000E8    -4.048385612123897E1    -7.835835397653827E1    -2.838912712558575      -4.321093889047963E1    -2.859122173999098      -4.313910433474049E1    -5.568876192153812E1    -1.151108456135241E2
 9.602640000000000E8    -4.031885811778616E1    -7.895354108965553E1    -2.840810624950101      -4.414941329941379E1    -2.859671444240446      -4.405085289731471E1    -5.706598973244037E1    -1.221827114877649E2
 9.802632500000000E8    -4.012425352541038E1    -7.791289856927540E1    -2.841178528162673      -4.506519906227777E1    -2.861384085195325      -4.497372068270713E1    -5.859692727565491E1    -1.257290039104766E2
 1.000262500000000E9    -4.008312869212561E1    -7.761240431578146E1    -2.841488151427604      -4.598520812246925E1    -2.862352375757134      -4.588884873570563E1    -5.980396805956902E1    -1.440026526307163E2
 1.020261750000000E9    -3.975713208648657E1    -7.853252228580224E1    -2.844241730427449      -4.688999342858784E1    -2.864626641008500      -4.680290121626312E1    -5.749005417713549E1    -1.689058236517109E2
 1.040261000000000E9    -3.976388552884492E1    -8.051144501565432E1    -2.845672732684344      -4.779307403106367E1    -2.865280117757466      -4.773105952996694E1    -5.520477175903071E1    -1.731851333783101E2
 1.060260250000000E9    -3.991212997583652E1    -8.263591099202510E1    -2.847446729144715      -4.871334602805833E1    -2.867416947929455      -4.864831023785476E1    -5.325492478271443E1    -1.747968240749255E2
 1.080259500000000E9    -3.983840791936258E1    -8.446129594272101E1    -2.846688534709579      -4.963538508739410E1    -2.867975972113062      -4.953609873530386E1    -5.282786571010757E1    -1.745664405485005E2
 1.100258750000000E9    -3.979318645137003E1    -8.500015049261418E1    -2.845718623737921      -5.051598517908482E1    -2.864085982781205      -5.044664265945163E1    -5.114614666449107E1    -1.679240624472516E2
 1.120258000000000E9    -3.969124205085651E1    -8.659928722729950E1    -2.843247020234064      -5.146180363289624E1    -2.863454361311418      -5.133027987403921E1    -5.061782185888301E1    -1.679202720337215E2
 1.140257250000000E9    -3.955479093737348E1    -8.817053948738486E1    -2.843220658684593      -5.240917282991606E1    -2.862866362950899      -5.222614873118055E1    -5.041390394562207E1    -1.669773756247188E2
 1.160256500000000E9    -3.958278176065267E1    -9.169802420284135E1    -2.841351022643940      -5.334508128603314E1    -2.865203037304731      -5.312041888017563E1    -5.003215987013199E1    -1.664220566267578E2
 1.180255750000000E9    -3.951074310554055E1    -9.386936665435667E1    -2.842283533931156      -5.425476303067530E1    -2.864459037305406      -5.407101129933101E1    -4.942218802922609E1    -1.670418296784124E2
 1.200255000000000E9    -3.938659418439967E1    -9.614628952922671E1    -2.843089877957997      -5.519867668643055E1    -2.866673391222912      -5.499317658060803E1    -4.910582927751575E1    -1.674199501043306E2
 1.220254250000000E9    -3.938466265502196E1    -9.758037233778194E1    -2.843057092890803      -5.612060913037830E1    -2.866587953271471      -5.591495246560194E1    -4.893946207212650E1    -1.637130418464363E2
 1.240253500000000E9    -3.927999471102626E1    -9.653678449919768E1    -2.845022842399454      -5.704845482686804E1    -2.866464710671344      -5.682034384223768E1    -4.888775347704546E1    -1.642791498856753E2
 1.260252750000000E9    -3.915014152672026E1    -9.690808354499231E1    -2.844450526229631      -5.797254025774154E1    -2.867958184817032      -5.773674929841443E1    -4.979307712906247E1    -1.642203970615049E2
 1.280252000000000E9    -3.912201277440194E1    -9.750667184070683E1    -2.846413491838953      -5.886104559983129E1    -2.868967854934537      -5.864472062391140E1    -5.027269440935165E1    -1.623937157682512E2
 1.300251250000000E9    -3.898855378590970E1    -9.799836309107472E1    -2.846565465322606      -5.976575798208918E1    -2.868994654669952      -5.956497894369682E1    -5.082072146060993E1    -1.696872472606054E2
 1.320250500000000E9    -3.871530409952730E1    -9.925697727120446E1    -2.847752882220740      -6.067104335629389E1    -2.869259447849840      -6.049008342799772E1    -5.042812051719341E1    -1.712356235463805E2
 1.340249750000000E9    -3.869113899112471E1    -1.008562245093349E2    -2.848137218872975      -6.158515438262410E1    -2.869916114907114      -6.140991962065131E1    -5.022250093170909E1    -1.744884925988737E2
 1.360249000000000E9    -3.864028969486562E1    -1.025758756491500E2    -2.849524387239556      -6.252314059459042E1    -2.870423436771021      -6.233337317953997E1    -5.006401895838266E1    -1.731520903827352E2
 1.380248250000000E9    -3.853822677162956E1    -1.032267856305923E2    -2.849268510833516      -6.343489509674416E1    -2.870795310173491      -6.323705678777115E1    -4.896334816513004E1    -1.775297735450292E2
 1.400247500000000E9    -3.851298851199202E1    -1.045187308207539E2    -2.850014795876343      -6.435874869479810E1    -2.871724940155213      -6.414194906851206E1    -4.869299921144447E1    -1.766948508928504E2
 1.420246750000000E9    -3.838037341915142E1    -1.066151478912068E2    -2.850804006270765      -6.529309565345326E1    -2.872115828994581      -6.503469615562712E1    -4.799883049673886E1    -1.765098687738692E2
 1.440246000000000E9    -3.832797589703577E1    -1.085609520431533E2    -2.851934038339394      -6.624321921475605E1    -2.873037591680180      -6.591815923883165E1    -4.702766751193421E1    -1.771313176062579E2
 1.460245250000000E9    -3.825974758526746E1    -1.106518819038382E2    -2.853922943177784      -6.718031440025683E1    -2.875039644937012      -6.683205462550025E1    -4.675693541473484E1    -1.750644027513297E2
 1.480244500000000E9    -3.811150711549353E1    -1.137566735409552E2    -2.853476252561665      -6.806092019950215E1    -2.875024064921110      -6.775423132992914E1    -4.636534890809385E1    -1.706286255203486E2
 1.500243750000000E9    -3.822772609783929E1    -1.153912309944116E2    -2.853798536858169      -6.892425037420662E1    -2.874648792524793      -6.867438728925133E1    -4.633302346998481E1    -1.652364623888254E2
 1.520243000000000E9    -3.812843149869362E1    -1.157210319189388E2    -2.854516533542819      -6.982673799866322E1    -2.874210066808550      -6.959305340075601E1    -4.633530862701547E1    -1.619370579639615E2
 1.540242250000000E9    -3.813551567753279E1    -1.168365629181648E2    -2.856516233581989      -7.073633897143291E1    -2.874986255572054      -7.050002790874966E1    -4.694824321654779E1    -1.562906967169018E2
 1.560241500000000E9    -3.800844447602829E1    -1.174124013879169E2    -2.856934892342882      -7.166837106053758E1    -2.873132102580539      -7.142330728841888E1    -4.695683297229856E1    -1.552707005198437E2
 1.580240750000000E9    -3.789937348139819E1    -1.195356912411463E2    -2.857626272353955      -7.257248483713470E1    -2.875552531797482      -7.233912767500712E1    -4.724398171996838E1    -1.561010861203362E2
 1.600240000000000E9    -3.764980536545700E1    -1.204230491488387E2    -2.859344905137000      -7.350260238797512E1    -2.876721798009481      -7.325631275377208E1    -4.701401831139019E1    -1.592572009462290E2
 1.620239250000000E9    -3.750791516850789E1    -1.221221830028574E2    -2.858120508462855      -7.443376260534178E1    -2.876097123416292      -7.417709063607774E1    -4.671660798871561E1    -1.628239393012231E2
 1.640238500000000E9    -3.730881326944039E1    -1.222251826532242E2    -2.858062486062237      -7.534353376937037E1    -2.875759314439073      -7.509696726249003E1    -4.659202480667374E1    -1.667420312340724E2
 1.660237750000000E9    -3.720425701953819E1    -1.229738994545292E2    -2.858372008959654      -7.626534183179403E1    -2.876676109070729      -7.603068749438519E1    -4.602404922290891E1    -1.711887155437157E2
 1.680237000000000E9    -3.700463802968723E1    -1.232972048948159E2    -2.857034037167027      -7.717359185833091E1    -2.874748428156384      -7.693832012162453E1    -4.577260283460019E1    -1.726709129606024E2
 1.700236250000000E9    -3.695959844842101E1    -1.244963398007905E2    -2.857298341707766      -7.809073581027501E1    -2.874189951399939      -7.785072482760178E1    -4.545568449452095E1    -1.738228067836044E2
 1.720235500000000E9    -3.687056711376638E1    -1.258812791362525E2    -2.857139906974883      -7.901860343860150E1    -2.873573800352394      -7.877487882516385E1    -4.482588494358655E1    -1.735136108657129E2
 1.740234750000000E9    -3.677474012550829E1    -1.279481515931776E2    -2.858331686699968      -7.993633299161479E1    -2.873904977132224      -7.967264712052786E1    -4.396756700292661E1    -1.701182463859728E2
 1.760234000000000E9    -3.683107764857326E1    -1.285755181433536E2    -2.858029289246114      -8.085230985708697E1    -2.874081222624151      -8.058061376188198E1    -4.381654435981928E1    -1.665957527835935E2
 1.780233250000000E9    -3.690695567674531E1    -1.292211724499300E2    -2.857804366906835      -8.177279752147797E1    -2.874209918810306      -8.150161343052548E1    -4.365938496329424E1    -1.604184608303984E2
 1.800232500000000E9    -3.704744210248396E1    -1.307908057700807E2    -2.857907665863249      -8.270295062765862E1    -2.872976529297001      -8.242313780876391E1    -4.341625477679762E1    -1.577425862646923E2
