#  HZ   S   DB   R     50.00 
! Rohde & Schwarz Vector Network Analyzer 
! Rohde-Schwarz,ZNB8-4Port,1311601044101761,1.95
! Created: UTC 2/21/2014, 10:25:52 PM
! freq[Hz]                db:S11                  ang:S11                 db:S21                  ang:S21                 db:S12                  ang:S12                 db:S22                  ang:S22
 3.000000000000000E8    -4.384337692004874E1    -1.027490471082526E2    -1.054512529289043E-1    1.421017865714527E2    -2.093838146447268E-1    1.419364830099639E2    -3.710427011962059E1    -6.971737323264405E1
 3.192500000000000E8    -3.863209701113134E1    -1.254641812993053E2    -1.078253547957516E-1    1.281234102828093E2    -2.123124887164732E-1    1.279669597962710E2    -3.514665773151904E1    -9.633870795950850E1
 3.385000000000000E8    -3.548826080280228E1    -1.440500812137658E2    -1.128939994771618E-1    1.141358398706845E2    -2.167080818060332E-1    1.139892002756417E2    -3.370146270830125E1    -1.195621665660170E2
 3.577500000000000E8    -3.370021406818412E1    -1.602381078116253E2    -1.175937866853881E-1    1.001489078441536E2    -2.204921604378367E-1    1.000043272770125E2    -3.260825813191070E1    -1.402877842947094E2
 3.770000000000000E8    -3.272329577828608E1    -1.744894694275866E2    -1.184499391319897E-1    8.618642854767322E1    -2.242675862881691E-1    8.605912151141970E1    -3.211595676196735E1    -1.604687227708038E2
 3.962500000000000E8    -3.276609036891754E1     1.716052132885446E2    -1.245641244026696E-1    7.220786300468454E1    -2.297116220171374E-1    7.207757317330506E1    -3.128585679397811E1    -1.776454848746162E2
 4.155000000000000E8    -3.281297507736183E1     1.590554424324462E2    -1.284067438186544E-1    5.824301646871522E1    -2.336005187482649E-1    5.813756985074440E1    -3.162085151972827E1     1.610138160626007E2
 4.347500000000000E8    -3.387591893365557E1     1.471046119121287E2    -1.308580877740689E-1    4.427433939661169E1    -2.374029335639429E-1    4.417227555627451E1    -3.166254976709882E1     1.459628597841864E2
 4.540000000000000E8    -3.507752999562027E1     1.249077753754826E2    -1.334217451116043E-1    3.030713181646376E1    -2.388303706287105E-1    3.023623885665885E1    -3.242324301685358E1     1.272485348253331E2
 4.732500000000000E8    -3.696539995512949E1     1.029767225525517E2    -1.355194302433599E-1    1.639417291921154E1    -2.425144023172485E-1    1.619914918365367E1    -3.346711927018214E1     1.094089116175316E2
 4.925000000000000E8    -3.930899893264171E1     7.616097760093194E1    -1.390618384976308E-1    2.319092886733162      -2.446511851688404E-1    2.318304520129461      -3.533956886701466E1     8.985001265472030E1
 5.117500000000000E8    -4.234551696977432E1     4.395594816279449E1    -1.407227404483489E-1   -1.168404447719130E1    -2.465707603493177E-1   -1.168951083062279E1    -3.841586461008814E1     6.760164134158634E1
 5.310000000000000E8    -4.572701682231148E1    -2.050643836720826E-1   -1.440902243238254E-1   -2.554608017050706E1    -2.533368824020469E-1   -2.579489554690881E1    -4.318526868415377E1     3.033958227167946E1
 5.502500000000000E8    -4.645931669110698E1    -5.929950944534681E1    -1.491701916184982E-1   -3.951119099972077E1    -2.575859927481645E-1   -3.971019061789327E1    -4.532261600769699E1    -4.315058162031635E1
 5.695000000000000E8    -4.363872608424100E1    -1.081438870209187E2    -1.521688545672709E-1   -5.348551281306450E1    -2.607002399785551E-1   -5.365161349649282E1    -4.064944875171619E1    -9.369678538502757E1
 5.887500000000000E8    -4.023518812635604E1    -1.359201488617638E2    -1.578447425882436E-1   -6.741499478405615E1    -2.653494527791762E-1   -6.761878948265843E1    -3.747679377878667E1    -1.183679922880105E2
 6.080000000000000E8    -3.733824144031946E1    -1.553545111190340E2    -1.611009656474420E-1   -8.137280639682562E1    -2.706507639649574E-1   -8.159764125258069E1    -3.518363070462365E1    -1.373268984241186E2
 6.272500000000000E8    -3.521924236683709E1    -1.723925660308297E2    -1.653132654509162E-1   -9.534627281750294E1    -2.727579874124916E-1   -9.554933991155289E1    -3.367701275345095E1    -1.543898634795877E2
 6.465000000000000E8    -3.396249725464104E1     1.705790124234989E2    -1.671250591489001E-1   -1.092907064078705E2    -2.759148367896437E-1   -1.094879315206430E2    -3.276747623416264E1    -1.718507377813543E2
 6.657500000000000E8    -3.336432620625385E1     1.525957668001056E2    -1.669702216195296E-1   -1.232358488021783E2    -2.770852002378677E-1   -1.233831654201324E2    -3.250493387339407E1     1.719670448984613E2
 6.850000000000000E8    -3.362479494724329E1     1.337049480572743E2    -1.690435073014794E-1   -1.372285201776153E2    -2.762823511234840E-1   -1.372703167241669E2    -3.270745038013934E1     1.545827444896609E2
 7.042500000000000E8    -3.416562793892239E1     1.152197858447366E2    -1.696712305928786E-1   -1.512071058573001E2    -2.788862731554734E-1   -1.511877388972467E2    -3.327257016983631E1     1.372543519599586E2
 7.235000000000000E8    -3.519811295925297E1     9.706468709410279E1    -1.670072545938403E-1   -1.651642842593333E2    -2.786245057520075E-1   -1.651644789312187E2    -3.400203614131315E1     1.203992342120182E2
 7.427500000000000E8    -3.645105593240638E1     7.810107088703219E1    -1.661995272300714E-1   -1.791334716211706E2    -2.773053954991721E-1   -1.790814518219131E2    -3.497873686540635E1     1.044405698241202E2
 7.620000000000000E8    -3.834862419921067E1     5.732729919503308E1    -1.640272841954252E-1    1.669604915457796E2    -2.756728788614875E-1    1.668926460089260E2    -3.636831488584975E1     8.771523666641507E1
 7.812500000000000E8    -4.055490009547599E1     3.115731940391160E1    -1.653126344170373E-1    1.529786008394372E2    -2.746653054627804E-1    1.528490159217510E2    -3.881803252463358E1     7.190400427455738E1
 8.005000000000000E8    -4.410187307655662E1    -1.182983790914630E1    -1.661007190765742E-1    1.388109791208014E2    -2.768667840651831E-1    1.390251779845722E2    -4.317645262744211E1     5.458432182904897E1
 8.197500000000000E8    -4.509217581430072E1    -7.660648499535888E1    -1.668626534374997E-1    1.248712387532872E2    -2.772188367481914E-1    1.249179887136575E2    -5.337997586735654E1     2.943692440236164E1
 8.390000000000000E8    -4.131352557371321E1    -1.239182423832812E2    -1.693902050264382E-1    1.109723194292923E2    -2.790233357751774E-1    1.108082514479627E2    -5.117016002017871E1    -1.433727807167912E2
 8.582500000000000E8    -3.828958238374102E1    -1.484787262951469E2    -1.727950969739479E-1    9.702679021915918E1    -2.843262071042332E-1    9.688268194945387E1    -4.251066973951366E1    -1.595259286656429E2
 8.775000000000000E8    -3.675351299159064E1    -1.665845122858875E2    -1.728026406999300E-1    8.309496791644187E1    -2.891221045588461E-1    8.294085467786624E1    -3.882552621629489E1    -1.746926886492754E2
 8.967500000000000E8    -3.591347210415545E1     1.783757454350227E2    -1.791858188499257E-1    6.913591316312595E1    -2.923642387825694E-1    6.893840559519167E1    -3.677994331517545E1     1.721147178381376E2
 9.160000000000000E8    -3.589236131374364E1     1.643636737024514E2    -1.823455781263358E-1    5.521246872831769E1    -2.969738494072295E-1    5.492240133738810E1    -3.568978786703873E1     1.603792562532181E2
 9.352500000000000E8    -3.627975604321388E1     1.479450054204348E2    -1.886297864931269E-1    4.126997763461632E1    -3.029993178486976E-1    4.091811814448299E1    -3.518877239043295E1     1.466045343158543E2
 9.545000000000000E8    -3.703008615929531E1     1.258449395030222E2    -1.939998107817221E-1    2.723571736101816E1    -3.062981696370797E-1    2.700610533008488E1    -3.512852764006543E1     1.335878141768542E2
 9.737500000000000E8    -3.778499841347315E1     9.892627254052476E1    -2.015587808759884E-1    1.326878273669162E1    -3.141928608638728E-1    1.303126133518177E1    -3.520915128415550E1     1.203519237896910E2
 9.930000000000000E8    -3.821904439209037E1     6.740559044297237E1    -2.068496851703295E-1   -7.055286981148002E-1   -3.167897024420442E-1   -9.171482564494392E-1   -3.556857849078846E1     1.080897880750364E2
 1.012250000000000E9    -3.814589991406096E1     3.517484527259104E1    -2.121923692761571E-1   -1.463205799450432E1    -3.223893785732332E-1   -1.484689526645300E1    -3.597603856064525E1     9.961359698927656E1
 1.031500000000000E9    -3.822207177491164E1     8.441482253403166      -2.159338712030434E-1   -2.856054146082901E1    -3.251434598546242E-1   -2.882063432237809E1    -3.691052891018636E1     9.131222851022473E1
 1.050750000000000E9    -3.880113210976271E1    -1.682638194875878E1    -2.178893251057108E-1   -4.250053640055597E1    -3.280320252744392E-1   -4.277456029014991E1    -3.841693425932551E1     8.755893423182702E1
 1.070000000000000E9    -3.984373233282531E1    -4.173150809601659E1    -2.192172823306676E-1   -5.649254654232517E1    -3.271636145787291E-1   -5.669171761811944E1    -4.078461817256546E1     9.182376914347981E1
 1.089250000000000E9    -4.016564611594583E1    -7.293636204472645E1    -2.175068026300679E-1   -7.041504210719208E1    -3.260339071402731E-1   -7.057996354036422E1    -4.211751843787514E1     1.099875465751768E2
 1.108500000000000E9    -3.984194672875277E1    -1.041665091269836E2    -2.142492171270172E-1   -8.429558534023147E1    -3.204744971975260E-1   -8.452231268982168E1    -4.056675571734995E1     1.284123330604651E2
 1.127750000000000E9    -3.904295054007127E1    -1.350180914243338E2    -2.111057733177272E-1   -9.826032974873498E1    -3.164314403421760E-1   -9.844516757601694E1    -3.828950647674026E1     1.322072863293350E2
 1.147000000000000E9    -3.791302523679064E1    -1.630619010168097E2    -2.073571377096834E-1   -1.123183398581776E2    -3.156075533883365E-1   -1.123500316593686E2    -3.721697023930563E1     1.311219659720414E2
 1.166250000000000E9    -3.749828762959242E1     1.699604392058909E2    -2.080933672188386E-1   -1.263157900098104E2    -3.205577779995960E-1   -1.263381284891415E2    -3.674783033416694E1     1.268449193427125E2
 1.185500000000000E9    -3.769054221392770E1     1.465210332704965E2    -2.105450483367875E-1   -1.402843911722843E2    -3.243592746323981E-1   -1.402918632866725E2    -3.710327123553601E1     1.224695688370493E2
 1.204750000000000E9    -3.854372520079352E1     1.261808585164566E2    -2.120378694783266E-1   -1.543755327031781E2    -3.211648908740935E-1   -1.543211399853254E2    -3.756298929124063E1     1.176061274162269E2
 1.224000000000000E9    -3.947496177799950E1     1.054271999380992E2    -2.128920605949939E-1   -1.683707767120012E2    -3.245980094928971E-1   -1.683101762765216E2    -3.826133478947517E1     1.147446132364219E2
 1.243250000000000E9    -3.964474571932816E1     8.197418440203350E1    -2.170128518536453E-1    1.776377411930652E2    -3.286095096406423E-1    1.777390313331929E2    -3.898856915756817E1     1.113333058469927E2
 1.262500000000000E9    -3.997298200363699E1     5.256219460136786E1    -2.218504840534103E-1    1.636712101258119E2    -3.319484952886008E-1    1.637708359645380E2    -3.968236752729811E1     1.032587902103099E2
 1.281750000000000E9    -3.962578620571298E1     2.276654918993184E1    -2.290167671869144E-1    1.497906973617622E2    -3.349545020957855E-1    1.498004697175777E2    -4.026337876234071E1     9.517195361085685E1
 1.301000000000000E9    -3.929498306524057E1    -7.368125414865292      -2.330632293286604E-1    1.359071325202764E2    -3.387428889827216E-1    1.358328355610084E2    -4.073694242194944E1     8.791190995600856E1
 1.320250000000000E9    -3.884117822562651E1    -3.688987739717990E1    -2.358230718915610E-1    1.219788399554696E2    -3.413743822424400E-1    1.218559695434795E2    -4.146058182320544E1     8.550825700119214E1
 1.339500000000000E9    -3.877526630906864E1    -6.339651288009580E1    -2.392078992506846E-1    1.079922362055900E2    -3.416715136156535E-1    1.079063364886768E2    -4.152136532048427E1     9.021058584372409E1
 1.358750000000000E9    -3.862696051044436E1    -8.888813272135145E1    -2.424810591037745E-1    9.400213714638755E1    -3.448728666302536E-1    9.394114415612188E1    -4.024619072356443E1     9.498799687417308E1
 1.378000000000000E9    -3.839686265133950E1    -1.126640086045570E2    -2.427161574337030E-1    8.001787044396599E1    -3.491197270606016E-1    7.996862767512627E1    -3.845477443020212E1     9.366018337087263E1
 1.397250000000000E9    -3.837404153281388E1    -1.330024614097862E2    -2.491281714482581E-1    6.605966692253442E1    -3.530359034118992E-1    6.608691178781329E1    -3.693651004811460E1     8.716160747424371E1
 1.416500000000000E9    -3.860605958913457E1    -1.535297697338643E2    -2.537549893197505E-1    5.209504228534816E1    -3.572569984163140E-1    5.221891054147140E1    -3.637908341363963E1     7.818012550484328E1
 1.435750000000000E9    -3.934324090624956E1    -1.752573560506005E2    -2.587706174473287E-1    3.803949519399185E1    -3.606707995424951E-1    3.834585944180332E1    -3.691019087372120E1     6.703166209885377E1
 1.455000000000000E9    -4.068074371373795E1     1.632011199563768E2    -2.627838686512776E-1    2.404298598969491E1    -3.643321438359504E-1    2.444342687358489E1    -3.866438001089843E1     5.649956034988159E1
 1.474250000000000E9    -4.318834617336245E1     1.356236748012835E2    -2.612401803343076E-1    1.011063170283787E1    -3.652859054723284E-1    1.046892092908095E1    -4.160894899501105E1     4.986842212488969E1
 1.493500000000000E9    -4.621980343554921E1     9.799207974009424E1    -2.603411741025952E-1   -3.833988340874481      -3.689441527523366E-1   -3.535687883007517      -4.509231459528542E1     4.925189662899818E1
 1.512750000000000E9    -4.596704339402015E1     4.979950121815273E1    -2.602394328470201E-1   -1.764211193450077E1    -3.675873591643436E-1   -1.748330976087890E1    -4.738068108789073E1     5.641942471341332E1
 1.532000000000000E9    -4.461063330181748E1     1.056240205844334E1    -2.666450720965091E-1   -3.159401122040822E1    -3.695619639174344E-1   -3.144882437233795E1    -4.836251531451158E1     6.455130021393394E1
 1.551250000000000E9    -4.249418116461354E1    -1.466712419024556E1    -2.706756493767872E-1   -4.557204072387098E1    -3.714179412605067E-1   -4.542441624170873E1    -4.835945645767445E1     7.217759004015886E1
 1.570500000000000E9    -4.090036196250500E1    -3.720055518799381E1    -2.742377035830522E-1   -5.951738729914219E1    -3.749153761086637E-1   -5.936644362943919E1    -4.784167095468717E1     8.689423032687492E1
 1.589750000000000E9    -3.955344112116384E1    -5.747743141652760E1    -2.785950108113990E-1   -7.343511462509204E1    -3.757468216942501E-1   -7.331931110608203E1    -4.364146618641407E1     9.797197474008648E1
 1.609000000000000E9    -3.828572593926654E1    -7.774704363677722E1    -2.779612473957215E-1   -8.743736305595864E1    -3.761210753266080E-1   -8.726620867969446E1    -3.986446108412599E1     9.634570381584462E1
 1.628250000000000E9    -3.750919370310533E1    -9.989939712352170E1    -2.791822778804128E-1   -1.014115243203397E2    -3.766154693272417E-1   -1.012214151631205E2    -3.674595713079314E1     8.725966820899851E1
 1.647500000000000E9    -3.704929938222374E1    -1.196298530945755E2    -2.796088035113907E-1   -1.153849738204443E2    -3.765081223949196E-1   -1.152110524116282E2    -3.498826212519851E1     7.442347560061185E1
 1.666750000000000E9    -3.721385624282613E1    -1.359586331605389E2    -2.790515511554762E-1   -1.293684156206187E2    -3.764967798553826E-1   -1.291770399508982E2    -3.418421805107695E1     6.073310218062883E1
 1.686000000000000E9    -3.756321512764150E1    -1.488420654331735E2    -2.740141232777265E-1   -1.433266595973792E2    -3.748958273696339E-1   -1.431515576378808E2    -3.401584853859271E1     4.619751300318777E1
 1.705250000000000E9    -3.899660264495110E1    -1.589135220553144E2    -2.727055879568488E-1   -1.572732969939170E2    -3.716634507205421E-1   -1.571074189242336E2    -3.485067587471060E1     3.053428603349454E1
 1.724500000000000E9    -4.103731711651208E1    -1.636917296653646E2    -2.724354262127835E-1   -1.712510751904954E2    -3.714612453543054E-1   -1.710366542781214E2    -3.656434079713270E1     1.356016422965372E1
 1.743750000000000E9    -4.474767620280714E1    -1.638307727587730E2    -2.741578334935166E-1    1.747822135705524E2    -3.712261760091642E-1    1.750664036648273E2    -3.905319326697189E1    -7.602463483291602
 1.763000000000000E9    -4.971287077084703E1    -1.400266533439207E2    -2.749132808672321E-1    1.608301702427544E2    -3.714601874063672E-1    1.611353737645603E2    -4.184533564509071E1    -3.486114659287888E1
 1.782250000000000E9    -4.912167615915184E1    -8.106780852322206E1    -2.739606347788699E-1    1.468467222602770E2    -3.713169429144137E-1    1.471943753084333E2    -4.418229780965273E1    -6.413730595812660E1
 1.801500000000000E9    -4.426292954004725E1    -6.777638299051682E1    -2.714855223814066E-1    1.328707512755421E2    -3.674953744897670E-1    1.332311624922634E2    -4.585471955204316E1    -9.992663388348869E1
 1.820750000000000E9    -4.106201599106082E1    -7.015181697005983E1    -2.711216459319724E-1    1.189185894277039E2    -3.654370342800747E-1    1.192080227974521E2    -4.644619113258392E1    -1.349966385429155E2
 1.840000000000000E9    -3.958808809057706E1    -7.828996700199301E1    -2.694752992952789E-1    1.049604376432340E2    -3.687883844654135E-1    1.051756964120684E2    -4.615016081599823E1     1.738509320538246E2
 1.859250000000000E9    -3.863227954574010E1    -9.074535882869303E1    -2.708886169697173E-1    9.099635788967682E1    -3.734487483020393E-1    9.117396803865434E1    -4.294495597794452E1     1.307421650392735E2
 1.878500000000000E9    -3.775528157496341E1    -1.033862288012347E2    -2.744534638883953E-1    7.704205996662171E1    -3.743770264745277E-1    7.723289146465258E1    -3.906910328238413E1     1.002381890920572E2
 1.897750000000000E9    -3.695719284102417E1    -1.150092563335400E2    -2.782472864546853E-1    6.310682872061844E1    -3.787043326934982E-1    6.332410093808910E1    -3.604908093875946E1     7.633353961208894E1
 1.917000000000000E9    -3.600536057273510E1    -1.288445551525723E2    -2.815480136474079E-1    4.906838084792085E1    -3.784557567952275E-1    4.938237820991796E1    -3.409188144056102E1     5.776828335865323E1
 1.936250000000000E9    -3.571584759801213E1    -1.411748748177132E2    -2.851910374230463E-1    3.505158997328563E1    -3.787230189443572E-1    3.544155952205902E1    -3.311342622392379E1     4.001682468043664E1
 1.955500000000000E9    -3.607155379037565E1    -1.503973693097033E2    -2.852652848399862E-1    2.109340442406106E1    -3.771396671606743E-1    2.149508279107104E1    -3.284328701098013E1     2.438383082307143E1
 1.974750000000000E9    -3.734958810132346E1    -1.547130083112685E2    -2.847429290110398E-1    7.174539422047322      -3.740092617413190E-1    7.527561043431169      -3.357478515294094E1     8.040310193703686
 1.994000000000000E9    -3.921328301366619E1    -1.517629299587115E2    -2.839658514901666E-1   -6.759402934506748      -3.730787633277374E-1   -6.450353244879553      -3.502920168601695E1    -1.092418845345260E1
 2.013250000000000E9    -4.081408419327022E1    -1.429291486164279E2    -2.831971761953208E-1   -2.066125977929800E1    -3.711524383882031E-1   -2.036582404067928E1    -3.697301628081030E1    -3.429682268414629E1
 2.032500000000000E9    -4.141286374233062E1    -1.258226389700434E2    -2.810466712336380E-1   -3.466228938599759E1    -3.721263590868279E-1   -3.424183911471733E1    -3.926429310294864E1    -6.271932363548335E1
