! RsaToolbox (C) 2014 Rohde & Schwarz America
! 
! Number of points: 401
! Number of ports: 2
! Balanced ports?: No
! 
! 
# Hz S RI R 50
300000000         -0.00171506717    -0.006351049122   -0.8213753795     0.5430936925      
                  -0.8213753795     0.5430936925      -0.0006549307274  -0.01472441848    
319250000         -0.006946572025   -0.008801554579   -0.6694680328     0.7215897699      
                  -0.6694680328     0.7215897699      -0.006390694998   -0.01922622367    
338500000         -0.01280836423    -0.008851258256   -0.4796961466     0.8589532919      
                  -0.4796961466     0.8589532919      -0.01312208928    -0.02037665691    
357750000         -0.01806298878    -0.006834524346   -0.2628542313     0.9475678806      
                  -0.2628542313     0.9475678806      -0.01945818773    -0.01909925889    
377000000         -0.02174047133    -0.00307626132    -0.03141769387    0.9824495892      
                  -0.03141769387    0.9824495892      -0.02491747518    -0.01457355024    
396250000         -0.02283766238    0.003828046909    0.2016421348      0.9616762833      
                  0.2016421348      0.9616762833      -0.03069139686    -0.01058484504    
415500000         -0.02068066142    0.007667715354    0.422939877       0.8864850086      
                  0.422939877       0.8864850086      -0.03072001244    -0.0004787711549  
434750000         -0.01639465398    0.01214719533     0.6201444979      0.761204283       
                  0.6201444979      0.761204283       -0.02762957034    0.006945406807    
454000000         -0.01040393628    0.01423153752     0.7821730589      0.5930995942      
                  0.7821730589      0.5930995942      -0.02092146269    0.01305690364     
473250000         -0.004220267999   0.01385516578     0.9000864147      0.3913836452      
                  0.9000864147      0.3913836452      -0.01217611896    0.01508696848     
492500000         0.001093079012    0.01119188391     0.9667672681      0.1675286909      
                  0.9667672681      0.1675286909      -0.003972442751   0.01286005459     
511750000         0.004273851847    0.007084368316    0.9788001199      -0.06589199628    
                  0.9788001199      -0.06589199628    0.001775655272    0.008187798491    
531000000         0.005022463348    0.002131054937    0.9351308977      -0.2953289186     
                  0.9351308977      -0.2953289186     0.004626429878    0.001720306014    
550250000         0.003079428948    -0.002481818869   0.838663449       -0.5077847463     
                  0.838663449       -0.5077847463     0.00529231198     -0.004198351324   
569500000         -0.0009099835214  -0.005704135657   0.694754621       -0.6913509339     
                  0.694754621       -0.6913509339     0.003670868616    -0.009724488514   
588750000         -0.006258646179   -0.00674524006    0.5116716967      -0.8355511874     
                  0.5116716967      -0.8355511874     9.360401267e-05   -0.01381731058    
608000000         -0.01157938817    -0.005376511623   0.2995277757      -0.9324618132     
                  0.2995277757      -0.9324618132     -0.005729063761   -0.0165877531     
627250000         -0.01572873965    -0.002004615262   0.0707169524      -0.9765675187     
                  0.0707169524      -0.9765675187     -0.01257187453    -0.0160131416     
646500000         -0.01778884372    0.002784962847    -0.1618932052     -0.9652669214     
                  -0.1618932052     -0.9652669214     -0.01839275664    -0.01190758257    
665750000         -0.01737123819    0.0080479295      -0.385084703      -0.8995655323     
                  -0.385084703      -0.8995655323     -0.02144162219    -0.005460842225   
685000000         -0.01438910151    0.01278382448     -0.5865530537     -0.7831252208     
                  -0.5865530537     -0.7831252208     -0.02109793032    0.002212856356    
704250000         -0.009598448704   0.01579908986     -0.7546425012     -0.6223091021     
                  -0.7546425012     -0.6223091021     -0.01757137261    0.008284130039    
723500000         -0.004025396105   0.01668047357     -0.8802368443     -0.4262527509     
                  -0.8802368443     -0.4262527509     -0.01268127355    0.01220190102     
742750000         0.0012624419      0.01515992311     -0.955974845      -0.2063738151     
                  -0.955974845      -0.2063738151     -0.007109410827   0.01329471439     
762000000         0.00524417301     0.01154525577     -0.9775960955     0.02535889573     
                  -0.9775960955     0.02535889573     -0.001684561491   0.01284388917     
781250000         0.007066836802    0.006625147448    -0.9437085715     0.2558437634      
                  -0.9437085715     0.2558437634      0.002927623367    0.01038003224     
800500000         0.006330130534    0.001285600933    -0.8563848215     0.471578917       
                  -0.8563848215     0.471578917       0.006028806306    0.00665028141     
819750000         0.003320306224    -0.003325192853   -0.7204204105     0.6607176301      
                  -0.7204204105     0.6607176301      0.006845853976    0.00203688561     
839000000         -0.001466111592   -0.006374578541   -0.543482362      0.8123090151      
                  -0.543482362      0.8123090151      0.00481851616     -0.002035092397   
858250000         -0.006623181016   -0.007314666591   -0.3362022596     0.9173354616      
                  -0.3362022596     0.9173354616      0.001524472428    -0.005437197084   
877500000         -0.0112456822     -0.005844208154   -0.1101227248     0.9704826347      
                  -0.1101227248     0.9704826347      -0.003165003139   -0.00637004684    
896750000         -0.01453681365    -0.002406386793   0.1222965657      0.9687309908      
                  0.1222965657      0.9687309908      -0.007429400084   -0.004435128868   
916000000         -0.01533336491    0.001970944059    0.3476024922      0.9120765002      
                  0.3476024922      0.9120765002      -0.01025703137    -0.0008579076726  
935250000         -0.01368793322    0.006609616725    0.5531563766      0.8039199342      
                  0.5531563766      0.8039199342      -0.01117390636    0.003329714569    
954500000         -0.009640922219   0.01028353114     0.7271658284      0.6501260242      
                  0.7271658284      0.6501260242      -0.01021772342    0.007079910818    
973750000         -0.004020290107   0.01222736307     0.8598940651      0.4596560767      
                  0.8598940651      0.4596560767      -0.008498304555   0.009593908319    
993000000         0.001906224015    0.01193113946     0.9438498768      0.2435277545      
                  0.9438498768      0.2435277545      -0.006407316238   0.01143331911     
1012250000        0.007062074191    0.009489324941    0.9743161774      0.01383443653     
                  0.9743161774      0.01383443653     -0.004353372474   0.01302552753     
1031500000        0.01024332264     0.00537968965     0.9497824238      -0.2166399692     
                  0.9497824238      -0.2166399692     -0.001402681806   0.0136620334      
1050750000        0.01104257021     0.0002612699952   0.8716385555      -0.4346893482     
                  0.8716385555      -0.4346893482     0.001177301095    0.01266173346     
1070000000        0.00911699911     -0.004643495492   0.7442389585      -0.6281570824     
                  0.7442389585      -0.6281570824     0.002726284319    0.01001695753     
1089250000        0.005033897506    -0.008490592267   0.5750470383      -0.785954833      
                  0.5750470383      -0.785954833      0.002305423249    0.006666953451    
1108500000        -0.0002648517658  -0.01036026437    0.3734476095      -0.8994559603     
                  0.3734476095      -0.8994559603     -0.000125907163   0.004793011914    
1127750000        -0.005906565446   -0.009694364003   0.1505393285      -0.9622490301     
                  0.1505393285      -0.9622490301     -0.003267812477   0.005424291536    
1147000000        -0.01062130308    -0.006511502122   -0.0811358843     -0.970458121      
                  -0.0811358843     -0.970458121      -0.005301954095   0.007157687375    
1166250000        -0.01328653055    -0.001752586024   -0.3083139918     -0.9233649402     
                  -0.3083139918     -0.9233649402     -0.005873088788   0.01007495156     
1185500000        -0.01346544943    0.003529341927    -0.5174267481     -0.8242698885     
                  -0.5174267481     -0.8242698885     -0.005052117975   0.01147338072     
1204750000        -0.01101916712    0.008147766573    -0.6980221134     -0.6782174277     
                  -0.6980221134     -0.6782174277     -0.004460169803   0.01215308403     
1224000000        -0.006296842698   0.01119985936     -0.8383862471     -0.493858993      
                  -0.8383862471     -0.493858993      -0.004314948804   0.01170660441     
1243250000        -0.0004626426475  0.01223619685     -0.9310141457     -0.2816563927     
                  -0.9310141457     -0.2816563927     -0.004872136802   0.01192774497     
1262500000        0.00525884717     0.01065106949     -0.970878586      -0.05352501463    
                  -0.970878586      -0.05352501463    -0.004978756087   0.01338201138     
1281750000        0.009666727623    0.006887545699    -0.955617187      0.1770513129      
                  -0.955617187      0.1770513129      -0.004429534395   0.0148238359      
1301000000        0.0117900334      0.001633437841    -0.8866409134     0.3972615314      
                  -0.8866409134     0.3972615314      -0.003047152921   0.01536621196     
1320250000        0.01141579286     -0.004284260064   -0.7676589451     0.5953298381      
                  -0.7676589451     0.5953298381      -0.002031938237   0.0137406433      
1339500000        0.008391508391    -0.009400362167   -0.6051343231     0.7597113393      
                  -0.6051343231     0.7597113393      -0.002621769332   0.01188157492     
1358750000        0.003465742437    -0.01285496694    -0.4084873207     0.8809233876      
                  -0.4084873207     0.8809233876      -0.005070021587   0.01160116975     
1378000000        -0.002302870511   -0.01387528332    -0.1888407787     0.9522575908      
                  -0.1888407787     0.9522575908      -0.007445292149   0.01359564601     
1397250000        -0.007803060747   -0.01246455062    0.04102161256     0.9694141472      
                  0.04102161256     0.9694141472      -0.008061651571   0.01710427331     
1416500000        -0.01169438006    -0.008770378716   0.268405435       0.9321727611      
                  0.268405435       0.9321727611      -0.005867857052   0.01986857046     
1435750000        -0.01345739262    -0.00387128521    0.4809027487      0.8421160329      
                  0.4809027487      0.8421160329      -0.002294541001   0.02011176803     
1455000000        -0.01242857408    0.001201453172    0.6662134365      0.7045318921      
                  0.6662134365      0.7045318921      0.0002188038017   0.01761300518     
1474250000        -0.008847508826   0.005401720262    0.813704175       0.5272073622      
                  0.813704175       0.5272073622      0.0007761320739   0.01456319523     
1493500000        -0.003691777572   0.007517399322    0.9151303554      0.3199070864      
                  0.9151303554      0.3199070864      -0.001110355286   0.01227843828     
1512750000        0.002125054928    0.007528499923    0.9648866653      0.09528461012     
                  0.9648866653      0.09528461012     -0.002905339309   0.01205289521     
1532000000        0.00720048487     0.004898787919    0.9597061391      -0.1353853535     
                  0.9597061391      -0.1353853535     -0.003978475624   0.0116648627      
1551250000        0.01043067975     0.0004470913221   0.9003230214      -0.3580819096     
                  0.9003230214      -0.3580819096     -0.004699451749   0.01116662503     
1570500000        0.01107191973     -0.00496305662    0.790249661       -0.5603669432     
                  0.790249661       -0.5603669432     -0.005683328206   0.009463655528    
1589750000        0.008973585011    -0.0103098435     0.6355846691      -0.7308783973     
                  0.6355846691      -0.7308783973     -0.009043994757   0.00873339114     
1609000000        0.004640960135    -0.01425429465    0.4448610986      -0.8601377913     
                  0.4448610986      -0.8601377913     -0.01292171486    0.01014981795     
1628250000        -0.001135506794   -0.01637928963    0.2291037546      -0.9407465302     
                  0.2291037546      -0.9407465302     -0.01546903876    0.01466573232     
1647500000        -0.007105429149   -0.01601680522    0.0003301635819   -0.9680535032     
                  0.0003301635819   -0.9680535032     -0.01488848671    0.0198424626      
1666750000        -0.01210746206    -0.01354261701    -0.2284793402     -0.9406542387     
                  -0.2284793402     -0.9406542387     -0.01110322377    0.02379305389     
1686000000        -0.0150046906     -0.009758446726   -0.4442862744     -0.8600279001     
                  -0.4442862744     -0.8600279001     -0.005680431251   0.02439621964     
1705250000        -0.01522621708    -0.005184056373   -0.6348315944     -0.7308363686     
                  -0.6348315944     -0.7308363686     -0.0008361711462  0.02212754672     
1724500000        -0.01289639085    -0.001056601794   -0.7892364489     -0.5604327983     
                  -0.7892364489     -0.5604327983     0.002018305361    0.01801630017     
1743750000        -0.008598019411   0.001638332431    -0.8991421843     -0.3583629845     
                  -0.8991421843     -0.3583629845     0.00258091551     0.01385522716     
1763000000        -0.00332808566    0.00235579991     -0.9581950155     -0.1359013491     
                  -0.9581950155     -0.1359013491     0.002003606958    0.009637035597    
1782250000        0.001958997319    0.0007411465667   -0.9631047041     0.09424595955     
                  -0.9631047041     0.09424595955     0.0002152166217   0.00620144171     
1801500000        0.005848086164    -0.00253943622    -0.9136033537     0.3191875198      
                  -0.9136033537     0.3191875198      -0.002799728536   0.003219549268    
1820750000        0.007267444522    -0.007016041518   -0.8123149784     0.5262164553      
                  -0.8123149784     0.5262164553      -0.006798062803   0.001131434822    
1840000000        0.00627000142     -0.01143552732    -0.6648366207     0.7032917856      
                  -0.6648366207     0.7032917856      -0.01206122026    0.001249526124    
1859250000        0.002695359584    -0.01503210325    -0.4795579934     0.8403317851      
                  -0.4795579934     0.8403317851      -0.01700433265    0.003261575986    
1878500000        -0.00259769346    -0.01709507922    -0.2675582299     0.9296233626      
                  -0.2675582299     0.9296233626      -0.02060364927    0.008166880985    
1897750000        -0.008289891131   -0.017135335      -0.04082119928    0.9661643062      
                  -0.04082119928    0.9661643062      -0.02073190803    0.01427234833     
1917000000        -0.0135780232     -0.01523463494    0.1888184383      0.948244184       
                  0.1888184383      0.948244184       -0.01784050166    0.01969181091     
1936250000        -0.01706536471    -0.01186574405    0.4076008236      0.8765290981      
                  0.4076008236      0.8765290981      -0.01197204668    0.0232200142      
1955500000        -0.01815798813    -0.007869308989   0.6029259886      0.7554779822      
                  0.6029259886      0.7554779822      -0.005636205948   0.02370414353     
1974750000        -0.01663756467    -0.004061512979   0.7641106052      0.5919526279      
                  0.7641106052      0.5919526279      0.0001372074088   0.02032367423     
1994000000        -0.01295909922    -0.001612692454   0.8821922026      0.3948557717      
                  0.8821922026      0.3948557717      0.004052442313    0.01508157491     
2013250000        -0.008105032695   -0.0008785513536  0.950425468       0.1757593337      
                  0.950425468       0.1757593337      0.005448401677    0.008684035033    
2032500000        -0.003096761231   -0.002361964553   0.9650122799      -0.0535715885     
                  0.9650122799      -0.0535715885     0.004301508609    0.002542102676    
2051750000        0.001091412052    -0.005453067644   0.925035087       -0.2798614004     
                  0.925035087       -0.2798614004     0.0003939554295   -0.002687593301   
2071000000        0.003295209346    -0.009810855572   0.8324227064      -0.4905892306     
                  0.8324227064      -0.4905892306     -0.005159870129   -0.005250053153   
2090250000        0.002949383216    -0.01424318235    0.692785189       -0.6732805181     
                  0.692785189       -0.6732805181     -0.01154348753    -0.005070414974   
2109500000        0.0003454132256   -0.01818271366    0.5139842701      -0.8177231675     
                  0.5139842701      -0.8177231675     -0.01676232146    -0.002214893904   
2128750000        -0.004410659911   -0.02044934633    0.3060031547      -0.915744046      
                  0.3060031547      -0.915744046      -0.0201228876     0.003163511519    
2148000000        -0.01046596935    -0.02076893865    0.08038420458     -0.961841225      
                  0.08038420458     -0.961841225      -0.0209606259     0.009507855812    
2167250000        -0.01606394057    -0.01940175579    -0.1491779671     -0.9532150063     
                  -0.1491779671     -0.9532150063     -0.0184475364     0.01621522205     
2186500000        -0.02061558568    -0.01625166449    -0.3698834365     -0.8910680996     
                  -0.3698834365     -0.8910680996     -0.01346693068    0.02107977841     
2205750000        -0.02305435752    -0.01230862396    -0.5695589952     -0.7786421086     
                  -0.5695589952     -0.7786421086     -0.006045546588   0.02324512719     
2225000000        -0.02294831641    -0.008113276671   -0.737115573      -0.6221717658     
                  -0.737115573      -0.6221717658     0.001501535128    0.02220623808     
2244250000        -0.02080706278    -0.004788501622   -0.8629903924     -0.4306434813     
                  -0.8629903924     -0.4306434813     0.008759624996    0.01775306424     
2263500000        -0.01689488777    -0.002981212583   -0.9401024705     -0.2149135038     
                  -0.9401024705     -0.2149135038     0.01282850719     0.01023230578     
2282750000        -0.01207530651    -0.002754291777   -0.9641469653     0.01326893268     
                  -0.9641469653     0.01326893268     0.01333037769     0.001787680361    
2302000000        -0.007611722084   -0.004330949369   -0.9335379295     0.2408548728      
                  -0.9335379295     0.2408548728      0.009713263886    -0.005495759011   
2321250000        -0.004494542199   -0.00741239336    -0.850040036      0.4545942401      
                  -0.850040036      0.4545942401      0.002677646963    -0.009980197587   
2340500000        -0.003162975154   -0.0110711345     -0.718384465      0.6425526687      
                  -0.718384465      0.6425526687      -0.005011083525   -0.01068714087    
2359750000        -0.004127887151   -0.01479967491    -0.5461039993     0.7940507245      
                  -0.5461039993     0.7940507245      -0.01136508549    -0.00742712708    
2379000000        -0.007263184626   -0.01796547169    -0.3429685044     0.9004659587      
                  -0.3429685044     0.9004659587      -0.01507073244    -0.00171038073    
