! RsaToolbox (C) 2014 Rohde & Schwarz America
! 
! Number of points: 401
! Number of ports: 2
! Balanced ports?: No
! 
! 
# Hz S RI R 50
300000000         0.003281429508    -0.003422269135   0.8413156012      -0.521310512      
                  0.8413156012      -0.521310512      0.002711866716    -0.003154045636   
319250000         0.001504687938    -0.007043720733   0.6952129015      -0.7038695188     
                  0.6952129015      -0.7038695188     0.0001330665085   -0.006974892888   
338500000         -0.002012522918   -0.009328214178   0.5102841544      -0.8471239101     
                  0.5102841544      -0.8471239101     -0.004025834127   -0.008986238763   
357750000         -0.006468261423   -0.009975326678   0.2971217364      -0.9429184015     
                  0.2971217364      -0.9429184015     -0.008614229771   -0.008759529667   
377000000         -0.01081087857    -0.008202591523   0.06767405662     -0.9858344905     
                  0.06767405662     -0.9858344905     -0.01341715702    -0.005718277908   
396250000         -0.01488964937    -0.004782973821   -0.1656176504     -0.9738628541     
                  -0.1656176504     -0.9738628541     -0.01476950038    -0.001895548649   
415500000         -0.01550331369    0.0005775519202   -0.3894919824     -0.9074900661     
                  -0.3894919824     -0.9074900661     -0.01779002628    0.003022111267    
434750000         -0.01574616181    0.005582382125    -0.5913140944     -0.7904363126     
                  -0.5913140944     -0.7904363126     -0.01374091348    0.006399068555    
454000000         -0.01208787228    0.008839688754    -0.7599663263     -0.629495692      
                  -0.7599663263     -0.629495692      -0.01109439751    0.01133979595     
473250000         -0.007948762681   0.01090785829     -0.8861517699     -0.4335399673     
                  -0.8861517699     -0.4335399673     -0.006331118842   0.01247133018     
492500000         -0.003452205648   0.0106661103      -0.9628829109     -0.2134864979     
                  -0.9628829109     -0.2134864979     -0.001906686027   0.01154486135     
511750000         0.0003979123494   0.008245130147    -0.9858620857     0.01864117989     
                  -0.9858620857     0.01864117989     0.001090635328    0.008974224863    
531000000         0.002746284497    0.004173924918    -0.9536643269     0.2493095365      
                  -0.9536643269     0.2493095365      0.003016369831    0.005428082564    
550250000         0.002860851035    -0.0006688575014  -0.868333525      0.465757899       
                  -0.868333525      0.465757899       0.003629278423    0.001293334091    
569500000         0.0008812564804   -0.005068236298   -0.7346249724     0.6563557222      
                  -0.7346249724     0.6563557222      0.002643509273    -0.002674120011   
588750000         -0.002854052484   -0.007934671081   -0.5599571826     0.8100185543      
                  -0.5599571826     0.8100185543      0.0003184899282   -0.006045678962   
608000000         -0.007473224003   -0.008488921091   -0.3542021353     0.9185880866      
                  -0.3542021353     0.9185880866      -0.003662002328   -0.008150680019   
627250000         -0.01191174404    -0.006849595991   -0.1286839893     0.975722071       
                  -0.1286839893     0.975722071       -0.009049415659   -0.008000407908   
646500000         -0.01511504206    -0.003230599717   0.1036325055      0.9784493465      
                  0.1036325055      0.9784493465      -0.01374657777    -0.004991071201   
665750000         -0.01619301489    0.001411498742    0.3298392905      0.9268758313      
                  0.3298392905      0.9268758313      -0.01667525783    -0.0001333112291  
685000000         -0.01500370715    0.0064123639      0.5377967468      0.8235744166      
                  0.5377967468      0.8235744166      -0.01630602039    0.005629458258    
704250000         -0.01159485216    0.01045782434     0.7157522512      0.6744160071      
                  0.7157522512      0.6744160071      -0.0135922122     0.009914351386    
723500000         -0.007023857625   0.01268490383     0.8539354922      0.4876265383      
                  0.8539354922      0.4876265383      -0.009485957853   0.01251269019     
742750000         -0.002213451442   0.01269998201     0.9443842341      0.2737527277      
                  0.9443842341      0.2737527277      -0.005026045778   0.0129190127      
762000000         0.001724928795    0.0104582473      0.9822721127      0.04461345804     
                  0.9822721127      0.04461345804     -0.00125226092    0.01116315794     
781250000         0.003989825975    0.006573639496    0.9651506877      -0.1873286433     
                  0.9651506877      -0.1873286433     0.001805954699    0.008418822267    
800500000         0.004070859517    0.00198540437     0.8939483473      -0.4086250254     
                  0.8939483473      -0.4086250254     0.003263997312    0.004712817012    
819750000         0.002066745506    -0.00198408043    0.7727355339      -0.6071726546     
                  0.7727355339      -0.6071726546     0.003173316598    0.0007463660802   
839000000         -0.001671498391   -0.004604374752   0.6084321216      -0.7713887306     
                  0.6084321216      -0.7713887306     0.001388752867    -0.002785874605   
858250000         -0.006457258903   -0.005175482125   0.410633482       -0.8922659336     
                  0.410633482       -0.8922659336     -0.00223803091    -0.005561449874   
877500000         -0.01106087524    -0.00361929943    0.1898822669      -0.9634456171     
                  0.1898822669      -0.9634456171     -0.006757933471   -0.006169907324   
896750000         -0.01431854376    -0.0002211143587  -0.04147896255    -0.980725751      
                  -0.04147896255    -0.980725751      -0.01155265831    -0.004700033122   
916000000         -0.01564899144    0.004265491603    -0.2704431572     -0.9434145775     
                  -0.2704431572     -0.9434145775     -0.01437800534    -0.001013952424   
935250000         -0.0147542019     0.008937612262    -0.4839835171     -0.8531804053     
                  -0.4839835171     -0.8531804053     -0.01534764075    0.003669662877    
954500000         -0.01195696839    0.01291389962     -0.6703209591     -0.7156871428     
                  -0.6703209591     -0.7156871428     -0.0141990972     0.008377388443    
973750000         -0.007922386632   0.01549677869     -0.8190903108     -0.5382770975     
                  -0.8190903108     -0.5382770975     -0.01166543143    0.0122294611      
993000000         -0.003413741806   0.01617579711     -0.9222633518     -0.3310326718     
                  -0.9222633518     -0.3310326718     -0.007554934348   0.01461843327     
1012250000        0.0003214366582   0.01517208509     -0.9738756059     -0.1057023717     
                  -0.9738756059     -0.1057023717     -0.002597636945   0.01470906335     
1031500000        0.002757925404    0.01254015979     -0.971316012      0.1255953145      
                  -0.971316012      0.1255953145      0.002021409517    0.0128026652      
1050750000        0.003393314851    0.009308198411    -0.9145667012     0.3497681582      
                  -0.9145667012     0.3497681582      0.00558304373     0.009346885605    
1070000000        0.002365211559    0.006036671609    -0.8070566504     0.554446904       
                  -0.8070566504     0.554446904       0.006879276786    0.005538177072    
1089250000        -0.0001169480649  0.00387742139     -0.6546799169     0.7280121084      
                  -0.6546799169     0.7280121084      0.006889967699    0.0009573704256   
1108500000        -0.003288089438   0.003053631606    -0.4658137296     0.8612008339      
                  -0.4658137296     0.8612008339      0.004469595184    -0.003292300802   
1127750000        -0.00655143403    0.003514787721    -0.2508628163     0.9463523537      
                  -0.2508628163     0.9463523537      0.0004868875758   -0.006806135796   
1147000000        -0.009108128102   0.005413238862    -0.02187080894    0.978775995       
                  -0.02187080894    0.978775995       -0.004678367537   -0.007931807812   
1166250000        -0.01041227064    0.008150513793    0.2083711512      0.9564282617      
                  0.2083711512      0.9564282617      -0.009712413378   -0.005895985636   
1185500000        -0.01003094813    0.01089649825     0.4269874426      0.8806538295      
                  0.4269874426      0.8806538295      -0.01271792993    -0.001442689567   
1204750000        -0.007958146889   0.01315839876     0.6218090674      0.7554855647      
                  0.6218090674      0.7554855647      -0.01324673921    0.003212378523    
1224000000        -0.004973869293   0.01433156747     0.7815587167      0.5882467605      
                  0.7815587167      0.5882467605      -0.0122022445     0.007273817879    
1243250000        -0.001495034291   0.01428483558     0.897526947       0.38848249        
                  0.897526947       0.38848249        -0.01013294719    0.01046492617     
1262500000        0.002008574512    0.01318388714     0.9634520432      0.1670698648      
                  0.9634520432      0.1670698648      -0.007123441632   0.01217299864     
1281750000        0.004675194309    0.01106564641     0.9754748691      -0.06306010577    
                  0.9754748691      -0.06306010577    -0.003340525086   0.01286056829     
1301000000        0.006248945165    0.008647605887    0.9332788063      -0.2899813228     
                  0.9332788063      -0.2899813228     0.0008737157316   0.0118024766      
1320250000        0.006377834339    0.006416889772    0.8390689888      -0.500646982      
                  0.8390689888      -0.500646982      0.004558069252    0.009625998161    
1339500000        0.005332300942    0.004474727864    0.698158262       -0.6833192915     
                  0.698158262       -0.6833192915     0.006558437316    0.005778748776    
1358750000        0.003570220308    0.003490031872    0.5182297678      -0.827913668      
                  0.5182297678      -0.827913668      0.006418752049    0.001562531934    
1378000000        0.001372898542    0.003560363766    0.3093514424      -0.9262263838     
                  0.3093514424      -0.9262263838     0.004178495204    -0.003106125492   
1397250000        -0.0007664120059  0.004711645572    0.08354872409     -0.9726572248     
                  0.08354872409     -0.9726572248     0.0001811703193   -0.006007280183   
1416500000        -0.002348243753   0.006501711378    -0.1466408566     -0.9649605863     
                  -0.1466408566     -0.9649605863     -0.004421398858   -0.006229492739   
1435750000        -0.002988470047   0.008574524234    -0.3687553461     -0.9033803432     
                  -0.3687553461     -0.9033803432     -0.008664914435   -0.003868291778   
1455000000        -0.002806229058   0.01055365841     -0.5700871766     -0.7914710639     
                  -0.5700871766     -0.7914710639     -0.01073285997    -0.0002002761485  
1474250000        -0.001569994088   0.01194497392     -0.739527341      -0.6357515624     
                  -0.739527341      -0.6357515624     -0.0114441654     0.004179122807    
1493500000        0.0006420414662   0.01253746183     -0.8678659958     -0.4444134845     
                  -0.8678659958     -0.4444134845     -0.01067964154    0.007675519615    
1512750000        0.003332638676    0.01226396938     -0.9475914449     -0.2288090209     
                  -0.9475914449     -0.2288090209     -0.00856404489    0.01016229838     
1532000000        0.006142156225    0.01135225847     -0.9746090153     -0.0001466832858  
                  -0.9746090153     -0.0001466832858  -0.005853904449   0.01171170754     
1551250000        0.00850103002     0.009984279353    -0.9472598332     0.228573441       
                  -0.9472598332     0.228573441       -0.002405030145   0.01287312394     
1570500000        0.01008779963     0.008029829457    -0.8670114145     0.4442117615      
                  -0.8670114145     0.4442117615      0.001205732854    0.01244443514     
1589750000        0.0105652746      0.006226465867    -0.7385761508     0.6349791816      
                  -0.7385761508     0.6349791816      0.004060998097    0.01092169005     
1609000000        0.01011906237     0.004683292951    -0.5691032475     0.7903894639      
                  -0.5691032475     0.7903894639      0.006577061525    0.007342907887    
1628250000        0.008849308947    0.003428164678    -0.367746516      0.9016633789      
                  -0.367746516      0.9016633789      0.007025411395    0.002717263826    
1647500000        0.007050777052    0.003111218086    -0.1459538541     0.9627762646      
                  -0.1459538541     0.9627762646      0.005497418584    -0.001803540845   
1666750000        0.005140742196    0.003421615675    0.08400773851     0.9700387954      
                  0.08400773851     0.9700387954      0.001868372929    -0.004831957269   
1686000000        0.003502235645    0.00473569048     0.30928216        0.9232931437      
                  0.30928216        0.9232931437      -0.002357917019   -0.005324190245   
1705250000        0.002292522826    0.0062192113      0.5170636447      0.8250222202      
                  0.5170636447      0.8250222202      -0.006707231134   -0.003509731558   
1724500000        0.00194690073     0.007715266047    0.6961839999      0.6806388027      
                  0.6961839999      0.6806388027      -0.009092406943   -0.000396343627   
1743750000        0.002482768757    0.008803609023    0.8362348577      0.4983744077      
                  0.8362348577      0.4983744077      -0.009981194779   0.002745520034    
1763000000        0.003979851997    0.009228070278    0.9296229929      0.2885403328      
                  0.9296229929      0.2885403328      -0.009084434492   0.005589909052    
1782250000        0.006183182351    0.008735839539    0.9713083943      0.06259195129     
                  0.9713083943      0.06259195129     -0.007823490392   0.007811331629    
1801500000        0.008553406247    0.007567130087    0.9589094956      -0.1669480617     
                  0.9589094956      -0.1669480617     -0.006280268405   0.009709433368    
1820750000        0.01086404052     0.005570430831    0.8929178928      -0.3872994668     
                  0.8929178928      -0.3872994668     -0.0034730616     0.01167777021     
1840000000        0.01227837118     0.003185233459    0.7768432044      -0.5860331549     
                  0.7768432044      -0.5860331549     -0.0002692693659  0.01199301247     
1859250000        0.01283245806     0.0008996549132   0.6176206315      -0.7516614547     
                  0.6176206315      -0.7516614547     0.003110937742    0.01044463888     
1878500000        0.0122455541      -0.001108514182   0.4241057477      -0.8753397922     
                  0.4241057477      -0.8753397922     0.005405720931    0.007026276983    
1897750000        0.01080871373     -0.002071821309   0.2069935675      -0.9501874453     
                  0.2069935675      -0.9501874453     0.006054948504    0.003146119565    
1917000000        0.008838494765    -0.002026942288   -0.0216511663     -0.9720291169     
                  -0.0216511663     -0.9720291169     0.004880775492    -0.0004295929848  
1936250000        0.006708464526    -0.0007314849484  -0.2490624786     -0.9396807966     
                  -0.2490624786     -0.9396807966     0.001418227377    -0.002726978404   
1955500000        0.004987222829    0.001267703502    -0.4625488137     -0.8549700142     
                  -0.4625488137     -0.8549700142     -0.002383314531   -0.00355920028    
1974750000        0.00387663254     0.003893265495    -0.6501482675     -0.7227056237     
                  -0.6501482675     -0.7227056237     -0.005848957059   -0.002554981221   
1994000000        0.004010082995    0.006323642684    -0.8015123504     -0.550120768      
                  -0.8015123504     -0.550120768      -0.008142904576   -0.0004953648622  
2013250000        0.005100238669    0.007826833489    -0.9080681031     -0.3469911578     
                  -0.9080681031     -0.3469911578     -0.00918931694    0.001997708032    
2032500000        0.007089003331    0.008289959494    -0.9639867085     -0.1242375726     
                  -0.9639867085     -0.1242375726     -0.00928225615    0.005051303526    
2051750000        0.009591299751    0.007106291034    -0.9661298896     0.1052723151      
                  -0.9661298896     0.1052723151      -0.008944175253   0.008493943491    
2071000000        0.01219486408     0.004861236907    -0.9142691755     0.3290726145      
                  -0.9142691755     0.3290726145      -0.007064181307   0.01102471492     
2090250000        0.01378161581     0.0016864972      -0.8113254178     0.5341890221      
                  -0.8113254178     0.5341890221      -0.003761070136   0.01251934318     
2109500000        0.01438242537     -0.001808062174   -0.6630975917     0.7094555645      
                  -0.6630975917     0.7094555645      0.000341533034    0.01218640417     
2128750000        0.0139222183      -0.00481310111    -0.4781398924     0.844857689       
                  -0.4781398924     0.844857689       0.003572166361    0.01024449007     
2148000000        0.01244398249     -0.006778279981   -0.2666535314     0.933172346       
                  -0.2666535314     0.933172346       0.005832861564    0.007540214488    
2167250000        0.01020477102     -0.007561877263   -0.04020070389    0.9695924503      
                  -0.04020070389    0.9695924503      0.006480755098    0.003442448497    
2186500000        0.008034932428    -0.006628014659   0.1880689993      0.9519408666      
                  0.1880689993      0.9519408666      0.005450257777    -0.0003644369179  
2205750000        0.006406752877    -0.004238999155   0.4059940528      0.8811824187      
                  0.4059940528      0.8811824187      0.002517651122    -0.003437429183   
2225000000        0.005677966851    -0.001062340249   0.6012622723      0.761349157       
                  0.6012622723      0.761349157       -0.001370347832   -0.005347071071   
2244250000        0.00617898728     0.002168182322    0.7629846486      0.5991600982      
                  0.7629846486      0.5991600982      -0.005243873991   -0.005434181289   
2263500000        0.007798612008    0.004588538695    0.8821022169      0.4036134859      
                  0.8821022169      0.4036134859      -0.008891184589   -0.003142064194   
2282750000        0.01003629481     0.005631234112    0.9520418163      0.1855135972      
                  0.9520418163      0.1855135972      -0.01153937103    0.0003052565999   
2302000000        0.0128201415      0.004822175624    0.9688622944      -0.0432074318     
                  0.9688622944      -0.0432074318     -0.01300537568    0.004420386854    
2321250000        0.01519861115     0.00246346424     0.9314484052      -0.2691243756     
                  0.9314484052      -0.2691243756     -0.01225187726    0.008917565788    
2340500000        0.01653601153     -0.001053334656   0.8422178228      -0.4799721111     
                  0.8422178228      -0.4799721111     -0.009090659141   0.01260417169     
2359750000        0.01670192281     -0.005046724577   0.706015823       -0.6640517313     
                  0.706015823       -0.6640517313     -0.004357733649   0.01478317007     
2379000000        0.01540619146     -0.00873521569    0.5307337102      -0.8109193447     
                  0.5307337102      -0.8109193447     0.0002088459247   0.01439622406     
