! RsaToolbox (C) 2014 Rohde & Schwarz America
! 
! Number of points: 101
! Number of ports: 2
! Balanced ports?: No
! 
! 
# Hz S RI R 50
100000000         -0.01385528656    -0.01134630692    0.3177975793      -0.9400386128     
                  0.3177975793      -0.9400386128     -0.02546408703    -0.01775953516    
101000000         -0.01402707115    -0.01117766055    0.3060998932      -0.9439030232     
                  0.3060998932      -0.9439030232     -0.02601136769    -0.01749793256    
102000000         -0.01428940823    -0.01111613213    0.2943439115      -0.9475981209     
                  0.2943439115      -0.9475981209     -0.02628512416    -0.01733576009    
103000000         -0.01454983058    -0.0109575924     0.2825676433      -0.9511225406     
                  0.2825676433      -0.9511225406     -0.02660756219    -0.0170893875     
104000000         -0.01479865439    -0.01082438202    0.2707045397      -0.9545171291     
                  0.2707045397      -0.9545171291     -0.02695386082    -0.01692177181    
105000000         -0.01509210689    -0.01065647121    0.2588405038      -0.9577914164     
                  0.2588405038      -0.9577914164     -0.02745550981    -0.01680607157    
106000000         -0.01523030387    -0.0104730895     0.2469301989      -0.9608933898     
                  0.2469301989      -0.9608933898     -0.02764793299    -0.0164756221     
107000000         -0.01552522552    -0.01029731723    0.234943386       -0.9638682443     
                  0.234943386       -0.9638682443     -0.02797357593    -0.01626703514    
108000000         -0.01575976936    -0.010070171      0.2229633144      -0.9666475586     
                  0.2229633144      -0.9666475586     -0.0282649491     -0.01585434134    
109000000         -0.01602314059    -0.009978905412   0.2109168403      -0.9693699505     
                  0.2109168403      -0.9693699505     -0.028569785      -0.01576875301    
110000000         -0.01628870902    -0.009751444816   0.1988504339      -0.9718326123     
                  0.1988504339      -0.9718326123     -0.02884552649    -0.0153894752     
111000000         -0.01644465014    -0.009539549769   0.1867995988      -0.9742495974     
                  0.1867995988      -0.9742495974     -0.02916262599    -0.0151120129     
112000000         -0.01666237853    -0.009355071988   0.1747026049      -0.9764555079     
                  0.1747026049      -0.9764555079     -0.02950558655    -0.01479219117    
113000000         -0.01683354106    -0.00917881927    0.1625630536      -0.9785381256     
                  0.1625630536      -0.9785381256     -0.02971666969    -0.01449149158    
114000000         -0.01709131094    -0.008929095464   0.1503938608      -0.9804567928     
                  0.1503938608      -0.9804567928     -0.03012586515    -0.01420693782    
115000000         -0.01725140318    -0.008720149557   0.1381874526      -0.9822147213     
                  0.1381874526      -0.9822147213     -0.03029084359    -0.01378538237    
116000000         -0.0174257073     -0.00846425559    0.1260180394      -0.9838041848     
                  0.1260180394      -0.9838041848     -0.03046205274    -0.01332210202    
117000000         -0.01760400009    -0.008236362188   0.1138098765      -0.9852617233     
                  0.1138098765      -0.9852617233     -0.03070014994    -0.01298134992    
118000000         -0.01780107258    -0.008001506012   0.1015680361      -0.9865920758     
                  0.1015680361      -0.9865920758     -0.03096700124    -0.01273711253    
119000000         -0.01794638107    -0.00774363716    0.08930741942     -0.9877683364     
                  0.08930741942     -0.9877683364     -0.03112332159    -0.01220958944    
120000000         -0.01812322284    -0.007537455292   0.07705679799     -0.9887539063     
                  0.07705679799     -0.9887539063     -0.03125408405    -0.01201786622    
121000000         -0.01821507919    -0.007336984375   0.06470056167     -0.9896240355     
                  0.06470056167     -0.9896240355     -0.03160168709    -0.01177870103    
122000000         -0.01837796778    -0.007055649575   0.05238371884     -0.9903142279     
                  0.05238371884     -0.9903142279     -0.03192107194    -0.01130657284    
123000000         -0.01859752893    -0.006822940873   0.04004145717     -0.9909038232     
                  0.04004145717     -0.9909038232     -0.03227248813    -0.01113415622    
124000000         -0.01868740639    -0.006517703694   0.02775840736     -0.9912533912     
                  0.02775840736     -0.9912533912     -0.03240994863    -0.01061158666    
125000000         -0.01880791776    -0.006248011084   0.01543267731     -0.9915150387     
                  0.01543267731     -0.9915150387     -0.03258189163    -0.01021947638    
126000000         -0.01893113052    -0.006011698189   0.003123215135    -0.9915591765     
                  0.003123215135    -0.9915591765     -0.03271175689    -0.009830715447   
127000000         -0.01906427574    -0.005774759268   -0.009205720417   -0.9915129555     
                  -0.009205720417   -0.9915129555     -0.03283062859    -0.00955335402    
128000000         -0.01913899385    -0.005445466329   -0.02148757091    -0.9912906158     
                  -0.02148757091    -0.9912906158     -0.03294559693    -0.008955708482   
129000000         -0.01926835139    -0.005186138625   -0.03382118667    -0.9909469286     
                  -0.03382118667    -0.9909469286     -0.03303800449    -0.00870594342    
130000000         -0.0193707917     -0.004899049241   -0.04609286889    -0.990400253      
                  -0.04609286889    -0.990400253      -0.03302565337    -0.00820132287    
131000000         -0.01942410591    -0.004638395648   -0.05836115944    -0.9897775948     
                  -0.05836115944    -0.9897775948     -0.03324534883    -0.007952627872   
132000000         -0.01959692725    -0.004378690535   -0.0706363474     -0.9889179076     
                  -0.0706363474     -0.9889179076     -0.03342702081    -0.007622731753   
133000000         -0.01960227134    -0.004089056638   -0.08290448004    -0.9879774789     
                  -0.08290448004    -0.9879774789     -0.03329268785    -0.007134908983   
134000000         -0.01968906328    -0.003780672678   -0.09513574631    -0.9868443608     
                  -0.09513574631    -0.9868443608     -0.0334482695     -0.006677458482   
135000000         -0.01977560881    -0.00353155434    -0.1073897865     -0.9855326976     
                  -0.1073897865     -0.9855326976     -0.03355578111    -0.006447985855   
136000000         -0.0197962844     -0.003210802106   -0.1195464834     -0.9841382471     
                  -0.1195464834     -0.9841382471     -0.0335913582     -0.005913985685   
137000000         -0.01983497467    -0.003004759372   -0.1317365002     -0.9825398435     
                  -0.1317365002     -0.9825398435     -0.03343768654    -0.005594077689   
138000000         -0.01991664712    -0.002625228021   -0.1438689166     -0.980823651      
                  -0.1438689166     -0.980823651      -0.03364218223    -0.005187423224   
139000000         -0.01990614562    -0.002315998018   -0.1560259139     -0.9789550911     
                  -0.1560259139     -0.9789550911     -0.03364493172    -0.004633383331   
140000000         -0.01998507771    -0.002036120979   -0.1681484033     -0.976891309      
                  -0.1681484033     -0.976891309      -0.03361087525    -0.004367195533   
141000000         -0.01999971747    -0.001755450083   -0.1802482737     -0.9747007228     
                  -0.1802482737     -0.9747007228     -0.03366889575    -0.003940036857   
142000000         -0.01998297012    -0.001467589798   -0.1922559458     -0.9723505987     
                  -0.1922559458     -0.9723505987     -0.03371426924    -0.003513551279   
143000000         -0.02000485265    -0.001187886498   -0.2042320432     -0.9698784735     
                  -0.2042320432     -0.9698784735     -0.0335828231     -0.003144445441   
144000000         -0.02003798807    -0.000908745589   -0.2162441932     -0.9672302161     
                  -0.2162441932     -0.9672302161     -0.03363812422    -0.002812525604   
145000000         -0.02000374258    -0.0006013616131  -0.2282182974     -0.9644595775     
                  -0.2282182974     -0.9644595775     -0.03361235899    -0.002327789382   
146000000         -0.02009428934    -0.0003505625575  -0.2401891476     -0.9615305988     
                  -0.2401891476     -0.9615305988     -0.03363443798    -0.002069054018   
147000000         -0.02002191966    -4.85147155e-05   -0.2520716583     -0.9584923933     
                  -0.2520716583     -0.9584923933     -0.03366912397    -0.001708073422   
148000000         -0.0200352502     0.000256408705    -0.2639071901     -0.9551841479     
                  -0.2639071901     -0.9551841479     -0.03349602726    -0.001209859531   
149000000         -0.01999696014    0.000571783662    -0.2757093113     -0.9517957317     
                  -0.2757093113     -0.9517957317     -0.03348329866    -0.0008088413369  
150000000         -0.01992927834    0.0008231696373   -0.2874980251     -0.9483356592     
                  -0.2874980251     -0.9483356592     -0.03334095694    -0.0004655726384  
151000000         -0.01984260592    0.001136482788    -0.2991975661     -0.9446468486     
                  -0.2991975661     -0.9446468486     -0.03321632669    8.258195894e-05   
152000000         -0.01980734104    0.001471508624    -0.310874624      -0.9408128286     
                  -0.310874624      -0.9408128286     -0.03319780177    0.0004122141275   
153000000         -0.01966887323    0.001773338024    -0.3224680321     -0.9368702845     
                  -0.3224680321     -0.9368702845     -0.03313277402    0.0007895325699   
154000000         -0.01962001151    0.002047413234    -0.3340859787     -0.9327636369     
                  -0.3340859787     -0.9327636369     -0.03299089688    0.001241696302    
155000000         -0.01951099997    0.002364029439    -0.3456540616     -0.9284812048     
                  -0.3456540616     -0.9284812048     -0.03289971281    0.001626986519    
156000000         -0.01944117021    0.002625426415    -0.3571550203     -0.9241721709     
                  -0.3571550203     -0.9241721709     -0.03273796838    0.001969307778    
157000000         -0.01923135662    0.002927899339    -0.3685842557     -0.9195757469     
                  -0.3685842557     -0.9195757469     -0.03254881912    0.002444821734    
158000000         -0.01916540172    0.003154800344    -0.3799642474     -0.9149211315     
                  -0.3799642474     -0.9149211315     -0.03227762117    0.00271740338     
159000000         -0.01902251541    0.003417598227    -0.3912839456     -0.910039891      
                  -0.3912839456     -0.910039891      -0.03208080884    0.003127254       
160000000         -0.0188467734     0.003757918774    -0.4025468854     -0.9051378217     
                  -0.4025468854     -0.9051378217     -0.03190306052    0.003476198947    
161000000         -0.01875393498    0.003974337534    -0.4137432372     -0.9000580569     
                  -0.4137432372     -0.9000580569     -0.0316969192     0.003877260873    
162000000         -0.01863837683    0.004247164427    -0.4249358032     -0.8947871958     
                  -0.4249358032     -0.8947871958     -0.03169623991    0.004264195455    
163000000         -0.01846015293    0.004450317979    -0.436041874      -0.8894017363     
                  -0.436041874      -0.8894017363     -0.03144037252    0.004590168131    
164000000         -0.01833028658    0.004725667279    -0.4470445264     -0.8838346063     
                  -0.4470445264     -0.8838346063     -0.03130937478    0.00501955633     
165000000         -0.01822552117    0.004963192146    -0.4580003632     -0.8782064663     
                  -0.4580003632     -0.8782064663     -0.0312219429     0.00522188474     
166000000         -0.01797835453    0.005260111041    -0.4688365676     -0.8724334749     
                  -0.4688365676     -0.8724334749     -0.03098558633    0.005700260707    
167000000         -0.01783110097    0.005504091339    -0.4796325793     -0.8665597692     
                  -0.4796325793     -0.8665597692     -0.03085196309    0.005969339674    
168000000         -0.01765943013    0.00573568517     -0.4903598788     -0.860473712      
                  -0.4903598788     -0.860473712      -0.03067391734    0.006375194726    
169000000         -0.01748906663    0.005955140215    -0.5009201696     -0.8543276077     
                  -0.5009201696     -0.8543276077     -0.03028833963    0.006785049261    
170000000         -0.01731467566    0.006199230854    -0.5114845478     -0.8480669826     
                  -0.5114845478     -0.8480669826     -0.03004641187    0.007031064613    
171000000         -0.01711878203    0.00644578848     -0.5219259275     -0.8416637322     
                  -0.5219259275     -0.8416637322     -0.02990394256    0.007250394551    
172000000         -0.01687820915    0.00673986853     -0.5322678836     -0.8350868893     
                  -0.5322678836     -0.8350868893     -0.02970065056    0.007667034266    
173000000         -0.01674667047    0.00691615535     -0.5425481102     -0.8284402963     
                  -0.5425481102     -0.8284402963     -0.02936369824    0.007910824592    
174000000         -0.01652766642    0.007084674358    -0.5527223557     -0.8216704533     
                  -0.5527223557     -0.8216704533     -0.02904378393    0.008228147344    
175000000         -0.01629065685    0.007283406597    -0.5628493775     -0.8147669799     
                  -0.5628493775     -0.8147669799     -0.02879579924    0.008590238902    
176000000         -0.01608860253    0.007551016301    -0.5728286157     -0.8077588137     
                  -0.5728286157     -0.8077588137     -0.02851054373    0.008864889951    
177000000         -0.01584708237    0.007752756652    -0.5827804773     -0.8005705712     
                  -0.5827804773     -0.8005705712     -0.02817881821    0.009073129123    
178000000         -0.01564410448    0.007916512385    -0.5925721647     -0.7933429139     
                  -0.5925721647     -0.7933429139     -0.02792156143    0.009306253191    
179000000         -0.01542746032    0.008089884927    -0.6023494341     -0.7859044542     
                  -0.6023494341     -0.7859044542     -0.02748329319    0.009655402129    
180000000         -0.01519720518    0.008319887616    -0.612015921      -0.7783781129     
                  -0.612015921      -0.7783781129     -0.02723829333    0.009994089427    
181000000         -0.01501825005    0.008485884331    -0.6215842109     -0.7707481567     
                  -0.6215842109     -0.7707481567     -0.0267609063     0.01014046221     
182000000         -0.01472813527    0.008626004959    -0.6310539386     -0.7629435392     
                  -0.6310539386     -0.7629435392     -0.02647471512    0.01052189177     
183000000         -0.01441986295    0.00876926672     -0.6404567109     -0.7550081833     
                  -0.6404567109     -0.7550081833     -0.02627991488    0.01068759139     
184000000         -0.01419010179    0.008974491256    -0.649800434      -0.7470107434     
                  -0.649800434      -0.7470107434     -0.0257936928     0.01097309321     
185000000         -0.01394737522    0.009106763602    -0.6589999358     -0.7388681096     
                  -0.6589999358     -0.7388681096     -0.02544129664    0.01115043967     
186000000         -0.01369996985    0.009243073271    -0.6681122933     -0.7306321123     
                  -0.6681122933     -0.7306321123     -0.0250979213     0.01141637697     
187000000         -0.01341179408    0.009360891115    -0.6770514483     -0.7222487157     
                  -0.6770514483     -0.7222487157     -0.02482125402    0.01171157273     
188000000         -0.01318481577    0.009491630195    -0.6859510371     -0.7138034064     
                  -0.6859510371     -0.7138034064     -0.02438270248    0.01179905331     
189000000         -0.01285332981    0.009607538789    -0.6947734262     -0.7052103255     
                  -0.6947734262     -0.7052103255     -0.02404874452    0.01197999614     
190000000         -0.01257161752    0.009715155548    -0.7034277384     -0.6965229953     
                  -0.7034277384     -0.6965229953     -0.02364262112    0.01218955425     
191000000         -0.01233522016    0.009843478078    -0.7119743516     -0.6877515775     
                  -0.7119743516     -0.6877515775     -0.02330486325    0.01258342886     
192000000         -0.01206356546    0.009974664127    -0.7204500746     -0.6789706185     
                  -0.7204500746     -0.6789706185     -0.02288437209    0.01255184022     
193000000         -0.01179233677    0.009995061568    -0.7287715537     -0.6698263877     
                  -0.7287715537     -0.6698263877     -0.02243152181    0.01267649168     
194000000         -0.01151144806    0.01009087237     -0.7369877885     -0.6607346995     
                  -0.7369877885     -0.6607346995     -0.02220584221    0.01285893482     
195000000         -0.01123221232    0.0101551839      -0.7451189934     -0.6515216595     
                  -0.7451189934     -0.6515216595     -0.02163893463    0.01311049287     
196000000         -0.01092153427    0.01025778944     -0.7530689449     -0.6422362374     
                  -0.7530689449     -0.6422362374     -0.02111730009    0.01321092187     
197000000         -0.01060759902    0.01032341173     -0.760985824      -0.6328341323     
                  -0.760985824      -0.6328341323     -0.02089765935    0.01334134598     
198000000         -0.01033823603    0.01036478391     -0.7688033393     -0.6232877688     
                  -0.7688033393     -0.6232877688     -0.0204998473     0.01342670879     
199000000         -0.01008803823    0.01045362236     -0.7764106153     -0.6136398925     
                  -0.7764106153     -0.6136398925     -0.01999403515    0.01360909019     
200000000         -0.009755890179   0.01045732781     -0.7840003445     -0.6038807746     
                  -0.7840003445     -0.6038807746     -0.01969590014    0.01351148475     
