! RsaToolbox (C) 2014 Rohde & Schwarz America
! 
! Number of points: 101
! Number of ports: 2
! Balanced ports?: No
! 
! 
# Hz S RI R 50
100000000         -0.002253328471   -0.007767767185   0.3265226035      -0.9365893572     
                  0.3265226035      -0.9365893572     -0.008505765153   -0.009451151866   
101000000         -0.002416732241   -0.007823229848   0.3149139536      -0.9405145994     
                  0.3149139536      -0.9405145994     -0.008861384566   -0.009392798031   
102000000         -0.002496050306   -0.007901733686   0.3033163912      -0.9443124973     
                  0.3033163912      -0.9443124973     -0.009070534667   -0.009461365289   
103000000         -0.002774525428   -0.007852640441   0.2916278481      -0.947928711      
                  0.2916278481      -0.947928711      -0.009464511194   -0.009440157675   
104000000         -0.002904345535   -0.007880274321   0.2799186665      -0.9514420228     
                  0.2799186665      -0.9514420228     -0.009669023054   -0.009411167838   
105000000         -0.00303125775    -0.007867273542   0.2681796727      -0.9547450389     
                  0.2681796727      -0.9547450389     -0.009808676241   -0.009115649315   
106000000         -0.003254899158   -0.007845572418   0.256382933       -0.958014367      
                  0.256382933       -0.958014367      -0.01025996476    -0.008984473294   
107000000         -0.003402476557   -0.007861449429   0.2445379426      -0.9610211825     
                  0.2445379426      -0.9610211825     -0.01038231684    -0.008841891201   
108000000         -0.003651030646   -0.007855863911   0.2326558381      -0.9639175664     
                  0.2326558381      -0.9639175664     -0.01067836671    -0.008812574705   
109000000         -0.003820754262   -0.007791897108   0.2207796348      -0.9666753273     
                  0.2207796348      -0.9666753273     -0.01090124709    -0.008651032186   
110000000         -0.004032704951   -0.007827993189   0.2088059696      -0.9693142282     
                  0.2088059696      -0.9693142282     -0.01099986039    -0.008498581549   
111000000         -0.004258616488   -0.007824548648   0.1968425598      -0.9717869159     
                  0.1968425598      -0.9717869159     -0.01131550634    -0.008363464202   
112000000         -0.004387371624   -0.007839100969   0.1848673221      -0.9741565844     
                  0.1848673221      -0.9741565844     -0.01153163642    -0.008303172165   
113000000         -0.00461472434    -0.007747281897   0.1728216372      -0.9763172793     
                  0.1728216372      -0.9763172793     -0.01184159517    -0.008175278931   
114000000         -0.004823382188   -0.007746544115   0.160781211       -0.9783248018     
                  0.160781211       -0.9783248018     -0.01220113937    -0.008115615256   
115000000         -0.004993137339   -0.007737897724   0.1487521477      -0.9802097427     
                  0.1487521477      -0.9802097427     -0.0123671654     -0.007925009685   
116000000         -0.00519358007    -0.007744684635   0.136621731       -0.9819345417     
                  0.136621731       -0.9819345417     -0.01251672223    -0.007884241739   
117000000         -0.005348000875   -0.007689042622   0.1244866372      -0.9834901594     
                  0.1244866372      -0.9834901594     -0.01256965603    -0.007515696298   
118000000         -0.005535525007   -0.00761034093    0.1124187031      -0.984903582      
                  0.1124187031      -0.984903582      -0.01287842195    -0.00734027501    
119000000         -0.005783168349   -0.007550471133   0.1002835549      -0.9862081817     
                  0.1002835549      -0.9862081817     -0.01313518764    -0.007212043934   
120000000         -0.005905768696   -0.00746160645    0.08809107381     -0.9873324949     
                  0.08809107381     -0.9873324949     -0.01317170735    -0.006923160019   
121000000         -0.006027782712   -0.007485047078   0.07586340583     -0.9883448152     
                  0.07586340583     -0.9883448152     -0.01360745266    -0.006890016941   
122000000         -0.006194829959   -0.00741900946    0.0636612918      -0.9891658213     
                  0.0636612918      -0.9891658213     -0.01370276567    -0.006688280458   
123000000         -0.006331865279   -0.007323584791   0.05144808932     -0.9898316922     
                  0.05144808932     -0.9898316922     -0.01383122019    -0.006476397687   
124000000         -0.00652479332    -0.007271251944   0.03926999274     -0.9903446794     
                  0.03926999274     -0.9903446794     -0.01406971139    -0.006300585849   
125000000         -0.006638277541   -0.00720279965    0.02707006092     -0.9907679861     
                  0.02707006092     -0.9907679861     -0.01408557602    -0.006064526013   
126000000         -0.006779387085   -0.007097428929   0.01487883533     -0.9910156039     
                  0.01487883533     -0.9910156039     -0.01420689682    -0.005874013399   
127000000         -0.006983100367   -0.006986207942   0.002676235266    -0.9910866386     
                  0.002676235266    -0.9910866386     -0.01441551709    -0.00567223995    
128000000         -0.007126808782   -0.006902440339   -0.009504226484   -0.9910532405     
                  -0.009504226484   -0.9910532405     -0.01449187899    -0.005560266246   
129000000         -0.00718452154    -0.006762152593   -0.02165116135    -0.9908082997     
                  -0.02165116135    -0.9908082997     -0.01454604634    -0.005226206121   
130000000         -0.007415729477   -0.006681706897   -0.03388629708    -0.9904622221     
                  -0.03388629708    -0.9904622221     -0.0146010574     -0.005089696233   
131000000         -0.007509228983   -0.006634811399   -0.04604741006    -0.9899873997     
                  -0.04604741006    -0.9899873997     -0.01466135335    -0.004954898217   
132000000         -0.007654283271   -0.006519320664   -0.05816828781    -0.9892787218     
                  -0.05816828781    -0.9892787218     -0.01472608387    -0.00469294241    
133000000         -0.007794770372   -0.006417038968   -0.070349204      -0.988481202      
                  -0.070349204      -0.988481202      -0.01483035391    -0.004443116966   
134000000         -0.007984670192   -0.006241567744   -0.08249899959    -0.9875438414     
                  -0.08249899959    -0.9875438414     -0.01515709426    -0.004206175884   
135000000         -0.008071101611   -0.006153719284   -0.09460263618    -0.9863789494     
                  -0.09460263618    -0.9863789494     -0.01510375503    -0.004003508977   
136000000         -0.008296750405   -0.006077460601   -0.1067070783     -0.9851086305     
                  -0.1067070783     -0.9851086305     -0.0152191993     -0.004028295365   
137000000         -0.00834389949    -0.005975029605   -0.1187905597     -0.9837163605     
                  -0.1187905597     -0.9837163605     -0.01511501048    -0.003643307852   
138000000         -0.008517689829   -0.005836035973   -0.1308832126     -0.982143455      
                  -0.1308832126     -0.982143455      -0.01534904416    -0.003365676673   
139000000         -0.008629262311   -0.005693692563   -0.1429092061     -0.9804127578     
                  -0.1429092061     -0.9804127578     -0.01526250238    -0.003221190137   
140000000         -0.008783039613   -0.005568489274   -0.1549192084     -0.978566006      
                  -0.1549192084     -0.978566006      -0.01531166275    -0.003081392377   
141000000         -0.008917507562   -0.005409716025   -0.1669731412     -0.9765965727     
                  -0.1669731412     -0.9765965727     -0.01548037404    -0.002861157844   
142000000         -0.009048621466   -0.005289381931   -0.17894723       -0.9744015431     
                  -0.17894723       -0.9744015431     -0.01553178374    -0.002747494456   
143000000         -0.009101107508   -0.005149192859   -0.1909431024     -0.9720889828     
                  -0.1909431024     -0.9720889828     -0.01553681389    -0.00227634814    
144000000         -0.009260888728   -0.004978224228   -0.2028404894     -0.969618402      
                  -0.2028404894     -0.969618402      -0.01559838041    -0.002225203837   
145000000         -0.00930241836    -0.004857380136   -0.2147437358     -0.9670611202     
                  -0.2147437358     -0.9670611202     -0.01575749606    -0.001928988576   
146000000         -0.009427864484   -0.004660671516   -0.2266112319     -0.9642913955     
                  -0.2266112319     -0.9642913955     -0.0158059118     -0.001772069443   
147000000         -0.009497302434   -0.004597261063   -0.2384629497     -0.9614232615     
                  -0.2384629497     -0.9614232615     -0.0156251227     -0.001753765459   
148000000         -0.009577953157   -0.004407737286   -0.250240065      -0.9583595352     
                  -0.250240065      -0.9583595352     -0.01571961088    -0.001495816477   
149000000         -0.009704018937   -0.004254145698   -0.2620037522     -0.955162872      
                  -0.2620037522     -0.955162872      -0.0157233126     -0.001366285772   
150000000         -0.009772904717   -0.004056964432   -0.273714221      -0.9518261213     
                  -0.273714221      -0.9518261213     -0.01566193112    -0.001169638268   
151000000         -0.009831875756   -0.003873917657   -0.2854800558     -0.9483567384     
                  -0.2854800558     -0.9483567384     -0.01565185478    -0.001016314168   
152000000         -0.009946014949   -0.003764544251   -0.297101506      -0.9447388765     
                  -0.297101506      -0.9447388765     -0.0157646212     -0.0009212281073  
153000000         -0.009977142771   -0.003567861261   -0.3087044925     -0.9409731534     
                  -0.3087044925     -0.9409731534     -0.01570724793    -0.0005835109405  
154000000         -0.0100333962     -0.003344111783   -0.320228816      -0.9370406332     
                  -0.320228816      -0.9370406332     -0.0155550414     -0.0003954097647  
155000000         -0.01006039309    -0.003217090422   -0.3317164193     -0.9329792085     
                  -0.3317164193     -0.9329792085     -0.01546780901    -9.422696456e-05  
156000000         -0.01016470027    -0.003054381301   -0.3432150396     -0.9287864554     
                  -0.3432150396     -0.9287864554     -0.01549584107    -6.96786242e-05   
157000000         -0.01020609682    -0.002870135624   -0.3546506989     -0.9244312812     
                  -0.3546506989     -0.9244312812     -0.01543676011    8.233614558e-05   
158000000         -0.01020351172    -0.002700492325   -0.3660427748     -0.9199167297     
                  -0.3660427748     -0.9199167297     -0.01522814602    0.0002561805946   
159000000         -0.01028627176    -0.002527864516   -0.3773530738     -0.9152784436     
                  -0.3773530738     -0.9152784436     -0.01518933364    0.0003750938863   
160000000         -0.01025841101    -0.002391067227   -0.3885883769     -0.9105374618     
                  -0.3885883769     -0.9105374618     -0.01509343992    0.0004250039711   
161000000         -0.01023054528    -0.002176761478   -0.3998007644     -0.9056172113     
                  -0.3998007644     -0.9056172113     -0.01492533476    0.0007642219274   
162000000         -0.0102028137     -0.002041270404   -0.4109470217     -0.9005152641     
                  -0.4109470217     -0.9005152641     -0.01477190161    0.001089613436    
163000000         -0.01019368766    -0.001811726676   -0.4220398923     -0.8953381561     
                  -0.4220398923     -0.8953381561     -0.01484272917    0.001436078711    
164000000         -0.01018525289    -0.001651765851   -0.4330373649     -0.8900452196     
                  -0.4330373649     -0.8900452196     -0.01475955389    0.001617586211    
165000000         -0.01018495522    -0.00145473379    -0.4439911988     -0.8846123851     
                  -0.4439911988     -0.8846123851     -0.01461865066    0.001817429206    
166000000         -0.01011030856    -0.001279714816   -0.4548721143     -0.8790154701     
                  -0.4548721143     -0.8790154701     -0.01459751064    0.002126187705    
167000000         -0.01007995762    -0.001059567508   -0.4656642334     -0.8733900729     
                  -0.4656642334     -0.8733900729     -0.01435293252    0.002268189911    
168000000         -0.01009317133    -0.0008667593596  -0.4763401289     -0.8675502534     
                  -0.4763401289     -0.8675502534     -0.01436479137    0.002618757076    
169000000         -0.01002465879    -0.0007176923871  -0.4870000941     -0.8616067031     
                  -0.4870000941     -0.8616067031     -0.01428356048    0.002805152382    
170000000         -0.01000241579    -0.0005026032032  -0.4974706317     -0.8555614932     
                  -0.4974706317     -0.8555614932     -0.01414241629    0.003017037627    
171000000         -0.009940530394   -0.0002827705898  -0.5079349766     -0.8494141676     
                  -0.5079349766     -0.8494141676     -0.01408012516    0.003341515904    
172000000         -0.009893559083   -9.201669905e-05  -0.5182641213     -0.8431029291     
                  -0.5182641213     -0.8431029291     -0.01378768484    0.003589754774    
173000000         -0.009860298366   0.0001329257844   -0.5285489706     -0.8366827635     
                  -0.5285489706     -0.8366827635     -0.01380545494    0.003689497707    
174000000         -0.009793382543   0.0002930576294   -0.5387087491     -0.8301585296     
                  -0.5387087491     -0.8301585296     -0.0136964933     0.003722777787    
175000000         -0.009768370792   0.000494925751    -0.5488177675     -0.8234771482     
                  -0.5488177675     -0.8234771482     -0.01375943989    0.003958324516    
176000000         -0.009719795573   0.0006667478198   -0.5588259495     -0.8167103223     
                  -0.5588259495     -0.8167103223     -0.0134454382     0.004156907928    
177000000         -0.009657738748   0.0008745859446   -0.5687993566     -0.8097678583     
                  -0.5687993566     -0.8097678583     -0.01338137704    0.004290700306    
178000000         -0.00961709033    0.001072009399    -0.5786280259     -0.8026801509     
                  -0.5786280259     -0.8026801509     -0.01329654813    0.004455157082    
179000000         -0.009526287996   0.001267385686    -0.5884185614     -0.7955322449     
                  -0.5884185614     -0.7955322449     -0.01314231553    0.004581777777    
180000000         -0.009499282199   0.001449217143    -0.5981348491     -0.7882627303     
                  -0.5981348491     -0.7882627303     -0.0129983648     0.004738860279    
181000000         -0.009348926414   0.001645703369    -0.6077403025     -0.780831952      
                  -0.6077403025     -0.780831952      -0.01300262724    0.005049613898    
182000000         -0.009273533225   0.001795251916    -0.6172567796     -0.7732657596     
                  -0.6172567796     -0.7732657596     -0.01276290224    0.005087952118    
183000000         -0.009207015291   0.002022057584    -0.6266840048     -0.7656392317     
                  -0.6266840048     -0.7656392317     -0.01262894872    0.005256288123    
184000000         -0.00913156502    0.002160207555    -0.6360195821     -0.7578495519     
                  -0.6360195821     -0.7578495519     -0.01247093527    0.005334075356    
185000000         -0.008999813811   0.002329149548    -0.6452376418     -0.7499915508     
                  -0.6452376418     -0.7499915508     -0.0124761905     0.005582647094    
186000000         -0.008915155474   0.002551176944    -0.6543817286     -0.7420134437     
                  -0.6543817286     -0.7420134437     -0.01205981494    0.005776318627    
187000000         -0.008847952647   0.002674167509    -0.6634391552     -0.733873765      
                  -0.6634391552     -0.733873765      -0.01195355325    0.005932424815    
188000000         -0.008669180751   0.00284274839     -0.6723812726     -0.7256672957     
                  -0.6723812726     -0.7256672957     -0.01180996821    0.00612154774     
189000000         -0.008618321667   0.003015613188    -0.6812267243     -0.7173409487     
                  -0.6812267243     -0.7173409487     -0.01156160905    0.006098005055    
190000000         -0.008453072777   0.003156233781    -0.6899878576     -0.7088672637     
                  -0.6899878576     -0.7088672637     -0.01150809549    0.006348428724    
191000000         -0.008277709208   0.003336661673    -0.6986093478     -0.7003051171     
                  -0.6986093478     -0.7003051171     -0.0113088077     0.006449818808    
192000000         -0.008124388584   0.003497049755    -0.7073526626     -0.6916439301     
                  -0.7073526626     -0.6916439301     -0.01126127428    0.006726017268    
193000000         -0.007959382309   0.003649352663    -0.7155941131     -0.6828438545     
                  -0.7155941131     -0.6828438545     -0.01084668325    0.006511527599    
194000000         -0.00790893346    0.003760611703    -0.7239532252     -0.6738413989     
                  -0.7239532252     -0.6738413989     -0.01073249306    0.006743815344    
195000000         -0.007647236053   0.003882191936    -0.7321916552     -0.6648116576     
                  -0.7321916552     -0.6648116576     -0.01052864797    0.006803102921    
196000000         -0.007428130041   0.004023895255    -0.740412162      -0.6556269401     
                  -0.740412162      -0.6556269401     -0.010443394      0.006853253947    
197000000         -0.007227313385   0.004187382093    -0.7485075754     -0.6462980153     
                  -0.7485075754     -0.6462980153     -0.01039256899    0.00680199099     
198000000         -0.007041360358   0.004298494306    -0.7564334164     -0.6368371931     
                  -0.7564334164     -0.6368371931     -0.01007555712    0.007077378303    
199000000         -0.006820328062   0.004438753967    -0.7642573517     -0.6273509305     
                  -0.7642573517     -0.6273509305     -0.01014888814    0.006975372532    
200000000         -0.006618626777   0.004540997259    -0.7719939544     -0.6177044801     
                  -0.7719939544     -0.6177044801     -0.009942948167   0.007175818025    
