! RsaToolbox (C) 2014 Rohde & Schwarz America
! 
! Number of points: 401
! Number of ports: 2
! Balanced ports?: No
! 
! 
# Hz S RI R 50
300000            0.0001544490903   0.000223551702    0.9997783371      4.414550379e-05   
                  0.9997783371      4.414550379e-05   0.0001490343865   -8.386678461e-05  
20299250          3.582851969e-05   -0.0001284302744  0.9997576137      9.976635304e-05   
                  0.9997576137      9.976635304e-05   0.0004927868318   0.000138366214    
40298500          0.0001228860793   -3.429583778e-05  1.00014643        0.0003670471933   
                  1.00014643        0.0003670471933   0.0001856150217   -0.0001872727737  
60297750          0.0001584709932   7.985265412e-06   1.000141001       0.0003155033141   
                  1.000141001       0.0003155033141   0.0001590403432   -0.000138297694   
80297000          3.076336966e-06   2.603606812e-05   1.000196682       0.0004033558441   
                  1.000196682       0.0004033558441   0.00028992016     -3.134367762e-06  
100296250         0.0001126519361   -9.660734042e-06  1.000276235       0.0004655382311   
                  1.000276235       0.0004655382311   2.128736145e-05   2.894920989e-05   
120295500         3.083868232e-07   2.041051823e-05   1.000340068       0.0004140120505   
                  1.000340068       0.0004140120505   0.0004563569808   7.251175462e-05   
140294750         4.353448366e-05   8.746604266e-05   1.000448222       0.0005849327361   
                  1.000448222       0.0005849327361   0.0003091103205   -9.029914993e-05  
160294000         -4.870190482e-05  -3.548344602e-07  1.000392309       0.0005509996124   
                  1.000392309       0.0005509996124   0.0003324930371   -7.733101844e-05  
180293250         -6.575373209e-05  3.7493524e-05     1.000475248       0.0006473052288   
                  1.000475248       0.0006473052288   0.0004383414136   -0.000257582302   
200292500         5.576992335e-06   -3.55730923e-05   1.000422834       0.0005410946992   
                  1.000422834       0.0005410946992   5.622606065e-05   -0.0002136845682  
220291750         3.162893313e-05   2.416807735e-05   1.000423771       0.0003239423067   
                  1.000423771       0.0003239423067   7.229318679e-06   -0.0002902659853  
240291000         -0.0001018784601  -4.5414052e-05    1.00039729        0.0005495823657   
                  1.00039729        0.0005495823657   4.924030836e-06   -0.0001064344079  
260290250         -5.060806277e-05  -6.964255792e-05  1.000439245       0.0005709343621   
                  1.000439245       0.0005709343621   -6.644418372e-05  -5.035494166e-05  
280289500         -1.464941878e-05  4.269496442e-06   1.000417566       0.0006278443482   
                  1.000417566       0.0006278443482   7.445806402e-05   0.0001042399332   
300288750         -2.518095979e-05  2.107031492e-05   1.000474259       0.0006310222289   
                  1.000474259       0.0006310222289   0.0001029158719   0.0001909380196   
320288000         -4.943854087e-05  5.891642567e-05   1.000440739       0.0006281934036   
                  1.000440739       0.0006281934036   0.000350655133    0.0003116043934   
340287250         -0.0001684414837  8.492642415e-05   1.000433047       0.0005582141745   
                  1.000433047       0.0005582141745   0.0004493587276   0.0002223372131   
360286500         -0.0001784608489  0.00011673434     1.000415013       0.0005681260801   
                  1.000415013       0.0005681260801   0.0005383521835   0.0001300274029   
380285750         -0.0003365712733  0.000190650047    1.000413876       0.0006044199589   
                  1.000413876       0.0006044199589   0.0005502749881   0.0002646750526   
400285000         -0.0003715188525  8.932929439e-05   1.000449081       0.0005861383994   
                  1.000449081       0.0005861383994   0.0006775511732   -9.095363203e-05  
420284250         -0.0004396380466  2.884006183e-05   1.000381758       0.000559631353    
                  1.000381758       0.000559631353    0.0004029905944   -0.0001307288658  
440283500         -0.0005326391281  -8.38122479e-05   1.000428246       0.0005760759096   
                  1.000428246       0.0005760759096   0.0004091390424   -0.0003552983171  
460282750         -0.0005245839896  -0.0002387627979  1.000478229       0.0005971100825   
                  1.000478229       0.0005971100825   0.0002298011544   -0.0003963957615  
480282000         -0.0004746046763  -0.0002542867298  1.000359122       0.0005434516424   
                  1.000359122       0.0005434516424   2.152656861e-05   -4.066030906e-05  
500281250         -0.0004406665275  -0.000396607251   1.000388077       0.0005094543297   
                  1.000388077       0.0005094543297   -4.68322589e-06   -7.953060114e-05  
520280500         -0.0003137590126  -0.0004441983103  1.000322426       0.0004745325114   
                  1.000322426       0.0004745325114   3.139884319e-05   -3.501409118e-05  
540279750         -0.0001671296544  -0.0003981207207  1.000269348       0.0004844303923   
                  1.000269348       0.0004844303923   7.103438994e-05   0.0002841575241   
560279000         -5.206562358e-05  -0.0003608466603  1.000261773       0.0006370560431   
                  1.000261773       0.0006370560431   0.0001914408773   0.0003336305058   
580278250         3.745909161e-05   -0.0003605074311  1.00030513        0.0005691551514   
                  1.00030513        0.0005691551514   0.0003795043903   0.0001373379366   
600277500         2.401125131e-05   -0.0001819751869  1.000221662       0.000633935251    
                  1.000221662       0.000633935251    0.0002126969572   4.372744745e-05   
620276750         1.884742447e-05   -8.792516829e-05  1.000268808       0.0005996187922   
                  1.000268808       0.0005996187922   0.000389022142    -2.615784533e-05  
640276000         -2.644675501e-05  6.528488615e-05   1.000266918       0.0006273394511   
                  1.000266918       0.0006273394511   0.0002361970678   0.0001251431286   
660275250         -0.0001307960022  0.0001316994282   1.000382852       0.0007585988845   
                  1.000382852       0.0007585988845   0.0001971494608   -0.0003540334259  
680274500         -0.0002042642854  0.0001640417165   1.000353496       0.0008667761952   
                  1.000353496       0.0008667761952   0.0002451467304   -0.0002097071693  
700273750         -0.0002589593157  0.0001922514602   1.00043417        0.0008761733635   
                  1.00043417        0.0008761733635   0.0003423691143   -0.0003224072062  
720273000         -0.0003782907979  0.0001267696768   1.000421744       0.0009082857288   
                  1.000421744       0.0009082857288   0.0001345657545   -0.0001226359373  
740272250         -0.0004885980865  3.978727395e-05   1.000476479       0.0008927336816   
                  1.000476479       0.0008927336816   0.0002058408001   -0.0002036771031  
760271500         -0.0005458767618  -6.549874725e-05  1.000436025       0.0008692919687   
                  1.000436025       0.0008692919687   0.0001447575603   -3.669289217e-05  
780270750         -0.0004211727919  -0.00012209072    1.000539415       0.0007409118059   
                  1.000539415       0.0007409118059   0.0001876800395   -4.577937546e-05  
800270000         -0.0003735913996  -0.000187212995   1.000501506       0.0006814914839   
                  1.000501506       0.0006814914839   0.0002674866585   3.286702288e-05   
820269250         -0.0003193168818  -0.000274844516   1.000418275       0.0006359006672   
                  1.000418275       0.0006359006672   0.0004059766955   3.365639125e-05   
840268500         -0.0002564922666  -0.0002090857016  1.000489931       0.0005166414807   
                  1.000489931       0.0005166414807   6.1673502e-05     -0.0002187788111  
860267750         -0.0002045561585  -0.0001095956664  1.000393882       0.0005752454511   
                  1.000393882       0.0005752454511   -9.270709509e-05  -0.0003088112067  
880267000         -0.0001928301854  -4.059129211e-05  1.000470938       0.0006297696432   
                  1.000470938       0.0006297696432   5.697566041e-06   -0.0002811360893  
900266250         -0.00020643521    3.134903702e-05   1.000436824       0.0006206871724   
                  1.000436824       0.0006206871724   -7.609957299e-05  -0.0002904068416  
920265500         -0.0003406108716  0.0001472392324   1.000393851       0.000594924208    
                  1.000393851       0.000594924208    -4.200909472e-05  -0.0001825891186  
940264750         -0.0004197642757  -6.110221849e-05  1.000282249       0.0005801638977   
                  1.000282249       0.0005801638977   -1.824714259e-05  0.0002623143227   
960264000         -0.0004922333097  -1.459912948e-05  1.00022913        0.0005898917654   
                  1.00022913        0.0005898917654   -0.0001305190097  0.0001787918014   
980263250         -0.000632646254   -0.0001586604877  1.000184747       0.0006219592802   
                  1.000184747       0.0006219592802   0.0002128877416   0.0002906831813   
1000262500        -0.0006283495413  -0.0002456959018  1.000096683       0.0006134855482   
                  1.000096683       0.0006134855482   -5.907404542e-06  0.0001504644675   
1020261750        -0.0006666450377  -0.0002950071214  1.000168163       0.000617783355    
                  1.000168163       0.000617783355    0.0002547705744   -7.82335209e-05   
1040261000        -0.0005848427139  -0.0005724310128  1.000057545       0.000695344891    
                  1.000057545       0.000695344891    0.0001924539954   0.0001628320857   
1060260250        -0.0004047985904  -0.0005493123376  1.000110475       0.0007043887008   
                  1.000110475       0.0007043887008   0.0004273604255   -0.0001987764261  
1080259500        -0.0001764423493  -0.0006464048173  1.000179884       0.000820661276    
                  1.000179884       0.000820661276    0.0002893047716   -0.0003493081855  
1100258750        -0.0001162221346  -0.0005787834678  1.00027923        0.0009526699009   
                  1.00027923        0.0009526699009   0.0003521834791   -0.0003325109127  
1120258000        0.0001693332676   -0.000463608105   1.000276498       0.0009474618271   
                  1.000276498       0.0009474618271   -2.813671908e-05  -0.0004195536834  
1140257250        0.0003127714502   -0.0002815651819  1.000406125       0.0009151937884   
                  1.000406125       0.0009151937884   -4.475873615e-05  -0.0004953032668  
1160256500        0.0002777130115   -0.0001247669741  1.000267334       0.0008390896832   
                  1.000267334       0.0008390896832   -0.0004015497012  -0.0002082060199  
1180255750        0.0001778160279   0.0001277967119   1.000321312       0.0008721354383   
                  1.000321312       0.0008721354383   -0.000311069761   0.0002091456708   
1200255000        6.254558962e-05   0.0001987882752   1.000286507       0.0007229710162   
                  1.000286507       0.0007229710162   -0.0004329780828  0.0002636609196   
1220254250        -0.0001184388985  0.0003719212435   1.000322894       0.0006447772167   
                  1.000322894       0.0006447772167   2.205754309e-06   0.0003100979228   
1240253500        -0.0003604946905  0.0004812543853   1.000316625       0.0006085262166   
                  1.000316625       0.0006085262166   0.0004491647443   0.0003018255606   
1260252750        -0.00052082542    0.0004066139929   1.000265439       0.0006834865165   
                  1.000265439       0.0006834865165   0.0003148253882   0.0002629025733   
1280252000        -0.0006903985351  0.0002599582796   1.000218333       0.0007271961582   
                  1.000218333       0.0007271961582   0.0006477051799   0.000163576341    
1300251250        -0.000692860165   4.958912653e-05   1.000272897       0.0007343094081   
                  1.000272897       0.0007343094081   0.0005536518111   -5.465038698e-05  
1320250500        -0.0006697695022  -0.0001950607256  1.000218518       0.0007933337969   
                  1.000218518       0.0007933337969   0.000627438461    -0.0002944515565  
1340249750        -0.000646823375   -0.0004411120506  1.000181173       0.0007866022289   
                  1.000181173       0.0007866022289   0.0002946626021   -0.0006063321573  
1360249000        -0.0004617188221  -0.0004517711656  1.000160892       0.0007384357859   
                  1.000160892       0.0007384357859   0.0003966129183   -0.0006650582654  
1380248250        -0.0002814930922  -0.0004955553634  1.000164921       0.0006484328048   
                  1.000164921       0.0006484328048   0.0001229128351   -0.0007746956781  
1400247500        -0.0001373815946  -0.0003261296571  1.000138601       0.0007795148448   
                  1.000138601       0.0007795148448   -1.371051517e-05  -0.0004627354518  
1420246750        6.68447372e-05    -0.0003695496305  1.00009879        0.0007773381614   
                  1.00009879        0.0007773381614   0.0002228334785   -0.0006400351754  
1440246000        -3.964123889e-05  -3.073120853e-05  1.000042723       0.0008280881186   
                  1.000042723       0.0008280881186   -0.0001952827393  -0.0002558827904  
1460245250        -0.0001640761198  0.0001016640283   1.000086002       0.0008490047038   
                  1.000086002       0.0008490047038   -0.0001016024967  -6.945673602e-05  
1480244500        -0.0002734850199  5.973732484e-05   1.000008264       0.0008971288773   
                  1.000008264       0.0008971288773   3.973397352e-05   -0.0001830758766  
1500243750        -0.0004180235082  0.0001031341933   1.000003183       0.001022915269    
                  1.000003183       0.001022915269    0.0003042452348   8.055653341e-05   
1520243000        -0.0006166426852  -8.44073587e-06   1.000036648       0.00102761028     
                  1.000036648       0.00102761028     0.0003901519045   4.75614651e-05    
1540242250        -0.0006588330182  -0.0002465147359  0.999896445       0.001016231633    
                  0.999896445       0.001016231633    0.0003732725059   -1.169931073e-05  
1560241500        -0.0006364071988  -0.0004587081411  0.99994275        0.001014739911    
                  0.99994275        0.001014739911    0.0006622618371   -0.0004326874761  
1580240750        -0.0005605731578  -0.0005362422949  0.9999383827      0.001055564849    
                  0.9999383827      0.001055564849    0.0002524306439   -0.0004515817011  
1600240000        -0.0003016688071  -0.0007709562199  0.9999840467      0.00105617232     
                  0.9999840467      0.00105617232     0.0006628713972   -0.0008429987045  
1620239250        -6.630039303e-05  -0.0007567997953  1.000002229       0.001014697204    
                  1.000002229       0.001014697204    0.0003272486234   -0.0007978424759  
1640238500        6.769891072e-05   -0.0006635238748  1.000012954       0.001029221016    
                  1.000012954       0.001029221016    3.997749545e-05   -0.0008826360171  
1660237750        0.0002593515065   -0.0004548063029  1.00008278        0.0009686705509   
                  1.00008278        0.0009686705509   -0.0001322544232  -0.000485900338   
1680237000        0.0003355596305   -0.0002926512455  1.000127983       0.0009059872056   
                  1.000127983       0.0009059872056   -0.0002163102085  -0.0002240455808  
1700236250        0.000310064606    7.741961537e-05   1.000085835       0.001019101962    
                  1.000085835       0.001019101962    -0.0003104723012  -0.0001685029791  
1720235500        0.0001143366479   0.0001690176256   1.000188138       0.0009047217049   
                  1.000188138       0.0009047217049   -0.0002039210223  5.593783807e-05   
1740234750        -0.0002311332133  0.000228442368    1.000116848       0.0009121029271   
                  1.000116848       0.0009121029271   -0.0001723870963  -0.0003181286973  
1760234000        -0.0003300823517  0.0001763177465   1.000137339       0.001023565495    
                  1.000137339       0.001023565495    0.0001117988851   -0.0002002192364  
1780233250        -0.0005946357328  6.626450958e-05   1.000193482       0.00110348827     
                  1.000193482       0.00110348827     9.785338247e-05   -4.725489821e-05  
1800232500        -0.0006916158014  -0.000269103353   1.000208148       0.001120339645    
                  1.000208148       0.001120339645    0.0005109163801   -7.13941173e-05   
1820231750        -0.0007417784495  -0.0005152862398  1.000262043       0.0009767838024   
                  1.000262043       0.0009767838024   0.0004042543079   -0.0005135627171  
1840231000        -0.0005861087917  -0.0008048705388  1.000208413       0.0008612599636   
                  1.000208413       0.0008612599636   0.0003529541906   -0.0004784207538  
1860230250        -0.0002592329195  -0.0009180141823  1.000169715       0.0009243719162   
                  1.000169715       0.0009243719162   0.0001430655722   -0.0006292886093  
1880229500        -8.933247479e-05  -0.0009821354798  1.000232537       0.001085205428    
                  1.000232537       0.001085205428    3.988385399e-05   -0.0007961007238  
1900228750        0.0001872498609   -0.0008261705487  1.000176631       0.001047479153    
                  1.000176631       0.001047479153    2.565566599e-05   -0.000862866685   
1920228000        0.0003199959299   -0.0007404842001  1.00013879        0.0009814583445   
                  1.00013879        0.0009814583445   0.0002911966505   -0.000529661331   
1940227250        0.0003931292307   -0.0005335008667  1.000141986       0.0009568013379   
                  1.000141986       0.0009568013379   -4.027939738e-05  -0.0005482860607  
1960226500        0.0003197222989   -0.0002489236378  1.000229508       0.0009251335324   
                  1.000229508       0.0009251335324   0.0001196646308   -0.0005304921034  
1980225750        0.0002823745671   -0.0001199371629  1.000237942       0.001033467236    
                  1.000237942       0.001033467236    -0.0003300474256  -0.0003691391065  
2000225000        1.490011276e-05   5.486639221e-05   1.000327962       0.001004321192    
                  1.000327962       0.001004321192    -5.051113115e-05  -0.0004150606442  
2020224250        -0.000202881041   2.521592404e-05   1.000377716       0.0009669485536   
                  1.000377716       0.0009669485536   -0.0001942505137  -0.0004060039325  
2040223500        -0.0004316897557  -0.0001059905992  1.000345019       0.001037326063    
                  1.000345019       0.001037326063    -0.000144644811   -0.0004161965371  
2060222750        -0.0006499178403  -0.0004468335443  1.000386773       0.0009769625038   
                  1.000386773       0.0009769625038   -0.0002046456887  -0.0002023548027  
2080222000        -0.0005572944916  -0.0006677687326  1.000333502       0.0008812291999   
                  1.000333502       0.0008812291999   -0.0001257304412  -0.0002073828383  
2100221250        -0.0004176936195  -0.0009797647153  1.000302983       0.000824957274    
                  1.000302983       0.000824957274    -6.98811982e-05   -0.0003107098808  
2120220500        -0.0001547148935  -0.001000810478   1.000242434       0.0008046013847   
                  1.000242434       0.0008046013847   2.342027663e-05   -0.0004642913723  
2140219750        0.0002110394237   -0.00100479255    1.000215915       0.0009431676128   
                  1.000215915       0.0009431676128   4.460808757e-05   -0.0007157240658  
2160219000        0.0003819419231   -0.0008873120378  1.000158627       0.0008688352885   
                  1.000158627       0.0008688352885   0.0003141567595   -0.00075296097    
