! RsaToolbox (C) 2014 Rohde & Schwarz America
! 
! Number of points: 401
! Number of ports: 2
! Balanced ports?: No
! 
! 
# Hz S RI R 50
300000            0.0004938794741   0.0003781584841   0.9992506758      -0.003908605552   
                  0.9992506758      -0.003908605552   0.001015179736    0.0001580172795   
20299250          0.003933414913    0.0004053455183   0.963426811       -0.2539062957     
                  0.963426811       -0.2539062957     0.001895565924    -0.002342961805   
40298500          0.00495711676     -0.002235183642   0.8676151413      -0.4846386146     
                  0.8676151413      -0.4846386146     -0.0009656050884  -0.004200129165   
60297750          0.004256899353    -0.005393917287   0.7185754109      -0.6845949562     
                  0.7185754109      -0.6845949562     -0.00413210917    -0.00524618535    
80297000          0.002134997752    -0.008192064576   0.5249775408      -0.8410560245     
                  0.5249775408      -0.8410560245     -0.007412728358   -0.005808884044   
100296250         -0.001235706279   -0.01011260186    0.2991187375      -0.9444858323     
                  0.2991187375      -0.9444858323     -0.01078485119    -0.004900694569   
120295500         -0.005502179086   -0.01035083276    0.05476141587     -0.9887579777     
                  0.05476141587     -0.9887579777     -0.01320378356    -0.002377523591   
140294750         -0.00935164267    -0.008591701792   -0.1926847871     -0.9707328329     
                  -0.1926847871     -0.9707328329     -0.01392996791    0.001203109861    
160294000         -0.01166870401    -0.005074962628   -0.427433912      -0.8917668251     
                  -0.427433912      -0.8917668251     -0.01182670925    0.00474936269     
180293250         -0.01176436502    -0.0006601241004  -0.6352260631     -0.7572248116     
                  -0.6352260631     -0.7572248116     -0.009746716407   0.007616546844    
200292500         -0.009685984451   0.003306994884    -0.80289765       -0.5753449034     
                  -0.80289765       -0.5753449034     -0.005897292099   0.00935890635     
220291750         -0.005832901258   0.005929502511    -0.920378796      -0.3574227735     
                  -0.920378796      -0.3574227735     -0.0008953823088  0.009303769585    
240291000         -0.00120836747    0.006179209714    -0.9799523653     -0.1178070716     
                  -0.9799523653     -0.1178070716     0.002684540033    0.006523792736    
260290250         0.002950427871    0.004257024085    -0.9780733138     0.1292752773      
                  -0.9780733138     0.1292752773      0.00477071529     0.002299409942    
280289500         0.005578625785    0.0004705889357   -0.9150034864     0.3679650564      
                  -0.9150034864     0.3679650564      0.004610585652    -0.002226630308   
300288750         0.00581434799     -0.004327442218   -0.7945895226     0.5835004683      
                  -0.7945895226     0.5835004683      0.002223245926    -0.006309211304   
320288000         0.003400751407    -0.008647153109   -0.6245065671     0.7622724364      
                  -0.6245065671     0.7622724364      -0.002024577577   -0.008455519577   
340287250         -0.001141622918   -0.01157700483    -0.4154837574     0.8931466101      
                  -0.4154837574     0.8931466101      -0.006473886555   -0.008809752557   
360286500         -0.006710590326   -0.01204393984    -0.1805449227     0.9679080986      
                  -0.1805449227     0.9679080986      -0.01027260517    -0.007378314736   
380285750         -0.01205877666    -0.009954742859   0.06543310107     0.9820546174      
                  0.06543310107     0.9820546174      -0.0126440369     -0.003978417835   
400285000         -0.01576477672    -0.005292273587   0.3070545234      0.9346935876      
                  0.3070545234      0.9346935876      -0.01401162542    -0.0004094922373  
420284250         -0.01626825266    -0.0001517635136  0.5293491224      0.8288761515      
                  0.5293491224      0.8288761515      -0.01387931928    0.003784735611    
440283500         -0.01454831276    0.004793656803    0.7182458267      0.6712926157      
                  0.7182458267      0.6712926157      -0.0108249414     0.007031695119    
460282750         -0.01036907409    0.008145250095    0.8621132858      0.4718166658      
                  0.8621132858      0.4718166658      -0.006752854502   0.00890515108     
480282000         -0.005075032733   0.009041051273    0.9519885087      0.2428970137      
                  0.9519885087      0.2428970137      -0.002512641354   0.008295581444    
500281250         0.0002667845786   0.007303674905    0.9822298182      -0.00106153023    
                  0.9822298182      -0.00106153023    0.000763650888    0.005872309545    
520280500         0.004134739767    0.003165086491    0.9509059219      -0.2448747845     
                  0.9509059219      -0.2448747845     0.002335022831    0.001662906289    
540279750         0.005608953985    -0.002041129387   0.8601083034      -0.4731230213     
                  0.8601083034      -0.4731230213     0.001990466501    -0.001878587426   
560279000         0.004191895403    -0.007159750366   0.7155373013      -0.6716318625     
                  0.7155373013      -0.6716318625     -0.0005399943145  -0.005213867877   
580278250         0.0004433676772   -0.01065932167    0.5261888313      -0.8279170801     
                  0.5261888313      -0.8279170801     -0.003373621794   -0.006925769014   
600277500         -0.004474844137   -0.01178789587    0.304057186       -0.9323669613     
                  0.304057186       -0.9323669613     -0.00718420435    -0.007289571433   
620276750         -0.009482462362   -0.01023527627    0.06302556226     -0.9783401474     
                  0.06302556226     -0.9783401474     -0.01006907354    -0.005646580636   
640276000         -0.01320596301    -0.006483675161   -0.18181292       -0.9630377944     
                  -0.18181292       -0.9630377944     -0.01203079186    -0.002913015041   
660275250         -0.01453451032    -0.001533661633   -0.414987119      -0.8874892287     
                  -0.414987119      -0.8874892287     -0.01292403558    0.000573654662    
680274500         -0.01319096128    0.003303468642    -0.6220242323     -0.7565825775     
                  -0.6220242323     -0.7565825775     -0.01209061148    0.004081614821    
700273750         -0.00972194442    0.006700251536    -0.7901593403     -0.5784165937     
                  -0.7901593403     -0.5784165937     -0.009722393751   0.006799755972    
720273000         -0.005155049087   0.007731032659    -0.9087925892     -0.3641135696     
                  -0.9087925892     -0.3641135696     -0.00651480429    0.007667726062    
740272250         -0.0005152940303  0.006288522063    -0.9705223642     -0.1271267364     
                  -0.9705223642     -0.1271267364     -0.003415422436   0.006834505362    
760271500         0.002864122881    0.002854311233    -0.9715307466     0.1177602397      
                  -0.9715307466     0.1177602397      -0.00159952772    0.00472191183     
780270750         0.004162726958    -0.001860434208   -0.9116228901     0.3552578976      
                  -0.9116228901     0.3552578976      -0.0009076331006  0.001916079525    
800270000         0.00312176334     -0.006468100317   -0.7947572548     0.5703474946      
                  -0.7947572548     0.5703474946      -0.001765913944   -0.0005745316705  
820269250         4.329543199e-05   -0.00962858927    -0.6280002371     0.7496370716      
                  -0.6280002371     0.7496370716      -0.004014422434   -0.001908232451   
840268500         -0.004088060326   -0.01075092486    -0.4221537475     0.8818919151      
                  -0.4221537475     0.8818919151      -0.006027733437   -0.001946266914   
860267750         -0.008210898733   -0.009425893239   -0.1899873022     0.9587704467      
                  -0.1899873022     0.9587704467      -0.007956983301   -0.001207240554   
880267000         -0.01118242041    -0.006147579637   0.05384084918     0.9756245945      
                  0.05384084918     0.9756245945      -0.009368674367   0.0003816969902   
900266250         -0.01240822911    -0.001580189187   0.2942490148      0.9315300407      
                  0.2942490148      0.9315300407      -0.01027580295    0.002128520985    
920265500         -0.01122800117    0.003076660464    0.5161366617      0.8290587045      
                  0.5161366617      0.8290587045      -0.01016828109    0.00440981208     
940264750         -0.008244218209   0.00634375933     0.7054493849      0.6748311582      
                  0.7054493849      0.6748311582      -0.009166787245   0.006418936937    
960264000         -0.004389513556   0.00797850408     0.8507270583      0.478457703       
                  0.8507270583      0.478457703       -0.007643207086   0.008042454404    
980263250         -0.0005286028967  0.007371930586    0.9426347858      0.2522665462      
                  0.9426347858      0.2522665462      -0.00545812402    0.008831614847    
1000262500        0.002444992066    0.004937131894    0.9754629172      0.01055219748     
                  0.9754629172      0.01055219748     -0.003117551381   0.008378483859    
1020261750        0.003707150756    0.001498833457    0.9473475199      -0.2318246026     
                  0.9473475199      -0.2318246026     -0.001244052727   0.006772597411    
1040261000        0.003147009555    -0.002320953845   0.8599664587      -0.4595559646     
                  0.8599664587      -0.4595559646     -0.0004478008722  0.004843449735    
1060260250        0.001047971139    -0.005241744143   0.718925445       -0.6584755093     
                  0.718925445       -0.6584755093     -0.0005134768808  0.0033238332      
1080259500        -0.001710461944   -0.006578530452   0.5329861776      -0.8159993871     
                  0.5329861776      -0.8159993871     -0.001411884738   0.002475439095    
1100258750        -0.004678648054   -0.006310397581   0.3138101733      -0.9226139352     
                  0.3138101733      -0.9226139352     -0.002579296864   0.002413663405    
1120258000        -0.006585056112   -0.004659711312   0.07510219942     -0.9714472728     
                  0.07510219942     -0.9714472728     -0.00286861372    0.002574733882    
1140257250        -0.007410700359   -0.002049125195   -0.1683790001     -0.9595538765     
                  -0.1683790001     -0.9595538765     -0.003568063377   0.00235563996     
1160256500        -0.006328813375   0.0006563951657   -0.4012590635     -0.8875396312     
                  -0.4012590635     -0.8875396312     -0.003544696884   0.002414450523    
1180255750        -0.003982739212   0.002837295936    -0.6088198958     -0.7600359159     
                  -0.6088198958     -0.7600359159     -0.00385404533    0.00318753729     
1200255000        -0.0006349622413  0.003761030604    -0.7783080209     -0.5849135565     
                  -0.7783080209     -0.5849135565     -0.003721281307   0.003402986397    
1220254250        0.002552162295    0.003211089524    -0.8989442709     -0.3734153776     
                  -0.8989442709     -0.3734153776     -0.003759532109   0.003861012199    
1240253500        0.005167804816    0.001404534742    -0.9632827099     -0.1385282165     
                  -0.9632827099     -0.1385282165     -0.003985418588   0.004136588505    
1260252750        0.006621183956    -0.001337446916   -0.9672251338     0.104955415       
                  -0.9672251338     0.104955415       -0.004010628698   0.00447493177     
1280252000        0.006731100303    -0.004305796162   -0.9107639002     0.3415813482      
                  -0.9107639002     0.3415813482      -0.003949278193   0.004372195436    
1300251250        0.0054799169      -0.006856774324   -0.7973641193     0.5566457491      
                  -0.7973641193     0.5566457491      -0.003980269915   0.004876882762    
1320250500        0.003477617549    -0.008601552757   -0.6341365668     0.7368956444      
                  -0.6341365668     0.7368956444      -0.003947501429   0.005618868601    
1340249750        0.0009764344401   -0.009306132229   -0.4313117142     0.8710916678      
                  -0.4313117142     0.8710916678      -0.003715031106   0.006513700407    
1360249000        -0.001213201736   -0.008885923189   -0.2016783008     0.9506281229      
                  -0.2016783008     0.9506281229      -0.002459951962   0.007839544671    
1380248250        -0.002690667634   -0.007602653555   0.04056165405     0.9707705855      
                  0.04056165405     0.9707705855      -0.0007845592442  0.007831828473    
1400247500        -0.003276611038   -0.005841670105   0.2799843337      0.9300656205      
                  0.2799843337      0.9300656205      0.0008542458055   0.00683834035     
1420246750        -0.002668970933   -0.004353914469   0.5018864508      0.8313449714      
                  0.5018864508      0.8313449714      0.00212554332     0.004905290867    
1440246000        -0.00129166529    -0.003112608041   0.6923761993      0.6806965526      
                  0.6923761993      0.6806965526      0.002278349661    0.003182209443    
1460245250        0.0008895494797   -0.002693183811   0.839439616       0.4874257886      
                  0.839439616       0.4874257886      0.001300281861    0.0007940303599   
1480244500        0.003091677852    -0.002963600383   0.9339643574      0.2637850303      
                  0.9339643574      0.2637850303      -0.0006886707386  -0.0002588729363  
1500243750        0.005188260716    -0.004086809861   0.9701910103      0.02388597475     
                  0.9701910103      0.02388597475     -0.003125725837   -0.0005270150417  
1520243000        0.006836163821    -0.006054066995   0.9455119356      -0.2175224617     
                  0.9455119356      -0.2175224617     -0.005330956062   -0.0001292770791  
1540242250        0.007666178292    -0.008362926653   0.8617703018      -0.4452938005     
                  0.8617703018      -0.4452938005     -0.007313312416   0.001688682083    
1560241500        0.007578450943    -0.01053849766    0.7241130289      -0.6450348464     
                  0.7241130289      -0.6450348464     -0.008227722106   0.004820355685    
1580240750        0.006604423931    -0.01276884921    0.5414501906      -0.8042504558     
                  0.5414501906      -0.8042504558     -0.008116678709   0.008581043774    
1600240000        0.005116666804    -0.01438604465    0.3248558247      -0.9133280086     
                  0.3248558247      -0.9133280086     -0.005898737341   0.01171881222     
1620239250        0.003136855608    -0.01534543657    0.08804956956     -0.9652056071     
                  0.08804956956     -0.9652056071     -0.001876213009   0.01354008712     
1640238500        0.001051808263    -0.01568093915    -0.1541903457     -0.9566542692     
                  -0.1541903457     -0.9566542692     0.002719295536    0.01316901373     
1660237750        -0.0005906811858  -0.01509625041    -0.3867359975     -0.8883196205     
                  -0.3867359975     -0.8883196205     0.006968257408    0.01025266464     
1680237000        -0.001627373348   -0.01413654738    -0.5950396322     -0.7644889166     
                  -0.5950396322     -0.7644889166     0.009612276085    0.00518032114     
1700236250        -0.001855401001   -0.01302007632    -0.7659453896     -0.592864167      
                  -0.7659453896     -0.592864167      0.00916414579     0.0001176557702   
1720235500        -0.001123163805   -0.01205082129    -0.8890881094     -0.3841934159     
                  -0.8890881094     -0.3841934159     0.007076518524    -0.004167314965   
1740234750        0.0001578818374   -0.01145994005    -0.9563924165     -0.151625462      
                  -0.9563924165     -0.151625462      0.002409532788    -0.007909904672   
1760234000        0.001995409952    -0.01183797843    -0.9639924345     0.09041252746     
                  -0.9639924345     0.09041252746     -0.002967161014   -0.008853654308   
1780233250        0.003735757664    -0.01290365835    -0.9112244286     0.3266809212      
                  -0.9112244286     0.3266809212      -0.008766104134   -0.007563453374   
1800232500        0.005164474934    -0.01486187061    -0.8015239063     0.5426058761      
                  -0.8015239063     0.5426058761      -0.01370074014    -0.003225126182   
1820231750        0.005569444966    -0.01735737839    -0.64167316       0.7245010403      
                  -0.64167316       0.7245010403      -0.01586231914    0.003141472195    
1840231000        0.005004716412    -0.01977520154    -0.4417489063     0.8608619079      
                  -0.4417489063     0.8608619079      -0.0151674274     0.009714255559    
1860230250        0.003173789464    -0.02180003656    -0.2142650772     0.9433809551      
                  -0.2142650772     0.9433809551      -0.0113739261     0.015561915       
1880229500        0.001009756507    -0.02317881186    0.0264882189      0.9668022404      
                  0.0264882189      0.9668022404      -0.004674076879   0.01839168876     
1900228750        -0.001584908833   -0.02337158149    0.2653088288      0.9298115339      
                  0.2653088288      0.9298115339      0.002788539474    0.01826497221     
1920228000        -0.00402519849    -0.02248483928    0.4877840822      0.83473754        
                  0.4877840822      0.83473754        0.009376979479    0.01424025596     
1940227250        -0.005468047877   -0.0208874135     0.679617112       0.6874134417      
                  0.679617112       0.6874134417      0.01298816964     0.007620765007    
1960226500        -0.00589843058    -0.01909009365    0.8288200814      0.4973290646      
                  0.8288200814      0.4973290646      0.01294811701     -0.0002694888775  
1980225750        -0.005087609208   -0.01760491023    0.9261743574      0.2761590149      
                  0.9261743574      0.2761590149      0.009556398285    -0.007502311533   
2000225000        -0.003396935361   -0.01687335279    0.9656012826      0.03779055308     
                  0.9656012826      0.03779055308     0.003044344834    -0.0126194327     
2020224250        -0.001367451387   -0.01760696433    0.9446663968      -0.202912532      
                  0.9446663968      -0.202912532      -0.005254113271   -0.01390435913    
2040223500        0.0005648982864   -0.0194552506     0.8646341635      -0.4308263078     
                  0.8646341635      -0.4308263078     -0.01361330925    -0.01119854665    
2060222750        0.001476879622    -0.02225422944    0.7304643719      -0.6318230549     
                  0.7304643719      -0.6318230549     -0.01997715706    -0.005061957251   
2080222000        0.0009750961547   -0.02554554367    0.5507150618      -0.7930797607     
                  0.5507150618      -0.7930797607     -0.02287691821    0.003868876863    
2100221250        -0.0006580647835  -0.02811687215    0.33664511        -0.9047540061     
                  0.33664511        -0.9047540061     -0.02100120821    0.01355600276     
2120220500        -0.003480178129   -0.03001670835    0.1016446379      -0.9597882235     
                  0.1016446379      -0.9597882235     -0.01457719023    0.02103497485     
2140219750        -0.006761128775   -0.03042028938    -0.1398165759     -0.9547081613     
                  -0.1398165759     -0.9547081613     -0.005523692237   0.02533764676     
2160219000        -0.009696774061   -0.02941458823    -0.3723161002     -0.8899582261     
                  -0.3723161002     -0.8899582261     0.004810132476    0.02420757103     
