! RsaToolbox (C) 2015 Rohde & Schwarz America
! 
! Number of points: 911
! Number of ports: 2
! Balanced ports?: No
! 
! 
# Hz S RI R 50
9900000000        0.7686192303      -0.09442688423    -0.8857859381     0.04529011894     -0.8857859381     0.04529011894     0.2338730836      0.7324220712      
9910000000        0.7900845587      -0.1392336975     -0.8914597601     0.07024421811     -0.8914597601     0.07024421811     0.2563940181      0.7153511645      
9920000000        0.8107553106      -0.1778824808     -0.8962021306     0.09530750409     -0.8962021306     0.09530750409     0.2781885469      0.6986693845      
9930000000        0.8260060989      -0.2121312151     -0.8997814715     0.1206388892      -0.8997814715     0.1206388892      0.2994764764      0.6802849567      
9940000000        0.8314966283      -0.2434599691     -0.9021025219     0.145463102       -0.9021025219     0.145463102       0.3180620036      0.6613927593      
9950000000        0.8250403216      -0.2767162437     -0.9034772111     0.1704811079      -0.9034772111     0.1704811079      0.3364145508      0.6420322076      
9960000000        0.8067650253      -0.3137810047     -0.903928867      0.1951702133      -0.903928867      0.1951702133      0.3532585931      0.6230386803      
9970000000        0.7784827708      -0.3562126321     -0.903247331      0.2195737098      -0.903247331      0.2195737098      0.3684261752      0.6033260833      
9980000000        0.7444282526      -0.4044236101     -0.9015340457     0.2437637511      -0.9015340457     0.2437637511      0.3824813289      0.5833174472      
9990000000        0.7099720738      -0.4568676734     -0.8988818945     0.2676735727      -0.8988818945     0.2676735727      0.3952731403      0.5627573883      
1e+10             0.6801974082      -0.5114754766     -0.8955346071     0.2914519165      -0.8955346071     0.2914519165      0.407407323       0.5424422648      
1.001e+10         0.6576198268      -0.5637109734     -0.8913405244     0.3147684736      -0.8913405244     0.3147684736      0.4186056495      0.5220176291      
1.002e+10         0.6432864996      -0.6117586597     -0.8865044689     0.3377609565      -0.8865044689     0.3377609565      0.4285280653      0.5017756889      
1.003e+10         0.6345135138      -0.6520909688     -0.8806607723     0.3601914219      -0.8806607723     0.3601914219      0.4371954938      0.4811707805      
1.004e+10         0.6278703918      -0.6841767263     -0.8743378424     0.3822740293      -0.8743378424     0.3822740293      0.445057053       0.4611156022      
1.005e+10         0.6181088477      -0.7077021066     -0.8673705242     0.4037054734      -0.8673705242     0.4037054734      0.4517869625      0.4410759991      
1.006e+10         0.6005254457      -0.7246579213     -0.8596697002     0.424472692       -0.8596697002     0.424472692       0.4575296772      0.4220380859      
1.007e+10         0.5717268235      -0.7386005133     -0.8515399548     0.4451276341      -0.8515399548     0.4451276341      0.4626982799      0.4027393311      
1.008e+10         0.5312504711      -0.7516046639     -0.8427896389     0.4649050713      -0.8427896389     0.4649050713      0.4665537119      0.3833212588      
1.009e+10         0.4808330013      -0.7672960261     -0.8334656286     0.4842435056      -0.8334656286     0.4842435056      0.4696907624      0.3643999704      
1.01e+10          0.4253727262      -0.7875129538     -0.8238444191     0.5030223593      -0.8238444191     0.5030223593      0.472178874       0.3462931887      
1.011e+10         0.3698597541      -0.8126651107     -0.8137464637     0.5215112252      -0.8137464637     0.5215112252      0.4738851364      0.3282050996      
1.012e+10         0.3194481735      -0.8413543534     -0.8031902411     0.5395042026      -0.8031902411     0.5395042026      0.4753250712      0.3103795745      
1.013e+10         0.2782159612      -0.8715448276     -0.792466072      0.5569507801      -0.792466072      0.5569507801      0.4757202688      0.2931937309      
1.014e+10         0.2473444132      -0.898979257      -0.7812163896     0.5737384705      -0.7812163896     0.5737384705      0.4753355672      0.2760364078      
1.015e+10         0.2256680102      -0.9214082717     -0.7697963064     0.5903157691      -0.7697963064     0.5903157691      0.4748558663      0.2597166083      
1.016e+10         0.208855601       -0.9354254338     -0.7580313738     0.6062452327      -0.7580313738     0.6062452327      0.4738001306      0.2435327436      
1.017e+10         0.1919305751      -0.9409761645     -0.7460432207     0.6219298973      -0.7460432207     0.6219298973      0.4725817401      0.22788578        
1.018e+10         0.1703984097      -0.9377710135     -0.7339070377     0.6368449111      -0.7339070377     0.6368449111      0.4701126132      0.2128045807      
1.019e+10         0.1393009545      -0.9289418866     -0.7215089067     0.6514442793      -0.7215089067     0.6514442793      0.4679398875      0.1980875562      
1.02e+10          0.09773053028     -0.9176676156     -0.7089040999     0.6655568893      -0.7089040999     0.6655568893      0.4653350087      0.183686426       
1.021e+10         0.04684854411     -0.9073748759     -0.6960698615     0.6790908582      -0.6960698615     0.6790908582      0.4621085129      0.1696287384      
1.022e+10         -0.00990727387    -0.9019211043     -0.6831243553     0.6925060835      -0.6831243553     0.6925060835      0.4588792854      0.156149947       
1.023e+10         -0.06689376458    -0.9025287195     -0.6701678388     0.7053828858      -0.6701678388     0.7053828858      0.4553424725      0.1431026714      
1.024e+10         -0.118523137      -0.9090662321     -0.6570829382     0.7177850605      -0.6570829382     0.7177850605      0.4513656977      0.1305705941      
1.025e+10         -0.1613990128     -0.9196097067     -0.6436780022     0.7300330857      -0.6436780022     0.7300330857      0.447732316       0.1180678199      
1.026e+10         -0.1920395        -0.9311875428     -0.6304380877     0.7416470047      -0.6304380877     0.7416470047      0.443113896       0.1064615452      
1.027e+10         -0.212236123      -0.9398567537     -0.6169193031     0.7531498632      -0.6169193031     0.7531498632      0.4387557553      0.09464808233     
1.028e+10         -0.2244536153     -0.9419724565     -0.6034250094     0.7640439998      -0.6034250094     0.7640439998      0.4340139247      0.0834026537      
1.029e+10         -0.2337686558     -0.9355100606     -0.5899550926     0.7745926022      -0.5899550926     0.7745926022      0.4289980649      0.07289314671     
1.03e+10          -0.2460192306     -0.9195239475     -0.576248938      0.78467802        -0.576248938      0.78467802        0.4237230124      0.06269362326     
1.031e+10         -0.2656471776     -0.8957165764     -0.5624605238     0.794420832       -0.5624605238     0.794420832       0.4180256696      0.05232527976     
1.032e+10         -0.2958121831     -0.8674177332     -0.5487100646     0.8040331412      -0.5487100646     0.8040331412      0.4127666959      0.04264149926     
1.033e+10         -0.3364908521     -0.8381673419     -0.5348244281     0.8132403345      -0.5348244281     0.8132403345      0.4072312298      0.0331719091      
1.034e+10         -0.3845985442     -0.8120068778     -0.5208675011     0.8220254162      -0.5208675011     0.8220254162      0.4013573034      0.02404602511     
1.035e+10         -0.4360332108     -0.7923595846     -0.506925539      0.8307744982      -0.506925539      0.8307744982      0.3960682893      0.01540283053     
1.036e+10         -0.4843935803     -0.7804171179     -0.4929437674     0.8390618624      -0.4929437674     0.8390618624      0.390133915       0.006962882584    
1.037e+10         -0.5249899701     -0.775453397      -0.4788735797     0.8472047535      -0.4788735797     0.8472047535      0.3844708591      -0.0009939255223  
1.038e+10         -0.5544750326     -0.7751840079     -0.4649349836     0.8549740672      -0.4649349836     0.8549740672      0.3784976153      -0.008762191302   
1.039e+10         -0.5721943539     -0.7755409955     -0.4508823518     0.8624186425      -0.4508823518     0.8624186425      0.3725580926      -0.01618484864    
1.04e+10          -0.5806181503     -0.7719682279     -0.4366547989     0.8696685476      -0.4366547989     0.8696685476      0.3666649201      -0.02373979865    
1.041e+10         -0.5830428655     -0.7611675307     -0.4225768357     0.8764475064      -0.4225768357     0.8764475064      0.3602955784      -0.03052742463    
1.042e+10         -0.5855487379     -0.7410914308     -0.4085668662     0.8829924962      -0.4085668662     0.8829924962      0.3540868983      -0.03721675453    
1.043e+10         -0.5930215552     -0.7114711006     -0.3944970274     0.8891861111      -0.3944970274     0.8891861111      0.3478540679      -0.04370417049    
1.044e+10         -0.6096641107     -0.6746972135     -0.3802403177     0.8952610853      -0.3802403177     0.8952610853      0.3419227969      -0.04993857082    
1.045e+10         -0.6362708416     -0.6349178899     -0.3660428119     0.9011437605      -0.3660428119     0.9011437605      0.3358128499      -0.05616071682    
1.046e+10         -0.6715194307     -0.5964651643     -0.3518775736     0.9068072139      -0.3518775736     0.9068072139      0.329858572       -0.0619247229     
1.047e+10         -0.7116962322     -0.5636998573     -0.3377507913     0.9122552169      -0.3377507913     0.9122552169      0.3237898773      -0.06732475707    
1.048e+10         -0.7512146576     -0.5393663781     -0.3236547453     0.9174505531      -0.3236547453     0.9174505531      0.3178566457      -0.07253801432    
1.049e+10         -0.7850422716     -0.5232813266     -0.3095180859     0.9223843263      -0.3095180859     0.9223843263      0.3116035816      -0.07756051207    
1.05e+10          -0.8096084607     -0.5143805608     -0.2953427597     0.9269927303      -0.2953427597     0.9269927303      0.3056954818      -0.08250733809    
1.051e+10         -0.822589169      -0.5096742741     -0.2812817228     0.9314189889      -0.2812817228     0.9314189889      0.2994282884      -0.08684512021    
1.052e+10         -0.8257631521     -0.503546274      -0.2672822882     0.935614729       -0.2672822882     0.935614729       0.293381334       -0.09123479407    
1.053e+10         -0.8218199811     -0.4920632931     -0.2533295962     0.93944906        -0.2533295962     0.93944906        0.2870159238      -0.09516290389    
1.054e+10         -0.8156421032     -0.4713419491     -0.239235428      0.9430162886      -0.239235428      0.9430162886      0.2808266075      -0.09940277921    
1.055e+10         -0.8121808703     -0.4404597313     -0.2250808631     0.946440915       -0.2250808631     0.946440915       0.2748478382      -0.1034369431     
1.056e+10         -0.8156558517     -0.4009581192     -0.211071122      0.9497566156      -0.211071122      0.9497566156      0.2686290648      -0.1070893251     
1.057e+10         -0.8284821741     -0.3562021083     -0.1969159066     0.9528151675      -0.1969159066     0.9528151675      0.262844632       -0.1105891132     
1.058e+10         -0.8497422257     -0.3110250694     -0.1828510148     0.9556795084      -0.1828510148     0.9556795084      0.2568467234      -0.1140344942     
1.059e+10         -0.8769506892     -0.2697596091     -0.168713909      0.9583719086      -0.168713909      0.9583719086      0.251217745       -0.1172156566     
1.06e+10          -0.9063239949     -0.2370072564     -0.1547765715     0.9610452832      -0.1547765715     0.9610452832      0.2453758874      -0.1201005097     
1.061e+10         -0.9317486311     -0.2145963396     -0.1408114794     0.9632167657      -0.1408114794     0.9632167657      0.2396255154      -0.1229058849     
1.062e+10         -0.9500859565     -0.2013112591     -0.1268263927     0.9653061086      -0.1268263927     0.9653061086      0.2339695321      -0.1256146212     
1.063e+10         -0.9584559804     -0.1942874769     -0.1129633951     0.9670560822      -0.1129633951     0.9670560822      0.2281950803      -0.1280652015     
1.064e+10         -0.956839126      -0.1885524921     -0.09905377914    0.9686936045      -0.09905377914    0.9686936045      0.2225058666      -0.1303402482     
1.065e+10         -0.9472350823     -0.1791695427     -0.08520435311    0.9700427442      -0.08520435311    0.9700427442      0.216907996       -0.1326310287     
1.066e+10         -0.9334173171     -0.1615886041     -0.07132145889    0.971342029       -0.07132145889    0.971342029       0.2112744945      -0.1344347294     
1.067e+10         -0.9196939098     -0.1337004655     -0.05747699023    0.9723270714      -0.05747699023    0.9723270714      0.2057669851      -0.1367114359     
1.068e+10         -0.9105052709     -0.09598898916    -0.04363714488    0.9731639732      -0.04363714488    0.9731639732      0.200342346       -0.1385255922     
1.069e+10         -0.9087324919     -0.05116938519    -0.02975806099    0.9738299862      -0.02975806099    0.9738299862      0.1950729882      -0.1401650553     
1.07e+10          -0.915316135      -0.004035563607   -0.01593978233    0.9743443102      -0.01593978233    0.9743443102      0.189961953       -0.1418644404     
1.071e+10         -0.9284340317     0.03989176986     -0.002206061659   0.9746532313      -0.002206061659   0.9746532313      0.1847355055      -0.1433970206     
1.072e+10         -0.9450467743     0.07610847866     0.01152085603     0.9748199314      0.01152085603     0.9748199314      0.1797120345      -0.1446298119     
1.073e+10         -0.9605468647     0.1021612152      0.02518711719     0.9746519331      0.02518711719     0.9746519331      0.1745011294      -0.1460494735     
1.074e+10         -0.971096927      0.1174417397      0.03866939417     0.9743211726      0.03866939417     0.9743211726      0.1694549902      -0.1470538164     
1.075e+10         -0.9739921773     0.1252049492      0.05225988051     0.9738858347      0.05225988051     0.9738858347      0.1643805418      -0.1478387043     
1.076e+10         -0.9673909205     0.1294328387      0.06563251255     0.973204183       0.06563251255     0.973204183       0.1592368761      -0.1487218093     
1.077e+10         -0.9517456162     0.1368724494      0.07903575206     0.9723803624      0.07903575206     0.9723803624      0.1543582579      -0.1494919127     
1.078e+10         -0.9302951425     0.1521872623      0.09238279893     0.9712386727      0.09238279893     0.9712386727      0.1495480155      -0.1503419666     
1.079e+10         -0.9071631409     0.1775993115      0.1057761138      0.9699787379      0.1057761138      0.9699787379      0.1446370732      -0.1511280831     
1.08e+10          -0.8867915755     0.2137909383      0.119093873       0.9686688284      0.119093873       0.9686688284      0.1400504471      -0.1515859715     
1.081e+10         -0.8724079547     0.2585734297      0.1324135553      0.967180025       0.1324135553      0.967180025       0.1356614789      -0.1519169877     
1.082e+10         -0.8659463601     0.3074979768      0.1457317604      0.965431615       0.1457317604      0.965431615       0.1312641265      -0.1524952961     
1.083e+10         -0.8675245712     0.3540468829      0.1588141647      0.9636215214      0.1588141647      0.9636215214      0.1267714685      -0.1526249326     
1.084e+10         -0.8747688661     0.393454224       0.1719767686      0.9616086666      0.1719767686      0.9616086666      0.1223748894      -0.152695086      
1.085e+10         -0.8840676772     0.4216903259      0.1849143373      0.9593537922      0.1849143373      0.9593537922      0.1177043559      -0.1527745831     
1.086e+10         -0.8912988263     0.4376633056      0.19776246        0.9568946035      0.19776246        0.9568946035      0.1133173138      -0.1527654888     
1.087e+10         -0.8921693067     0.4437770885      0.210520974       0.9543693809      0.210520974       0.9543693809      0.108916269       -0.1525693284     
1.088e+10         -0.8842438725     0.4445757789      0.2233090465      0.9515355028      0.2233090465      0.9515355028      0.1045949686      -0.1525600038     
1.089e+10         -0.8665213776     0.4455119354      0.2360616043      0.9486153999      0.2360616043      0.9486153999      0.1003678167      -0.1523311456     
1.09e+10          -0.8408501742     0.4524463761      0.2487157828      0.9455480326      0.2487157828      0.9455480326      0.09626574085     -0.1520852911     
1.091e+10         -0.81088158       0.469099997       0.2613673431      0.9422558507      0.2613673431      0.9422558507      0.09223986124     -0.151825227      
1.092e+10         -0.7806415483     0.4968777448      0.2739818517      0.9388916825      0.2739818517      0.9388916825      0.08854190759     -0.1513539546     
1.093e+10         -0.7537869463     0.5347968016      0.2865710668      0.9352820713      0.2865710668      0.9352820713      0.08479302635     -0.1508159603     
1.094e+10         -0.7346967544     0.578421088       0.2990390459      0.9315855175      0.2990390459      0.9315855175      0.08103736945     -0.1504388817     
1.095e+10         -0.7241917331     0.6215661718      0.3113621267      0.9277337471      0.3113621267      0.9277337471      0.0772028435      -0.1497801857     
1.096e+10         -0.7214529778     0.6587841013      0.3236068633      0.9238057186      0.3236068633      0.9238057186      0.07369892446     -0.1489401468     
1.097e+10         -0.7238347735     0.6855732304      0.3356815684      0.9196680993      0.3356815684      0.9196680993      0.07001369948     -0.1482381187     
1.098e+10         -0.7263964725     0.6999140371      0.3477384302      0.9152424961      0.3477384302      0.9152424961      0.06630539689     -0.147456934      
1.099e+10         -0.7253271479     0.703388014       0.3596735972      0.9108887019      0.3596735972      0.9108887019      0.06265390683     -0.1464513698     
1.1e+10           -0.7164047878     0.6992004432      0.3715457419      0.9062279267      0.3715457419      0.9062279267      0.0591862009      -0.145602504      
1.101e+10         -0.6977318847     0.6927402718      0.3832767771      0.901474581       0.3832767771      0.901474581       0.05573665443     -0.1446498891     
1.102e+10         -0.6691893085     0.6902855065      0.3950838847      0.8965520339      0.3950838847      0.8965520339      0.05257742889     -0.1437762475     
1.103e+10         -0.6331962494     0.6967198052      0.4068593494      0.8914203547      0.4068593494      0.8914203547      0.0494620741      -0.1427162156     
1.104e+10         -0.5942948166     0.7144913464      0.4185070807      0.8861945531      0.4185070807      0.8861945531      0.04641538997     -0.1419360299     
1.105e+10         -0.5568057287     0.7431289492      0.4300820114      0.8808380287      0.4300820114      0.8808380287      0.04356886053     -0.1407504014     
1.106e+10         -0.525606627      0.7795228191      0.4414612317      0.875408263       0.4414612317      0.875408263       0.04060472025     -0.1396116859     
1.107e+10         -0.5033709143     0.8187326122      0.4527684652      0.8697571075      0.4527684652      0.8697571075      0.03757220687     -0.1384585806     
1.108e+10         -0.4911397253     0.8543215942      0.4639509857      0.8640168349      0.4639509857      0.8640168349      0.03446905223     -0.1372069681     
1.109e+10         -0.4868063612     0.8809547082      0.4749870843      0.8581449476      0.4749870843      0.8581449476      0.03162145047     -0.1358834073     
1.11e+10          -0.4867079786     0.8958184111      0.4860037203      0.8521476578      0.4860037203      0.8521476578      0.02879165314     -0.1345181113     
