! RsaToolbox (C) 2015 Rohde & Schwarz America
! 
! Number of points: 911
! Number of ports: 2
! Balanced ports?: No
! 
! 
# Hz S RI R 50
9900000000        -0.002240572838   0.5882390932      -0.8569623602     0.02976403431     -0.8569623602     0.02976403431     0.2232612194      0.75363912        
9910000000        0.005781626911    0.577983512       -0.8628958797     0.05386174768     -0.8628958797     0.05386174768     0.2463488505      0.7367305066      
9920000000        0.01319778689     0.5678610041      -0.8681069447     0.07843950653     -0.8681069447     0.07843950653     0.2697730193      0.7187918456      
9930000000        0.02005453318     0.5576668308      -0.8723564308     0.1024798041      -0.8723564308     0.1024798041      0.2904909887      0.7021895964      
9940000000        0.02624573528     0.5479100305      -0.8751568714     0.126657563       -0.8751568714     0.126657563       0.3101313628      0.6832472821      
9950000000        0.03188305152     0.5382114577      -0.8770599354     0.1511269601      -0.8770599354     0.1511269601      0.3295801218      0.6640169474      
9960000000        0.0370015723      0.5287871728      -0.8781078341     0.1752337104      -0.8781078341     0.1752337104      0.3474373978      0.6448283201      
9970000000        0.0417264039      0.51961116        -0.8783250434     0.1991014966      -0.8783250434     0.1991014966      0.3639145054      0.6253081405      
9980000000        0.04606048255     0.5105624561      -0.8775739755     0.2227955198      -0.8775739755     0.2227955198      0.3797296842      0.6057089612      
9990000000        0.05006941832     0.5018696909      -0.8757792933     0.2463086891      -0.8757792933     0.2463086891      0.3941036152      0.5853336882      
1e+10             0.05362764703     0.493392433       -0.8730620131     0.2695862083      -0.8730620131     0.2695862083      0.4074311049      0.5646997905      
1.001e+10         0.05709942295     0.4851620081      -0.8696993886     0.2925457952      -0.8696993886     0.2925457952      0.4198949932      0.5442361785      
1.002e+10         0.06017761103     0.4774315134      -0.8655298258     0.3147108159      -0.8655298258     0.3147108159      0.43012318        0.524033769       
1.003e+10         0.06315333036     0.4699783816      -0.8606058516     0.3369516963      -0.8606058516     0.3369516963      0.4407054502      0.5037380845      
1.004e+10         0.06573474426     0.4628599206      -0.8550656667     0.3588114229      -0.8550656667     0.3588114229      0.4500650141      0.4832196793      
1.005e+10         0.06807417681     0.4563088318      -0.8487817985     0.3796163116      -0.8487817985     0.3796163116      0.4570575586      0.4632913287      
1.006e+10         0.07004224015     0.4497478498      -0.8418963392     0.4004575986      -0.8418963392     0.4004575986      0.4642736733      0.4430514881      
1.007e+10         0.0719604483      0.4435526035      -0.8343011812     0.4205641665      -0.8343011812     0.4205641665      0.4700855632      0.4234245786      
1.008e+10         0.073787304       0.4375411569      -0.8261127893     0.4404185747      -0.8261127893     0.4404185747      0.4751440557      0.4033634886      
1.009e+10         0.07557471223     0.4316355322      -0.817643552      0.4599524204      -0.817643552      0.4599524204      0.4796994845      0.3840702605      
1.01e+10          0.07727175483     0.4261890841      -0.8084958359     0.4785462003      -0.8084958359     0.4785462003      0.4823110657      0.3649030401      
1.011e+10         0.07893169915     0.4205833602      -0.7993346291     0.4969120984      -0.7993346291     0.4969120984      0.485296039       0.3470034318      
1.012e+10         0.08062212682     0.4153317349      -0.7891624294     0.5147859948      -0.7891624294     0.5147859948      0.4865667595      0.328088352       
1.013e+10         0.08234095433     0.410276581       -0.7790534608     0.532321956       -0.7790534608     0.532321956       0.4881378333      0.3102109037      
1.014e+10         0.08417382142     0.4054431594      -0.7686854204     0.549216503       -0.7686854204     0.549216503       0.4888097547      0.2931425288      
1.015e+10         0.08595486083     0.4009719316      -0.7577723934     0.5655957874      -0.7577723934     0.5655957874      0.4889357924      0.2760894634      
1.016e+10         0.0876970098      0.3966116469      -0.7467565772     0.5816867814      -0.7467565772     0.5816867814      0.4884922198      0.2596284966      
1.017e+10         0.08937433478     0.3926363048      -0.7352352906     0.5972021817      -0.7352352906     0.5972021817      0.4877637761      0.2430908024      
1.018e+10         0.09111054124     0.388646544       -0.7234659315     0.6121167531      -0.7234659315     0.6121167531      0.4861258463      0.2270426574      
1.019e+10         0.09267794116     0.3848183933      -0.7119284339     0.6268012811      -0.7119284339     0.6268012811      0.4849042856      0.2123049501      
1.02e+10          0.09447119504     0.3812120815      -0.6999281115     0.640732487       -0.6999281115     0.640732487       0.4821297783      0.1973298225      
1.021e+10         0.09614284265     0.3775518819      -0.6876148487     0.6544421186      -0.6876148487     0.6544421186      0.4795438588      0.1825860908      
1.022e+10         0.09772806837     0.3738842804      -0.6751087031     0.6678258736      -0.6751087031     0.6678258736      0.4764501315      0.1682273617      
1.023e+10         0.09946978456     0.370361118       -0.6626560289     0.6807279507      -0.6626560289     0.6807279507      0.4731621465      0.1546607526      
1.024e+10         0.1012075637      0.3667425417      -0.6500818012     0.6932355406      -0.6500818012     0.6932355406      0.4695710781      0.1416008807      
1.025e+10         0.1030956315      0.3632587294      -0.6374381929     0.7054056083      -0.6374381929     0.7054056083      0.465703351       0.1289099837      
1.026e+10         0.1049379791      0.359601336       -0.624562783      0.7172811962      -0.624562783      0.7172811962      0.4620187277      0.1168552873      
1.027e+10         0.1070469681      0.3562435509      -0.6115730913     0.7286611614      -0.6115730913     0.7286611614      0.457528971       0.104806224       
1.028e+10         0.109178884       0.3531609127      -0.5984216266     0.7398122925      -0.5984216266     0.7398122925      0.4529333934      0.09293409299     
1.029e+10         0.1111464755      0.3500256121      -0.5853511664     0.7503675779      -0.5853511664     0.7503675779      0.448185907       0.08163923667     
1.03e+10          0.1132794865      0.346894454       -0.5720150254     0.7605797427      -0.5720150254     0.7605797427      0.4430764184      0.07074003082     
1.031e+10         0.11517069        0.3437977927      -0.5587829153     0.7704837296      -0.5587829153     0.7704837296      0.4378335993      0.06017784444     
1.032e+10         0.1172220969      0.3407377768      -0.5454419602     0.7801962914      -0.5454419602     0.7801962914      0.432685087       0.04969531848     
1.033e+10         0.1193726822      0.3374520869      -0.5319678087     0.7895390371      -0.5319678087     0.7895390371      0.427035146       0.03984345017     
1.034e+10         0.1214294321      0.3343448695      -0.5184376911     0.7984844217      -0.5184376911     0.7984844217      0.4214730801      0.03015506853     
1.035e+10         0.1233455219      0.3312235839      -0.5049842603     0.8071893298      -0.5049842603     0.8071893298      0.4158044146      0.02096240532     
1.036e+10         0.1254135759      0.3279915866      -0.4912490632     0.815737014       -0.4912490632     0.815737014       0.4102330409      0.01200447356     
1.037e+10         0.1274999095      0.3248125735      -0.4774689351     0.8240509775      -0.4774689351     0.8240509775      0.4045745779      0.003267570996    
1.038e+10         0.1296896113      0.3215105279      -0.4639118696     0.8319029545      -0.4639118696     0.8319029545      0.3987795906      -0.004562568076   
1.039e+10         0.1318722797      0.3181329933      -0.4503266375     0.8396488497      -0.4503266375     0.8396488497      0.393219662       -0.01230557753    
1.04e+10          0.1341336238      0.314982587       -0.4364993474     0.8469191339      -0.4364993474     0.8469191339      0.387259343       -0.02007850394    
1.041e+10         0.136255795       0.3118111305      -0.4227647703     0.8540037621      -0.4227647703     0.8540037621      0.3814199834      -0.02748777664    
1.042e+10         0.1384767092      0.308616728       -0.4090745488     0.8607149144      -0.4090745488     0.8607149144      0.3752382754      -0.03457125081    
1.043e+10         0.1405355809      0.305417906       -0.3954560699     0.8672285318      -0.3954560699     0.8672285318      0.3690772991      -0.04121541614    
1.044e+10         0.1427384763      0.3021490341      -0.38174098       0.8733069555      -0.38174098       0.8733069555      0.3625700095      -0.04778856394    
1.045e+10         0.1447123946      0.2988362699      -0.3678801998     0.8792420123      -0.3678801998     0.8792420123      0.3563206773      -0.05432929002    
1.046e+10         0.1466159598      0.2955057438      -0.3540327876     0.8851904718      -0.3540327876     0.8851904718      0.3502766222      -0.06035673478    
1.047e+10         0.1484443638      0.2921346854      -0.3400981456     0.8906721403      -0.3400981456     0.8906721403      0.3441227425      -0.06636820887    
1.048e+10         0.1504868058      0.2886976429      -0.3263798765     0.8959544477      -0.3263798765     0.8959544477      0.3376833274      -0.07171465137    
1.049e+10         0.1523793333      0.2852311294      -0.3124318234     0.9009234169      -0.3124318234     0.9009234169      0.3313828847      -0.07718870055    
1.05e+10          0.154268539       0.2816485296      -0.2985157846     0.9057964877      -0.2985157846     0.9057964877      0.3254088822      -0.08238127449    
1.051e+10         0.1561647009      0.2780894203      -0.2846333723     0.9103575668      -0.2846333723     0.9103575668      0.3192303135      -0.08745645932    
1.052e+10         0.1582242347      0.2747156208      -0.2708177944     0.9148751368      -0.2708177944     0.9148751368      0.3130069115      -0.09204482908    
1.053e+10         0.1600704833      0.2711115885      -0.2570757499     0.9189668741      -0.2570757499     0.9189668741      0.3068561627      -0.09637536197    
1.054e+10         0.1619055636      0.2676721984      -0.2432622334     0.9227531388      -0.2432622334     0.9227531388      0.3004948016      -0.1008135964     
1.055e+10         0.1635735038      0.2641483657      -0.2294319812     0.9264564744      -0.2294319812     0.9264564744      0.2943240091      -0.1050264312     
1.056e+10         0.1652073747      0.2604641839      -0.2156128884     0.9299112779      -0.2156128884     0.9299112779      0.2882717625      -0.1089228133     
1.057e+10         0.1667764506      0.2568117188      -0.2016936537     0.9332323243      -0.2016936537     0.9332323243      0.282345793       -0.1125672427     
1.058e+10         0.1683278848      0.2532173416      -0.1879994842     0.9363010342      -0.1879994842     0.9363010342      0.2762356926      -0.1161260463     
1.059e+10         0.1696821292      0.249659677       -0.1741148667     0.9392482446      -0.1741148667     0.9392482446      0.2705183496      -0.1193701635     
1.06e+10          0.1711062856      0.2459049555      -0.1603415181     0.9418314337      -0.1603415181     0.9418314337      0.2645929076      -0.1225765183     
1.061e+10         0.17251075        0.2422913429      -0.146564202      0.9444472521      -0.146564202      0.9444472521      0.2587694683      -0.1255386361     
1.062e+10         0.1738775085      0.2386103279      -0.1328315823     0.9466288978      -0.1328315823     0.9466288978      0.2529820924      -0.1284938556     
1.063e+10         0.1753000642      0.2349767939      -0.1191139066     0.9485122304      -0.1191139066     0.9485122304      0.247028134       -0.1314166859     
1.064e+10         0.1765406538      0.2312797441      -0.1055039758     0.9504078528      -0.1055039758     0.9504078528      0.2411366463      -0.1338702077     
1.065e+10         0.1777631277      0.2275168665      -0.09195313745    0.9519975435      -0.09195313745    0.9519975435      0.2352067971      -0.136297543      
1.066e+10         0.1789134201      0.223825956       -0.07836521415    0.9534793613      -0.07836521415    0.9534793613      0.2294073534      -0.1383556814     
1.067e+10         0.1797992061      0.2202617641      -0.06473805401    0.9547572184      -0.06473805401    0.9547572184      0.2237415804      -0.1405724202     
1.068e+10         0.1807261813      0.2166107105      -0.05117237242    0.9557387384      -0.05117237242    0.9557387384      0.2179169012      -0.1426919214     
1.069e+10         0.1814861595      0.2129339198      -0.03751155589    0.9566283033      -0.03751155589    0.9566283033      0.2125372173      -0.1445188067     
1.07e+10          0.182210224       0.2091794504      -0.02387338595    0.9573517356      -0.02387338595    0.9573517356      0.2071354966      -0.1461071053     
1.071e+10         0.1828454418      0.2056081716      -0.01029948565    0.957857171       -0.01029948565    0.957857171       0.2017690803      -0.1477561234     
1.072e+10         0.1835172877      0.2018748235      0.003272171918    0.9581428332      0.003272171918    0.9581428332      0.1965074537      -0.1492137922     
1.073e+10         0.1841307958      0.1981119731      0.01671929101     0.9581779507      0.01671929101     0.9581779507      0.1911571787      -0.1507157267     
1.074e+10         0.1847307811      0.1943312018      0.03008178323     0.9580290918      0.03008178323     0.9580290918      0.185923266       -0.1519324494     
1.075e+10         0.1853526657      0.1904660347      0.04351449082     0.9577407986      0.04351449082     0.9577407986      0.1808008562      -0.1529727853     
1.076e+10         0.1860131357      0.1867838651      0.0568697453      0.9573755171      0.0568697453      0.9573755171      0.1756148571      -0.153792416      
1.077e+10         0.18657219        0.183236344       0.07008312153     0.9568229356      0.07008312153     0.9568229356      0.1703014473      -0.1546329994     
1.078e+10         0.1868932175      0.1796001284      0.0832220631      0.9560124732      0.0832220631      0.9560124732      0.1652446925      -0.1554128341     
1.079e+10         0.1871311659      0.1761248115      0.09641784034     0.9550033147      0.09641784034     0.9550033147      0.1603526734      -0.156130589      
1.08e+10          0.1874514705      0.1726625574      0.1095387161      0.9539247652      0.1095387161      0.9539247652      0.1553911017      -0.1565256735     
1.081e+10         0.1875169312      0.1692850437      0.1227503851      0.9525072211      0.1227503851      0.9525072211      0.1507209072      -0.1571659513     
1.082e+10         0.1875494226      0.1660367661      0.1359020959      0.9510088833      0.1359020959      0.9510088833      0.1461772964      -0.1575383093     
1.083e+10         0.1875170066      0.1626466767      0.1488590476      0.9492963652      0.1488590476      0.9492963652      0.1413895429      -0.1579804102     
1.084e+10         0.1873784992      0.1592942973      0.1618154168      0.9474106028      0.1618154168      0.9474106028      0.1370020137      -0.1582397349     
1.085e+10         0.1872253034      0.1557924445      0.1746322802      0.9453135162      0.1746322802      0.9453135162      0.1322783277      -0.1584157499     
1.086e+10         0.1871447464      0.1523971315      0.1874886929      0.9431424715      0.1874886929      0.9431424715      0.1277544531      -0.1584558755     
1.087e+10         0.1869290607      0.1488677865      0.2001877512      0.94077753        0.2001877512      0.94077753        0.1232293643      -0.1583801309     
1.088e+10         0.1866355934      0.1455595731      0.2127729768      0.9382281391      0.2127729768      0.9382281391      0.1185458461      -0.1583113603     
1.089e+10         0.186494761       0.142183098       0.2254678475      0.9354582902      0.2254678475      0.9354582902      0.1141725974      -0.1580447703     
1.09e+10          0.1860950984      0.1388461049      0.2380406868      0.9326439158      0.2380406868      0.9326439158      0.1098071727      -0.1577527419     
1.091e+10         0.1857377365      0.1357188909      0.2505189154      0.9296020794      0.2505189154      0.9296020794      0.1054912429      -0.1574293218     
1.092e+10         0.1853129423      0.1326124643      0.2630424247      0.9263663411      0.2630424247      0.9263663411      0.1015976027      -0.1571740711     
1.093e+10         0.1849029206      0.1295345569      0.2754819729      0.9230315609      0.2754819729      0.9230315609      0.09774307489     -0.156540227      
1.094e+10         0.184568481       0.1266438672      0.2879122305      0.9194903931      0.2879122305      0.9194903931      0.09396649496     -0.1560423548     
1.095e+10         0.1839366542      0.1236797032      0.3001061677      0.9157880885      0.3001061677      0.9157880885      0.09000373102     -0.1555754461     
1.096e+10         0.1832963117      0.1208715345      0.3122594083      0.9120926188      0.3122594083      0.9120926188      0.08615215171     -0.154967653      
1.097e+10         0.1826356356      0.1179093277      0.3243214876      0.9081301597      0.3243214876      0.9081301597      0.08249309647     -0.154176956      
1.098e+10         0.1818141649      0.1149010456      0.3361610974      0.903931936       0.3361610974      0.903931936       0.07857127521     -0.1535025738     
1.099e+10         0.1810043965      0.1119781261      0.3481125861      0.8997226311      0.3481125861      0.8997226311      0.07481842991     -0.1524808222     
1.1e+10           0.1802613433      0.1089257288      0.3599409675      0.8953454408      0.3599409675      0.8953454408      0.07110257696     -0.1515195529     
1.101e+10         0.1793969325      0.1061376515      0.3716384985      0.8908216513      0.3716384985      0.8908216513      0.06737983993     -0.1505090863     
1.102e+10         0.178352564       0.1033851387      0.3832604811      0.8861421524      0.3832604811      0.8861421524      0.0639324165      -0.14954265       
1.103e+10         0.1775974718      0.1006406651      0.3949892007      0.8812661572      0.3949892007      0.8812661572      0.06072666515     -0.1484448196     
1.104e+10         0.1766976438      0.09782829037     0.4064648609      0.8761631889      0.4064648609      0.8761631889      0.05736422796     -0.14742547       
1.105e+10         0.1759916347      0.09527684496     0.4180178815      0.8709538162      0.4180178815      0.8709538162      0.05438878646     -0.1463223672     
1.106e+10         0.1750633371      0.09281030193     0.4294043817      0.8657258786      0.4294043817      0.8657258786      0.05127894278     -0.1451638153     
1.107e+10         0.1741550608      0.09034384557     0.4406034602      0.8602449627      0.4406034602      0.8602449627      0.04823117261     -0.1441213756     
1.108e+10         0.1731460561      0.08767713203     0.4517161051      0.8546724259      0.4517161051      0.8546724259      0.04523134808     -0.1429100329     
1.109e+10         0.1720826314      0.0852874772      0.462730732       0.8489454035      0.462730732       0.8489454035      0.04213068192     -0.1416011778     
1.11e+10          0.1709538515      0.08279363436     0.4736985286      0.8431673459      0.4736985286      0.8431673459      0.03921596621     -0.1402090269     
