! RsaToolbox (C) 2015 Rohde & Schwarz America
! 
! Number of points: 911
! Number of ports: 2
! Balanced ports?: No
! 
! 
# Hz S RI R 50
9900000000        0.01274599933     0.5606350285      -0.8892759897     0.04241089717     -0.8892759897     0.04241089717     0.2381304147      0.7503337023      
9910000000        0.02031995541     0.5495271011      -0.8951399994     0.06744634409     -0.8951399994     0.06744634409     0.2608945961      0.7335031161      
9920000000        0.02739472799     0.5388182655      -0.8997720828     0.09252727578     -0.8997720828     0.09252727578     0.2828373159      0.7158196693      
9930000000        0.0336417331      0.5281781331      -0.9030179914     0.1177077257      -0.9030179914     0.1177077257      0.3027753541      0.6973149071      
9940000000        0.03931517199     0.5177443733      -0.905376839      0.1427172383      -0.905376839      0.1427172383      0.3219116952      0.6783355114      
9950000000        0.04445571114     0.5075854816      -0.9067725122     0.1676444323      -0.9067725122     0.1676444323      0.340124722       0.659059141       
9960000000        0.04918992284     0.4975747501      -0.9068812597     0.1922581073      -0.9068812597     0.1922581073      0.3560555611      0.6388893188      
9970000000        0.05338045639     0.4878522211      -0.9061138881     0.2169875501      -0.9061138881     0.2169875501      0.3716387059      0.6184404295      
9980000000        0.05706677171     0.4783270665      -0.9046604484     0.2414296165      -0.9046604484     0.2414296165      0.3858583166      0.5984042867      
9990000000        0.06049107424     0.4694033623      -0.9017384401     0.2655224403      -0.9017384401     0.2655224403      0.3985522407      0.5771186623      
1e+10             0.06360664166     0.4606251854      -0.8987060986     0.2889909563      -0.8987060986     0.2889909563      0.410453865       0.5572840754      
1.001e+10         0.06637380889     0.4522463498      -0.8944820885     0.3124874426      -0.8944820885     0.3124874426      0.4215139227      0.5360987636      
1.002e+10         0.06872158655     0.4442253616      -0.8895423938     0.3354219978      -0.8895423938     0.3354219978      0.4314468253      0.5154875145      
1.003e+10         0.07085588312     0.4365364054      -0.883799342      0.3577235713      -0.883799342      0.3577235713      0.4398378835      0.4949570334      
1.004e+10         0.07289589857     0.4292663316      -0.8770761436     0.3796139254      -0.8770761436     0.3796139254      0.4465338833      0.4740217571      
1.005e+10         0.07470885378     0.4222608358      -0.8698663561     0.4010364099      -0.8698663561     0.4010364099      0.4529231439      0.4536814383      
1.006e+10         0.07633997677     0.4154998437      -0.8621473796     0.4221369157      -0.8621473796     0.4221369157      0.4587373017      0.4334110427      
1.007e+10         0.07787226399     0.4091530834      -0.8539839975     0.4425487401      -0.8539839975     0.4425487401      0.4633508394      0.4136824441      
1.008e+10         0.07913455063     0.4029722203      -0.8450765171     0.4625601256      -0.8450765171     0.4625601256      0.467219701       0.3942008864      
1.009e+10         0.08040873919     0.3969305643      -0.8357919207     0.4820334312      -0.8357919207     0.4820334312      0.4704491879      0.3750914908      
1.01e+10          0.08161874535     0.3912901463      -0.8259051332     0.5010194474      -0.8259051332     0.5010194474      0.4724911324      0.3558309631      
1.011e+10         0.08285038517     0.3859057955      -0.8157222135     0.5192620472      -0.8157222135     0.5192620472      0.4733697396      0.3378352369      
1.012e+10         0.0839213758      0.3807879197      -0.8053862036     0.5375460004      -0.8053862036     0.5375460004      0.4756586008      0.3196652141      
1.013e+10         0.08518401547     0.3758556257      -0.7946773384     0.5549109312      -0.7946773384     0.5549109312      0.4758965451      0.3022379299      
1.014e+10         0.08633297611     0.3713317574      -0.7833610229     0.5718791047      -0.7833610229     0.5718791047      0.4756119038      0.2847335743      
1.015e+10         0.08751279105     0.3666999729      -0.7719767684     0.5883929952      -0.7719767684     0.5883929952      0.4754423476      0.2678451031      
1.016e+10         0.0886802057      0.3625443281      -0.7602727445     0.6042672083      -0.7602727445     0.6042672083      0.4736427404      0.2516067183      
1.017e+10         0.08989248277     0.3584941581      -0.7481231955     0.6197529076      -0.7481231955     0.6197529076      0.4720277503      0.2353570379      
1.018e+10         0.09107977827     0.3542995789      -0.7360183214     0.6347881808      -0.7360183214     0.6347881808      0.4699118559      0.2203440003      
1.019e+10         0.09225011236     0.350483981       -0.7234169092     0.649198171       -0.7234169092     0.649198171       0.4670242296      0.2050171987      
1.02e+10          0.09348650432     0.346583144       -0.7108646532     0.6634070806      -0.7108646532     0.6634070806      0.4640986638      0.1907397363      
1.021e+10         0.09477879436     0.3428277972      -0.6981590794     0.6770675797      -0.6981590794     0.6770675797      0.4607526649      0.1765890089      
1.022e+10         0.09623275368     0.3393019466      -0.6851193015     0.6901660346      -0.6851193015     0.6901660346      0.4567383186      0.1626210117      
1.023e+10         0.09767923548     0.3357472394      -0.6720453231     0.7032101307      -0.6720453231     0.7032101307      0.4532049974      0.1495578947      
1.024e+10         0.09922420125     0.3322041257      -0.6588071896     0.7156920305      -0.6588071896     0.7156920305      0.4490109358      0.1366001168      
1.025e+10         0.100784326       0.329048058       -0.6454458898     0.7277679866      -0.6454458898     0.7277679866      0.4445889022      0.1236923939      
1.026e+10         0.1024126631      0.3259917157      -0.6321023335     0.7394089763      -0.6321023335     0.7394089763      0.4398146152      0.111555659       
1.027e+10         0.1040222144      0.3228433954      -0.6186128859     0.7505775445      -0.6186128859     0.7505775445      0.4350485077      0.09990628459     
1.028e+10         0.1056873888      0.3197415688      -0.604954146      0.7614337718      -0.604954146      0.7614337718      0.4298169927      0.08855255221     
1.029e+10         0.1073963436      0.3166683447      -0.5911654443     0.7719308093      -0.5911654443     0.7719308093      0.4245107744      0.07730396528     
1.03e+10          0.1090609813      0.3135864692      -0.5775099039     0.7822805294      -0.5775099039     0.7822805294      0.4194779016      0.06677349406     
1.031e+10         0.110655797       0.3106590842      -0.5637424262     0.7920990562      -0.5637424262     0.7920990562      0.4138759003      0.05657384492     
1.032e+10         0.1122846385      0.3075067417      -0.5498917029     0.8015774206      -0.5498917029     0.8015774206      0.4082579441      0.04668223726     
1.033e+10         0.1139910842      0.3043267335      -0.5359334889     0.8109030339      -0.5359334889     0.8109030339      0.4028813435      0.03720016072     
1.034e+10         0.1158527224      0.3013291149      -0.5218705157     0.819829043       -0.5218705157     0.819829043       0.3969814448      0.02773696895     
1.035e+10         0.1176525822      0.2982533744      -0.5079905676     0.8285195998      -0.5079905676     0.8285195998      0.3911233476      0.01894030169     
1.036e+10         0.119647727       0.2952270076      -0.4940720773     0.8368345686      -0.4940720773     0.8368345686      0.3851748918      0.0104958079      
1.037e+10         0.1216619154      0.2922879558      -0.4800209464     0.8447298206      -0.4800209464     0.8447298206      0.3790515509      0.002150096357    
1.038e+10         0.1234824913      0.2893070651      -0.4660965552     0.8523432092      -0.4660965552     0.8523432092      0.3728740537      -0.005576911022   
1.039e+10         0.1253438088      0.2862605179      -0.4519875306     0.8598461688      -0.4519875306     0.8598461688      0.3667593436      -0.01325347002    
1.04e+10          0.1273893761      0.2833417077      -0.4379049999     0.8667708775      -0.4379049999     0.8667708775      0.3603284439      -0.02087589141    
1.041e+10         0.1290867863      0.2803157405      -0.4238663663     0.8737159056      -0.4238663663     0.8737159056      0.354391692       -0.02787448486    
1.042e+10         0.1309567534      0.2772248689      -0.4096923026     0.8802201494      -0.4096923026     0.8802201494      0.3479904727      -0.03477357505    
1.043e+10         0.1326053445      0.2741659096      -0.3954013273     0.8865773519      -0.3954013273     0.8865773519      0.3420071879      -0.04153077043    
1.044e+10         0.1343260317      0.2710118438      -0.381243075      0.8927969817      -0.381243075      0.8927969817      0.3358971687      -0.04779122744    
1.045e+10         0.1360279378      0.267770157       -0.3670991504     0.8986451411      -0.3670991504     0.8986451411      0.3296921572      -0.05391481904    
1.046e+10         0.1377048049      0.2645861587      -0.3528789927     0.9041913336      -0.3528789927     0.9041913336      0.3234093628      -0.05993139692    
1.047e+10         0.1394367448      0.2612794328      -0.3389241172     0.9095149993      -0.3389241172     0.9095149993      0.316971257       -0.06520793406    
1.048e+10         0.1412981301      0.2580316297      -0.3246878439     0.9146655232      -0.3246878439     0.9146655232      0.3107425194      -0.07051519914    
1.049e+10         0.143332427       0.2547908874      -0.3106785316     0.9193616887      -0.3106785316     0.9193616887      0.3040804993      -0.07556055956    
1.05e+10          0.1450928956      0.2514818629      -0.296617563      0.9239321263      -0.296617563      0.9239321263      0.2976864873      -0.08039451152    
1.051e+10         0.1468794536      0.2482196804      -0.2825699113     0.9281709755      -0.2825699113     0.9281709755      0.2910970088      -0.08509795797    
1.052e+10         0.1484620619      0.2448644428      -0.2683004297     0.9322939988      -0.2683004297     0.9322939988      0.2850614685      -0.08977342851    
1.053e+10         0.150134339       0.241533923       -0.2541201528     0.9361824324      -0.2541201528     0.9361824324      0.278882917       -0.09416183668    
1.054e+10         0.1515826023      0.2381424977      -0.2400093904     0.9399238157      -0.2400093904     0.9399238157      0.2727743577      -0.09817006581    
1.055e+10         0.1529975664      0.2348251612      -0.2259044166     0.9433757378      -0.2259044166     0.9433757378      0.2667325861      -0.1020511884     
1.056e+10         0.1542995653      0.2314481745      -0.2119468853     0.9466834396      -0.2119468853     0.9466834396      0.2605546586      -0.1056852545     
1.057e+10         0.155603344       0.2280642281      -0.1978147854     0.9496960138      -0.1978147854     0.9496960138      0.2547372344      -0.1093178374     
1.058e+10         0.1570587262      0.2244142581      -0.1838300154     0.9526023196      -0.1838300154     0.9526023196      0.2487454089      -0.1124833698     
1.059e+10         0.1584601608      0.2210264124      -0.1699697192     0.9551798629      -0.1699697192     0.9551798629      0.2425868372      -0.1156415971     
1.06e+10          0.1598344397      0.2175635045      -0.1559878959     0.9576610389      -0.1559878959     0.9576610389      0.236604311       -0.1185189483     
1.061e+10         0.1610707354      0.2138774056      -0.1421995977     0.9596785211      -0.1421995977     0.9596785211      0.23047889        -0.1214352119     
1.062e+10         0.1622273141      0.2103481411      -0.1283374324     0.961642297       -0.1283374324     0.961642297       0.2245187456      -0.1241291226     
1.063e+10         0.1634305566      0.2067273954      -0.1144154513     0.963331945       -0.1144154513     0.963331945       0.2186070865      -0.12670128       
1.064e+10         0.1644747328      0.2033518664      -0.1005667642     0.9648942048      -0.1005667642     0.9648942048      0.2126501606      -0.1291767217     
1.065e+10         0.1653823548      0.1998424965      -0.08666077471    0.9663189897      -0.08666077471    0.9663189897      0.2070156313      -0.131443899      
1.066e+10         0.1661246117      0.1964110672      -0.07273346913    0.9674982588      -0.07273346913    0.9674982588      0.2014591754      -0.1336721331     
1.067e+10         0.1668458097      0.1927903937      -0.05891854611    0.9685402558      -0.05891854611    0.9685402558      0.1960906915      -0.1356340615     
1.068e+10         0.1675296198      0.1893278385      -0.04511943067    0.9695446824      -0.04511943067    0.9695446824      0.1907096452      -0.1371673833     
1.069e+10         0.1681649781      0.1857769163      -0.03144901658    0.9703229981      -0.03144901658    0.9703229981      0.1853316545      -0.1386891746     
1.07e+10          0.1689045473      0.182126058       -0.01770962312    0.9706419979      -0.01770962312    0.9706419979      0.1800199516      -0.1403190867     
1.071e+10         0.1695192426      0.1783519194      -0.004202574202   0.9708482324      -0.004202574202   0.9708482324      0.1746288482      -0.1417716405     
1.072e+10         0.1702695728      0.17477774        0.009382983446    0.97093243        0.009382983446    0.97093243        0.1693934736      -0.142975031      
1.073e+10         0.1709299905      0.1712655846      0.02286097835     0.9707378627      0.02286097835     0.9707378627      0.163935479       -0.1442031049     
1.074e+10         0.1715300527      0.1675954197      0.03624495002     0.9703247825      0.03624495002     0.9703247825      0.1584016206      -0.1453564193     
1.075e+10         0.1719181477      0.1642544521      0.04969750703     0.9697385449      0.04969750703     0.9697385449      0.1532115306      -0.1466558013     
1.076e+10         0.1721395456      0.1609275701      0.06313947879     0.969055282       0.06313947879     0.969055282       0.1481436471      -0.1475163551     
1.077e+10         0.1723262721      0.1576043226      0.07662990426     0.9681598717      0.07662990426     0.9681598717      0.1434354878      -0.1482861642     
1.078e+10         0.1723584617      0.1544519826      0.0900574234      0.967150654       0.0900574234      0.967150654       0.1385237514      -0.1492120768     
1.079e+10         0.1721849048      0.1512921578      0.1033717352      0.9660714573      0.1033717352      0.9660714573      0.1338628019      -0.1496033758     
1.08e+10          0.1721067115      0.147941903       0.1166215865      0.9646988881      0.1166215865      0.9646988881      0.1291224292      -0.1500014329     
1.081e+10         0.1717575259      0.1445440967      0.1297588201      0.9632520263      0.1297588201      0.9632520263      0.1245509349      -0.1502446689     
1.082e+10         0.1716958944      0.1409904357      0.1428112419      0.9615740618      0.1428112419      0.9615740618      0.1197532401      -0.1503674138     
1.083e+10         0.1714689075      0.1375433054      0.1557510386      0.9597443692      0.1557510386      0.9597443692      0.114993488       -0.1503008918     
1.084e+10         0.1711739379      0.1340321993      0.1686220504      0.957680986       0.1686220504      0.957680986       0.1102617031      -0.1503456292     
1.085e+10         0.1710178467      0.130601116       0.1814240114      0.955497847       0.1814240114      0.955497847       0.1055834174      -0.1502296778     
1.086e+10         0.1707506615      0.1271515104      0.1942443445      0.9529841946      0.1942443445      0.9529841946      0.101188981       -0.1502533964     
1.087e+10         0.1704102478      0.1239359564      0.207099185       0.9504048944      0.207099185       0.9504048944      0.09690703104     -0.1500200567     
1.088e+10         0.1700564745      0.1209555509      0.2199379696      0.9476719652      0.2199379696      0.9476719652      0.09285912143     -0.1499545644     
1.089e+10         0.1698698271      0.1179724847      0.2327220872      0.9447857664      0.2327220872      0.9447857664      0.0891155634      -0.1496016561     
1.09e+10          0.1693342036      0.1151282291      0.2454332396      0.9417322035      0.2454332396      0.9417322035      0.08535038284     -0.1493869457     
1.091e+10         0.1687772919      0.1122606269      0.2580474128      0.9385496284      0.2580474128      0.9385496284      0.08162037477     -0.1489288137     
1.092e+10         0.1681235067      0.1095956171      0.270491881       0.9353109351      0.270491881       0.9353109351      0.07769282416     -0.148355256      
1.093e+10         0.1674934259      0.106829648       0.2827959763      0.9317895765      0.2827959763      0.9317895765      0.07369118718     -0.1479112101     
1.094e+10         0.1666506117      0.1038324935      0.2949791822      0.9281372803      0.2949791822      0.9281372803      0.069686964       -0.1473489215     
1.095e+10         0.165756869       0.1009187935      0.3070471828      0.9244237119      0.3070471828      0.9244237119      0.06565957187     -0.146444402      
1.096e+10         0.1648652922      0.09813611466     0.319168887       0.920495384       0.319168887       0.920495384       0.06175828541     -0.145734624      
1.097e+10         0.1639479415      0.0952342988      0.3311404185      0.9163280168      0.3311404185      0.9163280168      0.05783253804     -0.144816801      
1.098e+10         0.1628941686      0.09262292545     0.3430772618      0.9121078094      0.3430772618      0.9121078094      0.0540246066      -0.1440062468     
1.099e+10         0.1618872752      0.0899890776      0.3550472767      0.9076844541      0.3550472767      0.9076844541      0.05058830324     -0.142994824      
1.1e+10           0.1609410097      0.08743153759     0.3669654639      0.9031094069      0.3669654639      0.9031094069      0.0474123868      -0.1419710838     
1.101e+10         0.1599929756      0.08505639185     0.3788376046      0.898418842       0.3788376046      0.898418842       0.04427161148     -0.1409016175     
1.102e+10         0.1589717166      0.08262712551     0.3906049371      0.8936425929      0.3906049371      0.8936425929      0.04126800573     -0.1398031427     
1.103e+10         0.1580350536      0.08030299041     0.4022617038      0.8886722329      0.4022617038      0.8886722329      0.03818799541     -0.1387094341     
1.104e+10         0.1570177339      0.07786659712     0.4137927413      0.8836419888      0.4137927413      0.8836419888      0.03517595773     -0.1375122962     
1.105e+10         0.1558806679      0.07541471163     0.4251972134      0.8784364617      0.4251972134      0.8784364617      0.03202508687     -0.1361909842     
1.106e+10         0.1546774691      0.07307077669     0.4364453384      0.8730451419      0.4364453384      0.8730451419      0.02891189118     -0.1348747647     
1.107e+10         0.1535011305      0.07076015746     0.4476568703      0.8676097208      0.4476568703      0.8676097208      0.02579102622     -0.1335231492     
1.108e+10         0.152165811       0.06861786387     0.4587010797      0.8619605397      0.4587010797      0.8619605397      0.02268077202     -0.1322061761     
1.109e+10         0.1509393555      0.06632980809     0.4696442784      0.856141158       0.4696442784      0.856141158       0.01972810868     -0.130876835      
1.11e+10          0.1498920263      0.06429385133     0.4807006987      0.8501921507      0.4807006987      0.8501921507      0.01714869661     -0.1294348974     
