! RsaToolbox (C) 2015 Rohde & Schwarz America
! 
! Number of points: 911
! Number of ports: 2
! Balanced ports?: No
! 
! 
# Hz S RI R 50
9900000000        -0.01970947519    0.004126971328    -0.6464168928     0.7647911465      -0.6464168928     0.7647911465      -0.01900681471    -0.01753991735    
9910000000        -0.01781232681    0.001159045372    -0.6458211208     0.7653565487      -0.6458211208     0.7653565487      -0.02166123444    -0.01612203343    
9920000000        -0.01494853289    -0.0005530121534  -0.6452802211     0.765916159       -0.6452802211     0.765916159       -0.02335619833    -0.01358947336    
9930000000        -0.01159113118    -0.0010855526     -0.6446569469     0.7665499619      -0.6446569469     0.7665499619      -0.02373812017    -0.01065118873    
9940000000        -0.008536289172   0.0001522209927   -0.6440547143     0.7672554263      -0.6440547143     0.7672554263      -0.02296956052    -0.008139087193   
9950000000        -0.006545553462   0.002374729359    -0.6434903023     0.7679507823      -0.6434903023     0.7679507823      -0.02073155657    -0.006442577449   
9960000000        -0.006147397259   0.005216201199    -0.6428086688     0.7686795371      -0.6428086688     0.7686795371      -0.01820015657    -0.006099281382   
9970000000        -0.007129781015   0.007489626693    -0.6422407534     0.7691585394      -0.6422407534     0.7691585394      -0.01625311366    -0.006801822533   
9980000000        -0.009177988693   0.008808667071    -0.6415116756     0.7697080049      -0.6415116756     0.7697080049      -0.0147984148     -0.008292303498   
9990000000        -0.01180331593    0.008702863387    -0.6407967456     0.7702060794      -0.6407967456     0.7702060794      -0.01485062842    -0.01057243272    
1e+10             -0.01400893974    0.006905593568    -0.6401712363     0.7707043755      -0.6401712363     0.7707043755      -0.01590308703    -0.01232783464    
1.001e+10         -0.01510236696    0.004372581551    -0.6364256237     0.7715492215      -0.6364256237     0.7715492215      -0.01834675177    -0.01276983887    
1.002e+10         -0.014414276      0.0008655119828   -0.6358342468     0.7720019272      -0.6358342468     0.7720019272      -0.02073262898    -0.01246373162    
1.003e+10         -0.01211612499    -0.002244597892   -0.6351483317     0.7727585323      -0.6351483317     0.7727585323      -0.02293464338    -0.01043105721    
1.004e+10         -0.008414015566   -0.004224948594   -0.6345679084     0.7734921608      -0.6345679084     0.7734921608      -0.02396179593    -0.007567292152   
1.005e+10         -0.003741615411   -0.00423380074    -0.6338312906     0.7740217352      -0.6338312906     0.7740217352      -0.0234450424     -0.004378313059   
1.006e+10         0.0007157270196   -0.002357418299   -0.6331041726     0.7745441653      -0.6331041726     0.7745441653      -0.02155231705    -0.001616147789   
1.007e+10         0.003934360518    0.001777901462    -0.6323735707     0.7751656792      -0.6323735707     0.7751656792      -0.01858933725    0.000411640488    
1.008e+10         0.00519527908     0.006802153133    -0.6317051769     0.7758376525      -0.6317051769     0.7758376525      -0.01474261467    0.001029110733    
1.009e+10         0.004251835974    0.01184243928     -0.6310284093     0.7764214711      -0.6310284093     0.7764214711      -0.01087768549    0.0001220648765   
1.01e+10          0.001079831424    0.01599073602     -0.6302875697     0.7770148844      -0.6302875697     0.7770148844      -0.007951219969   -0.002512740934   
1.011e+10         -0.002871140566   0.01833027599     -0.6296934876     0.7774255451      -0.6296934876     0.7774255451      -0.006588921423   -0.005983166703   
1.012e+10         -0.007517761719   0.01881591233     -0.6289771812     0.7779165101      -0.6289771812     0.7779165101      -0.006857149634   -0.009504327579   
1.013e+10         -0.01182990846    0.01716765834     -0.628305929      0.7783686609      -0.628305929      0.7783686609      -0.008591364465   -0.0127203894     
1.014e+10         -0.01490121956    0.01391154648     -0.6275293224     0.778885861       -0.6275293224     0.778885861       -0.01133950822    -0.01459272515    
1.015e+10         -0.01601338562    0.009584727147    -0.6268606112     0.779346957       -0.6268606112     0.779346957       -0.01450685189    -0.01493414201    
1.016e+10         -0.0149820706     0.005446576834    -0.6261170435     0.7799121866      -0.6261170435     0.7799121866      -0.01735434095    -0.01375679773    
1.017e+10         -0.01214014831    0.002484547393    -0.6253393417     0.7805500615      -0.6253393417     0.7805500615      -0.01929126383    -0.01154705889    
1.018e+10         -0.008255091765   0.00126773609     -0.6246189513     0.7811696786      -0.6246189513     0.7811696786      -0.01962693035    -0.008524332898   
1.019e+10         -0.004454670411   0.001810080112    -0.6239479333     0.7817636266      -0.6239479333     0.7817636266      -0.01832792728    -0.005995036614   
1.02e+10          -0.001198934858   0.004239867076    -0.623208722      0.7822532166      -0.623208722      0.7822532166      -0.01612296231    -0.004501863511   
1.021e+10         0.0001960464006   0.007736127902    -0.6225215933     0.7828430485      -0.6225215933     0.7828430485      -0.01331712294    -0.004072738435   
1.022e+10         -0.0004174718061  0.01128858832     -0.6217908208     0.7833690654      -0.6217908208     0.7833690654      -0.01079945127    -0.005138483821   
1.023e+10         -0.002486259442   0.01416209423     -0.6210949206     0.7838763346      -0.6210949206     0.7838763346      -0.009121911012   -0.007239235065   
1.024e+10         -0.005569831499   0.01549046819     -0.6204960226     0.7842463789      -0.6204960226     0.7842463789      -0.00855285009    -0.009693862986   
1.025e+10         -0.008817913466   0.01533679326     -0.6197451462     0.7846000084      -0.6197451462     0.7846000084      -0.009699718651   -0.01201631868    
1.026e+10         -0.01150669968    0.01340179754     -0.6189865488     0.7850039936      -0.6189865488     0.7850039936      -0.01141566513    -0.01314069573    
1.027e+10         -0.01260650654    0.01066964496     -0.6184819364     0.7855372127      -0.6184819364     0.7855372127      -0.0133998477     -0.01346694586    
1.028e+10         -0.01239433113    0.007868477991    -0.618017775      0.7860583766      -0.618017775      0.7860583766      -0.01540517162    -0.0129035102     
1.029e+10         -0.01083955085    0.005032339762    -0.6173965818     0.7864825729      -0.6173965818     0.7864825729      -0.01679186022    -0.01108811258    
1.03e+10          -0.007706676341   0.003240890912    -0.6167293005     0.7869773229      -0.6167293005     0.7869773229      -0.01693826942    -0.008703498388   
1.031e+10         -0.004436178004   0.003614397294    -0.6159332073     0.7874274828      -0.6159332073     0.7874274828      -0.01574806905    -0.007131015452   
1.032e+10         -0.001716078753   0.005525178285    -0.6152397678     0.7880734261      -0.6152397678     0.7880734261      -0.01399509408    -0.00614413016    
1.033e+10         -0.0001711859611  0.008390101019    -0.6146360354     0.7885864109      -0.6146360354     0.7885864109      -0.01200590551    -0.005792409931   
1.034e+10         -0.0002286077274  0.01160220079     -0.6140735292     0.7891288648      -0.6140735292     0.7891288648      -0.00982902697    -0.006666461298   
1.035e+10         -0.00190380602    0.01468688393     -0.6133764409     0.7895170853      -0.6133764409     0.7895170853      -0.008300675477   -0.008394180855   
1.036e+10         -0.004812142844   0.01650815618     -0.6125939089     0.7900148045      -0.6125939089     0.7900148045      -0.007669553577   -0.01054727896    
1.037e+10         -0.008027639365   0.01697251697     -0.6120459336     0.790481298       -0.6120459336     0.790481298       -0.008518078825   -0.01275091652    
1.038e+10         -0.01125959849    0.01583699025     -0.611384521      0.7910402905      -0.611384521      0.7910402905      -0.01032849282    -0.01416549947    
1.039e+10         -0.01371729434    0.01289656722     -0.610691185      0.7915756834      -0.610691185      0.7915756834      -0.01243117178    -0.01463465403    
1.04e+10          -0.0145588555     0.009183154373    -0.6098665679     0.7921823451      -0.6098665679     0.7921823451      -0.01456595006    -0.01384843187    
1.041e+10         -0.01300047507    0.005391896835    -0.6092659898     0.7926717185      -0.6092659898     0.7926717185      -0.01621254294    -0.01261935216    
1.042e+10         -0.009917600556   0.002814377132    -0.6086194966     0.7932070271      -0.6086194966     0.7932070271      -0.01712113795    -0.01058328575    
1.043e+10         -0.006460080185   0.001731661294    -0.6079556511     0.7939713052      -0.6079556511     0.7939713052      -0.01656856726    -0.008219351016   
1.044e+10         -0.002714076298   0.002172673675    -0.6071539829     0.7947067933      -0.6071539829     0.7947067933      -0.01521696237    -0.006391436467   
1.045e+10         0.0007801318459   0.00433761034     -0.6063737528     0.7953253135      -0.6063737528     0.7953253135      -0.01300269801    -0.005118191117   
1.046e+10         0.003014826088    0.008079099215    -0.6055437804     0.795978496       -0.6055437804     0.795978496       -0.01045876182    -0.004645584517   
1.047e+10         0.003202003192    0.01214394197     -0.6048565762     0.7966272348      -0.6048565762     0.7966272348      -0.007773882652   -0.005488932429   
1.048e+10         0.002016220113    0.01593486116     -0.6042243644     0.7972267096      -0.6042243644     0.7972267096      -0.005769424702   -0.007235039186   
1.049e+10         -0.0008770107754  0.0188970094      -0.6034629955     0.7978070483      -0.6034629955     0.7978070483      -0.004918634723   -0.00985278628    
1.05e+10          -0.004649460584   0.02026292993     -0.602630594      0.7983824663      -0.602630594      0.7983824663      -0.005197050762   -0.01235902964    
1.051e+10         -0.008605596215   0.02010902075     -0.6026269664     0.7988687689      -0.6026269664     0.7988687689      -0.006104205701   -0.01418107423    
1.052e+10         -0.01198919157    0.01815411705     -0.6016322562     0.7991723715      -0.6016322562     0.7991723715      -0.007872680969   -0.01527910636    
1.053e+10         -0.01387161939    0.01502522583     -0.6008925308     0.7996300656      -0.6008925308     0.7996300656      -0.009523490553   -0.01576660457    
1.054e+10         -0.01416023998    0.01165336621     -0.6000956313     0.8000638733      -0.6000956313     0.8000638733      -0.01115954857    -0.0156293055     
1.055e+10         -0.0131411693     0.008613768818    -0.5992359144     0.8007177053      -0.5992359144     0.8007177053      -0.01237377469    -0.01474575134    
1.056e+10         -0.01083355325    0.0062982204      -0.5984499448     0.8013700914      -0.5984499448     0.8013700914      -0.01307586936    -0.01349278702    
1.057e+10         -0.00784816189    0.005480772575    -0.5976531334     0.8020139531      -0.5976531334     0.8020139531      -0.01311035912    -0.01195623436    
1.058e+10         -0.005000771913   0.006255726987    -0.5969456423     0.8025758334      -0.5969456423     0.8025758334      -0.01263585562    -0.01090481837    
1.059e+10         -0.002869562896   0.007993141091    -0.5962850598     0.8031081202      -0.5962850598     0.8031081202      -0.01172325255    -0.009870515926   
1.06e+10          -0.001955331008   0.01020287161     -0.595602657      0.8036243449      -0.595602657      0.8036243449      -0.01047793928    -0.009662380545   
1.061e+10         -0.001979767181   0.01259043237     -0.5948127998     0.8042458531      -0.5948127998     0.8042458531      -0.009519618872   -0.01004472292    
1.062e+10         -0.003081016544   0.01447265741     -0.594051041      0.8047762529      -0.594051041      0.8047762529      -0.008406879323   -0.01070846466    
1.063e+10         -0.005293838218   0.01569152851     -0.5933782743     0.8051410785      -0.5933782743     0.8051410785      -0.008210378236   -0.01177931001    
1.064e+10         -0.00751957951    0.01565415994     -0.5926370072     0.8055752416      -0.5926370072     0.8055752416      -0.008350895154   -0.01257413165    
1.065e+10         -0.009047522202   0.0147249523      -0.5918829411     0.8061207138      -0.5918829411     0.8061207138      -0.00828560048    -0.01330710065    
1.066e+10         -0.009949933713   0.01328894748     -0.5911164321     0.8065812541      -0.5911164321     0.8065812541      -0.008672037995   -0.01392759986    
1.067e+10         -0.01001459482    0.01133383647     -0.5904411037     0.8072256472      -0.5904411037     0.8072256472      -0.009231569487   -0.01407848265    
1.068e+10         -0.009105665093   0.009806881952    -0.5897689031     0.8077737847      -0.5897689031     0.8077737847      -0.009930653347   -0.01417638808    
1.069e+10         -0.007323920457   0.009024711876    -0.5889059745     0.808199633       -0.5889059745     0.808199633       -0.0101713388     -0.01398605716    
1.07e+10          -0.005509620517   0.009309547976    -0.5881725116     0.8087018703      -0.5881725116     0.8087018703      -0.01039175656    -0.01344746801    
1.071e+10         -0.00417012821    0.01089172616     -0.5873677408     0.809292814       -0.5873677408     0.809292814       -0.009728458177   -0.01287005905    
1.072e+10         -0.003859996621   0.01272428792     -0.5866822602     0.8098118779      -0.5866822602     0.8098118779      -0.00884513393    -0.01284413098    
1.073e+10         -0.004459562656   0.01475293839     -0.5859525166     0.8103264081      -0.5859525166     0.8103264081      -0.00828204204    -0.01293980613    
1.074e+10         -0.006232383708   0.01620716088     -0.5851621751     0.8107948437      -0.5851621751     0.8107948437      -0.007829799579   -0.0136350455     
1.075e+10         -0.008775600663   0.01678593615     -0.5843499314     0.8113585881      -0.5843499314     0.8113585881      -0.007616190974   -0.01473356786    
1.076e+10         -0.011563337      0.01599672827     -0.5835750113     0.811988253       -0.5835750113     0.811988253       -0.008282519476   -0.01597912968    
1.077e+10         -0.01372600892    0.01377264422     -0.5827788999     0.8124502647      -0.5827788999     0.8124502647      -0.009298486903   -0.01684799758    
1.078e+10         -0.01477317107    0.01047615671     -0.5820595845     0.8128799826      -0.5820595845     0.8128799826      -0.01083941789    -0.01722262146    
1.079e+10         -0.01448780969    0.00681526002     -0.5812459317     0.813469154       -0.5812459317     0.813469154       -0.01282266319    -0.01670452902    
1.08e+10          -0.01230831361    0.003182945916    -0.5804819474     0.814099066       -0.5804819474     0.814099066       -0.01452363545    -0.01535435757    
1.081e+10         -0.008819504341   0.0006895272516   -0.579737044      0.8146254455      -0.579737044      0.8146254455      -0.01538695019    -0.0132747643     
1.082e+10         -0.00408409471    -0.0002539266602  -0.5790106177     0.8150793486      -0.5790106177     0.8150793486      -0.0154547805     -0.01074586686    
1.083e+10         0.0006696914006   0.001123076631    -0.5781549848     0.8159210686      -0.5781549848     0.8159210686      -0.01442461677    -0.008204827598   
1.084e+10         0.004530347112    0.004410664715    -0.5773242785     0.8166208263      -0.5773242785     0.8166208263      -0.01220207293    -0.006060000474   
1.085e+10         0.006864787514    0.009175888691    -0.5765179512     0.8171936133      -0.5765179512     0.8171936133      -0.00879817346    -0.004860895469   
1.086e+10         0.006787505457    0.01434998511     -0.5757079527     0.8177762701      -0.5757079527     0.8177762701      -0.005302437274   -0.005341305753   
1.087e+10         0.005017784041    0.01895765389     -0.5749595278     0.8182476449      -0.5749595278     0.8182476449      -0.00260462662    -0.006716791896   
1.088e+10         0.001485119491    0.0224526407      -0.5742294012     0.8186516949      -0.5742294012     0.8186516949      -0.0005058730041  -0.009515072076   
1.089e+10         -0.003192797954   0.02396836133     -0.5732289035     0.8191074129      -0.5732289035     0.8191074129      4.116272969e-05   -0.01282110742    
1.09e+10          -0.007972379239   0.02314425576     -0.5722007062     0.819557805       -0.5722007062     0.819557805       -0.0005642678309  -0.01589918625    
1.091e+10         -0.01151271546    0.02069814492     -0.5714899495     0.8200556025      -0.5714899495     0.8200556025      -0.002517843514   -0.01864147961    
1.092e+10         -0.01350569367    0.01703515438     -0.5707379051     0.8204525183      -0.5707379051     0.8204525183      -0.005291596301   -0.02000355374    
1.093e+10         -0.01369098574    0.01282017131     -0.5699114374     0.8210525691      -0.5699114374     0.8210525691      -0.007918692253   -0.01985304184    
1.094e+10         -0.01196244841    0.009187346098    -0.5691084451     0.8216075215      -0.5691084451     0.8216075215      -0.01021958346    -0.01867758271    
1.095e+10         -0.008322975625   0.007311208859    -0.568352588      0.822146922       -0.568352588      0.822146922       -0.01118435708    -0.01605120212    
1.096e+10         -0.004374489414   0.007664760703    -0.5674924079     0.8226441139      -0.5674924079     0.8226441139      -0.01053159051    -0.01343376072    
1.097e+10         -0.00103353865    0.009498467867    -0.5668594932     0.8230226257      -0.5668594932     0.8230226257      -0.008853126485   -0.01132527393    
1.098e+10         0.001053614321    0.01295108035     -0.5660097222     0.8233982285      -0.5660097222     0.8233982285      -0.006121855412   -0.01003580306    
1.099e+10         0.001039492801    0.01692714499     -0.5650814095     0.8238621244      -0.5650814095     0.8238621244      -0.00309316947    -0.01087228645    
1.1e+10           -0.0008160436162  0.02060906722     -0.5642101681     0.8242517348      -0.5642101681     0.8242517348      -0.0006757890052  -0.01290672381    
1.101e+10         -0.004644420368   0.02263830283     -0.5636811975     0.8249526549      -0.5636811975     0.8249526549      0.0001728782627   -0.01630278996    
1.102e+10         -0.009200981405   0.02252911957     -0.5629320668     0.825190962       -0.5629320668     0.825190962       -0.0007128183898  -0.01957657996    
1.103e+10         -0.0132872786     0.02044207981     -0.5620507658     0.8255747284      -0.5620507658     0.8255747284      -0.003082395759   -0.02180551418    
1.104e+10         -0.01585574239    0.01623658554     -0.561129571      0.825918537       -0.561129571      0.825918537       -0.006138766284   -0.02271376791    
1.105e+10         -0.0155766176     0.01143778137     -0.5604163161     0.8264309652      -0.5604163161     0.8264309652      -0.009633846773   -0.02170068806    
1.106e+10         -0.01292928935    0.007184995629    -0.5598612285     0.8268998805      -0.5598612285     0.8268998805      -0.01206128463    -0.01882859408    
1.107e+10         -0.008424943196   0.004321879457    -0.5590854787     0.8274120951      -0.5590854787     0.8274120951      -0.01244536246    -0.01519818046    
1.108e+10         -0.0027530892     0.003827382084    -0.5584722762     0.8278343907      -0.5584722762     0.8278343907      -0.01100505775    -0.01158265399    
1.109e+10         0.002698648798    0.006637272855    -0.557642019      0.8282518375      -0.557642019      0.8282518375      -0.007669843914   -0.008754131226   
1.11e+10          0.006619740845    0.01184249214     -0.5569989326     0.8285809956      -0.5569989326     0.8285809956      -0.003161900135   -0.007675146423   
