! RsaToolbox (C) 2015 Rohde & Schwarz America
! 
! Number of points: 911
! Number of ports: 2
! Balanced ports?: No
! 
! 
# Hz S RI R 50
9900000000        0.02170035758     0.008757449839    -0.7112646118     -0.6957925999     -0.7112646118     -0.6957925999     -0.005530957659   0.004818365932    
9910000000        0.0214487411      0.01174455174     -0.7106894379     -0.6964419836     -0.7106894379     -0.6964419836     -0.006765252042   0.005012855295    
9920000000        0.01989141979     0.0144187743      -0.7100442918     -0.6969327337     -0.7100442918     -0.6969327337     -0.00763411954    0.005810119115    
9930000000        0.01738957066     0.01593427542     -0.7095381682     -0.6975934937     -0.7095381682     -0.6975934937     -0.008794467542   0.006872604074    
9940000000        0.01426863347     0.0162624102      -0.7089063572     -0.6981761602     -0.7089063572     -0.6981761602     -0.009375659783   0.008143016475    
9950000000        0.01124691017     0.01530968104     -0.7084038026     -0.6987564292     -0.7084038026     -0.6987564292     -0.009160744115   0.00964683948     
9960000000        0.008983319831    0.01331840356     -0.7078569824     -0.699332964      -0.7078569824     -0.699332964      -0.008315091994   0.0107304061      
9970000000        0.007991316226    0.01046641202     -0.7074857493     -0.6999028028     -0.7074857493     -0.6999028028     -0.007286444359   0.01164792915     
9980000000        0.008051697626    0.007686246973    -0.7070300369     -0.7004996335     -0.7070300369     -0.7004996335     -0.005973029016   0.01202003962     
9990000000        0.009052388889    0.005260850162    -0.7065284326     -0.7011058118     -0.7065284326     -0.7011058118     -0.004336601225   0.01170428689     
1e+10             0.01066743262     0.003597479922    -0.7059776184     -0.701698521      -0.7059776184     -0.701698521      -0.003024337872   0.01110486177     
1.001e+10         0.01294905569     0.003191481194    -0.7065501294     -0.7013856347     -0.7065501294     -0.7013856347     -0.00199627109    0.01024125874     
1.002e+10         0.01419770852     0.003252997622    -0.7058941033     -0.7021095133     -0.7058941033     -0.7021095133     -0.001651296922   0.009384306521    
1.003e+10         0.01541388181     0.003654837017    -0.7053312145     -0.702641487      -0.7053312145     -0.702641487      -0.001657363768   0.008484716348    
1.004e+10         0.01599624488     0.004201404945    -0.7046608108     -0.7032261998     -0.7046608108     -0.7032261998     -0.001639736136   0.007938890417    
1.005e+10         0.01605003147     0.004783556548    -0.7042325658     -0.7036562906     -0.7042325658     -0.7036562906     -0.001986022071   0.00742761136     
1.006e+10         0.01562968638     0.004755160887    -0.7037510122     -0.7043070503     -0.7037510122     -0.7043070503     -0.001983487422   0.006784735294    
1.007e+10         0.01547636096     0.004136085254    -0.7030826931     -0.7047847653     -0.7030826931     -0.7047847653     -0.001729937932   0.00653562341     
1.008e+10         0.01599340853     0.003073794308    -0.7023891746     -0.7053941883     -0.7023891746     -0.7053941883     -0.001716098653   0.005800773222    
1.009e+10         0.01676412926     0.002095001325    -0.7018947654     -0.7058624001     -0.7018947654     -0.7058624001     -0.001528919535   0.005287023686    
1.01e+10          0.01817556621     0.001381933183    -0.7014980545     -0.7064641699     -0.7014980545     -0.7064641699     -0.001254018594   0.004541434214    
1.011e+10         0.02042681382     0.001284664145    -0.7007685721     -0.7069847788     -0.7007685721     -0.7069847788     -0.001217415398   0.003534872008    
1.012e+10         0.02264869598     0.002510237934    -0.7001371714     -0.7076006435     -0.7001371714     -0.7076006435     -0.00161742929    0.002366863045    
1.013e+10         0.02402947154     0.004382676029    -0.6994219162     -0.7082253838     -0.6994219162     -0.7082253838     -0.002654863678   0.001221805008    
1.014e+10         0.0246457305      0.00682121296     -0.6988687184     -0.7088513773     -0.6988687184     -0.7088513773     -0.004326220845   0.0004921904457   
1.015e+10         0.02416902848     0.009144041667    -0.6981059292     -0.7094811218     -0.6981059292     -0.7094811218     -0.005804015374   0.0004494338925   
1.016e+10         0.02279441108     0.01129696954     -0.6974299437     -0.7101434231     -0.6974299437     -0.7101434231     -0.007402963707   0.0007370620275   
1.017e+10         0.02075290839     0.01233790646     -0.6967225142     -0.7106435525     -0.6967225142     -0.7106435525     -0.008829675625   0.001919927592    
1.018e+10         0.01877075409     0.01240591298     -0.6960644549     -0.7111021949     -0.6960644549     -0.7111021949     -0.00950686201    0.003321364026    
1.019e+10         0.01672371278     0.01183951057     -0.6952817687     -0.7116072326     -0.6952817687     -0.7116072326     -0.009567538328   0.004877545936    
1.02e+10          0.01534529754     0.01040285399     -0.6945211025     -0.712301538      -0.6945211025     -0.712301538      -0.009017083199   0.00610921296     
1.021e+10         0.01470810804     0.008780712174    -0.6938442067     -0.7128630916     -0.6938442067     -0.7128630916     -0.007993209725   0.00669392012     
1.022e+10         0.01491007402     0.007115530811    -0.6931403228     -0.7134922326     -0.6931403228     -0.7134922326     -0.006659627304   0.006829588383    
1.023e+10         0.01579320347     0.0058954042      -0.6924992571     -0.7140344959     -0.6924992571     -0.7140344959     -0.005718554579   0.006242296157    
1.024e+10         0.01697258027     0.005154121595    -0.6919004614     -0.7146580037     -0.6919004614     -0.7146580037     -0.005146892592   0.005316129859    
1.025e+10         0.01835064475     0.005365260369    -0.6912028196     -0.715370754      -0.6912028196     -0.715370754      -0.00517859017    0.0043105346      
1.026e+10         0.01921896268     0.006290204618    -0.6904839929     -0.7161336846     -0.6904839929     -0.7161336846     -0.005664572343   0.003713101327    
1.027e+10         0.01942240183     0.007058213418    -0.6896067451     -0.7167337059     -0.6896067451     -0.7167337059     -0.006697354942   0.003573124536    
1.028e+10         0.01922797409     0.00787234437     -0.6888810394     -0.7173037261     -0.6888810394     -0.7173037261     -0.007541755029   0.003839247306    
1.029e+10         0.01825117764     0.008292734635    -0.6881928537     -0.7180368848     -0.6881928537     -0.7180368848     -0.007787850435   0.004705797998    
1.03e+10          0.01702863127     0.007972426445    -0.6876524113     -0.7187873419     -0.6876524113     -0.7187873419     -0.00743401825    0.005548200353    
1.031e+10         0.01608683391     0.006720791196    -0.6868826818     -0.7195656672     -0.6868826818     -0.7195656672     -0.006475633455   0.006261211433    
1.032e+10         0.01596914649     0.004894787819    -0.6861535684     -0.7202490277     -0.6861535684     -0.7202490277     -0.005113181374   0.006198224433    
1.033e+10         0.01675511481     0.003240271996    -0.6854939414     -0.7209404051     -0.6854939414     -0.7209404051     -0.003438631097   0.005363935741    
1.034e+10         0.01833129697     0.002077247725    -0.6849307102     -0.7215591135     -0.6849307102     -0.7215591135     -0.002097126177   0.003641715547    
1.035e+10         0.02066052549     0.001576475514    -0.6842804741     -0.7223790413     -0.6842804741     -0.7223790413     -0.001910695319   0.00148259061     
1.036e+10         0.02309722695     0.002052753842    -0.6837173405     -0.7230707766     -0.6837173405     -0.7230707766     -0.002496809623   -0.0006308305279  
1.037e+10         0.02525122442     0.003733939711    -0.683058369      -0.7238354613     -0.683058369      -0.7238354613     -0.004020115966   -0.002224781461   
1.038e+10         0.02639203565     0.006364547731    -0.6825556307     -0.7244279618     -0.6825556307     -0.7244279618     -0.006260974156   -0.003262072773   
1.039e+10         0.02611114112     0.008965702766    -0.6820155105     -0.7250933016     -0.6820155105     -0.7250933016     -0.009002623981   -0.00307609493    
1.04e+10          0.02469362922     0.01130175629     -0.681457751      -0.7255882425     -0.681457751      -0.7255882425     -0.01128542424    -0.001428770559   
1.041e+10         0.02218118794     0.01281355066     -0.6810850368     -0.7261835066     -0.6810850368     -0.7261835066     -0.01236800628    0.0008470281362   
1.042e+10         0.0193480893      0.01294962508     -0.6806682463     -0.7265825016     -0.6806682463     -0.7265825016     -0.01218341405    0.003161433753    
1.043e+10         0.01690246356     0.01175137899     -0.6802880331     -0.7270678831     -0.6802880331     -0.7270678831     -0.01116438433    0.005130460251    
1.044e+10         0.01520248229     0.009590701165    -0.6799111328     -0.7274771899     -0.6799111328     -0.7274771899     -0.008749916229   0.006588392973    
1.045e+10         0.01466854504     0.006362111059    -0.6795647498     -0.7279754767     -0.6795647498     -0.7279754767     -0.006042946356   0.006355085671    
1.046e+10         0.01578408145     0.003241337793    -0.6791342028     -0.7284146865     -0.6791342028     -0.7284146865     -0.003514749968   0.004784801291    
1.047e+10         0.01819826524     0.0009803830013   -0.6787396126     -0.7287993468     -0.6787396126     -0.7287993468     -0.001892879141   0.002179296253    
1.048e+10         0.02143826144     -0.0001186606342  -0.6782558391     -0.7292203336     -0.6782558391     -0.7292203336     -0.001491947701   -0.00109447839    
1.049e+10         0.02525695049     0.0004296635848   -0.6777925296     -0.7297312842     -0.6777925296     -0.7297312842     -0.002987959742   -0.004026131119   
1.05e+10          0.02839148214     0.002580210066    -0.6772257017     -0.7303140958     -0.6772257017     -0.7303140958     -0.005583176158   -0.006371413369   
1.051e+10         0.03019599826     0.005580502352    -0.6755286895     -0.7321792636     -0.6755286895     -0.7321792636     -0.008628014793   -0.007006622833   
1.052e+10         0.03028784341     0.009577214925    -0.6758449976     -0.731806375      -0.6758449976     -0.731806375      -0.01221204402    -0.006891769119   
1.053e+10         0.02887278658     0.01305807458     -0.6753861266     -0.7323027187     -0.6753861266     -0.7323027187     -0.0146892937     -0.004740683896   
1.054e+10         0.02621156659     0.01546788996     -0.6749046244     -0.7328503333     -0.6749046244     -0.7328503333     -0.01586930555    -0.001988087791   
1.055e+10         0.02292470984     0.01616740637     -0.6743093949     -0.7333912082     -0.6743093949     -0.7333912082     -0.01547183869    0.0006044633024   
1.056e+10         0.01999462049     0.01528601409     -0.6736960403     -0.7339032505     -0.6736960403     -0.7339032505     -0.01400246513    0.002733304335    
1.057e+10         0.01742746577     0.01356079391     -0.6731227711     -0.7342491576     -0.6731227711     -0.7342491576     -0.01168923393    0.003678665113    
1.058e+10         0.01631492261     0.01078929314     -0.672624077      -0.734625718      -0.672624077      -0.734625718      -0.009177165298   0.003431524317    
1.059e+10         0.01689236278     0.007854984829    -0.6720771303     -0.7350520368     -0.6720771303     -0.7350520368     -0.00755397429    0.001770672065    
1.06e+10          0.01898522043     0.00567261415     -0.6714606596     -0.735528506      -0.6714606596     -0.735528506      -0.007085349696   -0.0006389964536  
1.061e+10         0.02147468459     0.004476558758    -0.6707993756     -0.7360001069     -0.6707993756     -0.7360001069     -0.007530120595   -0.003263159098   
1.062e+10         0.02438795584     0.004730547678    -0.6700617447     -0.7364709359     -0.6700617447     -0.7364709359     -0.00920137616    -0.005405258747   
1.063e+10         0.02680960819     0.006774930104    -0.669367131      -0.7369489866     -0.669367131      -0.7369489866     -0.01183778932    -0.006143573961   
1.064e+10         0.02797249979     0.009828774457    -0.668653162      -0.7375439991     -0.668653162      -0.7375439991     -0.01458033007    -0.005341668437   
1.065e+10         0.027643192       0.01326073882     -0.6679662082     -0.7381172324     -0.6679662082     -0.7381172324     -0.01661373098    -0.003828126698   
1.066e+10         0.0257586872      0.01631073418     -0.6672728852     -0.7387658295     -0.6672728852     -0.7387658295     -0.01777621662    -0.00127800136    
1.067e+10         0.02279762967     0.01783208837     -0.6665759263     -0.7391983851     -0.6665759263     -0.7391983851     -0.01762108286    0.001158945293    
1.068e+10         0.01948181481     0.01793795754     -0.6660191523     -0.7397400868     -0.6660191523     -0.7397400868     -0.01617481184    0.003476320169    
1.069e+10         0.01639673817     0.01678341447     -0.6654190287     -0.7403387783     -0.6654190287     -0.7403387783     -0.01411090742    0.004651083429    
1.07e+10          0.01399669927     0.0144920282      -0.6647627028     -0.7409061184     -0.6647627028     -0.7409061184     -0.01185699966    0.004393483252    
1.071e+10         0.01272280134     0.01115539459     -0.664168463      -0.7412993668     -0.664168463      -0.7412993668     -0.01038223081    0.003484104795    
1.072e+10         0.01303098193     0.007750384559    -0.6636057555     -0.7417452313     -0.6636057555     -0.7417452313     -0.009193345338   0.002172815316    
1.073e+10         0.01485600398     0.005374551611    -0.6629071237     -0.7424163668     -0.6629071237     -0.7424163668     -0.009300097516   0.0005041099175   
1.074e+10         0.01736601448     0.003939598929    -0.6623088629     -0.7430461816     -0.6623088629     -0.7430461816     -0.009940093052   -0.0004360571043  
1.075e+10         0.01996237206     0.004185197588    -0.6615694581     -0.7437103881     -0.6615694581     -0.7437103881     -0.01095774899    -0.0005588257175  
1.076e+10         0.02180878714     0.005563160062    -0.6609253148     -0.7442617086     -0.6609253148     -0.7442617086     -0.01151740223    -0.0001711277541  
1.077e+10         0.02284765435     0.006959423901    -0.6603565541     -0.7448470462     -0.6603565541     -0.7448470462     -0.01177739075    -4.764909375e-06  
1.078e+10         0.02290375462     0.008835681048    -0.6599263861     -0.7454487095     -0.6599263861     -0.7454487095     -0.01210144966    0.0004842117528   
1.079e+10         0.02146415784     0.009859222405    -0.6592180902     -0.7461712532     -0.6592180902     -0.7461712532     -0.01150621914    0.001469137374    
1.08e+10          0.01964245743     0.009727687448    -0.6584719013     -0.7467013841     -0.6584719013     -0.7467013841     -0.009896039902   0.002137531242    
1.081e+10         0.01785723632     0.008489036518    -0.6580518568     -0.7473369802     -0.6580518568     -0.7473369802     -0.008218697076   0.001912757553    
1.082e+10         0.01701256107     0.006343677998    -0.6575893766     -0.747901325      -0.6575893766     -0.747901325      -0.006421767917   0.0009078526247   
1.083e+10         0.01712900791     0.003393566757    -0.6571405957     -0.7485202696     -0.6571405957     -0.7485202696     -0.005482538184   -0.0006556603432  
1.084e+10         0.0187564934      0.0003855700261   -0.6566226221     -0.7489884226     -0.6566226221     -0.7489884226     -0.004988021919   -0.002545211838   
1.085e+10         0.02217957133     -0.001208498481   -0.6560999537     -0.7497080477     -0.6560999537     -0.7497080477     -0.004985484037   -0.004863574816   
1.086e+10         0.0257527247      -0.001429013713   -0.6556046522     -0.7502636552     -0.6556046522     -0.7502636552     -0.005829734394   -0.007323918953   
1.087e+10         0.02961817118     -0.0005313706736  -0.655111835      -0.7507990288     -0.655111835      -0.7507990288     -0.007304917328   -0.008829890799   
1.088e+10         0.03296398854     0.002148612674    -0.6545740257     -0.7513877097     -0.6545740257     -0.7513877097     -0.009033278837   -0.01000849819    
1.089e+10         0.0350735135      0.005541225994    -0.6540814585     -0.7520097903     -0.6540814585     -0.7520097903     -0.01090579015    -0.0105517384     
1.09e+10          0.03562548778     0.009432033658    -0.6535914439     -0.7525729371     -0.6535914439     -0.7525729371     -0.01293472873    -0.01045488582    
1.091e+10         0.03446566658     0.01350557677     -0.6530864806     -0.7530377064     -0.6530864806     -0.7530377064     -0.01400478635    -0.009871973073   
1.092e+10         0.03177135451     0.01649063357     -0.6525247848     -0.7534555967     -0.6525247848     -0.7534555967     -0.01474489812    -0.009208588241   
1.093e+10         0.02904792848     0.01786689202     -0.6520251384     -0.754073841      -0.6520251384     -0.754073841      -0.0153776195     -0.008234000688   
1.094e+10         0.0261971693      0.01826828653     -0.6514181122     -0.7545854393     -0.6514181122     -0.7545854393     -0.01542443       -0.007787602977   
1.095e+10         0.02337034223     0.01751603359     -0.6510769389     -0.7550780586     -0.6510769389     -0.7550780586     -0.01571333744    -0.00743988908    
1.096e+10         0.02122451388     0.01574916217     -0.6506922168     -0.7555698606     -0.6506922168     -0.7555698606     -0.01599409492    -0.007061905972   
1.097e+10         0.0205773722      0.01359932951     -0.650169313      -0.7558833484     -0.650169313      -0.7558833484     -0.01619983087    -0.00678744666    
1.098e+10         0.0208080642      0.01180574057     -0.6495203409     -0.7564410784     -0.6495203409     -0.7564410784     -0.01657202201    -0.006412174229   
1.099e+10         0.02194668716     0.01080636417     -0.6489559053     -0.7568844403     -0.6489559053     -0.7568844403     -0.01689532593    -0.005928240634   
1.1e+10           0.02306946353     0.01057660643     -0.6482602612     -0.7573668921     -0.6482602612     -0.7573668921     -0.0168201101     -0.005114120029   
1.101e+10         0.02408143        0.01076567414     -0.6473232108     -0.7584478989     -0.6473232108     -0.7584478989     -0.01637862166    -0.004645652524   
1.102e+10         0.02471753709     0.01118977113     -0.6473708201     -0.7585227197     -0.6473708201     -0.7585227197     -0.01558980934    -0.004384479217   
1.103e+10         0.0244799835      0.01199581627     -0.6467902623     -0.7589704266     -0.6467902623     -0.7589704266     -0.01482411667    -0.004113590721   
1.104e+10         0.02378454035     0.0123505163      -0.6461865138     -0.7594304721     -0.6461865138     -0.7594304721     -0.01374405403    -0.004555843689   
1.105e+10         0.02299076109     0.01176791279     -0.6456444164     -0.7597063246     -0.6456444164     -0.7597063246     -0.01281237225    -0.005415762784   
1.106e+10         0.02258826176     0.0107003172      -0.6450943969     -0.7600987203     -0.6450943969     -0.7600987203     -0.01227165875    -0.006722915542   
1.107e+10         0.0233615962      0.009296053477    -0.6444909661     -0.7604332407     -0.6444909661     -0.7604332407     -0.01230670892    -0.008155893749   
1.108e+10         0.02484016939     0.008481337276    -0.6438444631     -0.7609575163     -0.6438444631     -0.7609575163     -0.01259741431    -0.009611900572   
1.109e+10         0.02705252395     0.007986288917    -0.6431764664     -0.7612989617     -0.6431764664     -0.7612989617     -0.01359953303    -0.01100934169    
1.11e+10          0.02971889848     0.00881716395     -0.6425784662     -0.7616994048     -0.6425784662     -0.7616994048     -0.0151829733     -0.01206006562    
