! RsaToolbox (C) 2014 Rohde & Schwarz America
! 
! Number of points: 101
! Number of ports: 2
! Balanced ports?: No
! 
! 
# Hz S RI R 50
350000000         -0.01477631101    -0.008151272895   -0.3542540839     0.9214105543      
                  -0.3542540839     0.9214105543      -0.01737701726    -0.02084176469    
351000000         -0.01494247588    -0.008044810772   -0.3427693952     0.9257008969      
                  -0.3427693952     0.9257008969      -0.01779859891    -0.02049885575    
352000000         -0.01519405288    -0.007995575687   -0.3312350059     0.9298552826      
                  -0.3312350059     0.9298552826      -0.01799417995    -0.02036062167    
353000000         -0.01539261966    -0.007856527544   -0.3196713806     0.9338879334      
                  -0.3196713806     0.9338879334      -0.0185537542     -0.02013824366    
354000000         -0.01558297074    -0.007700695542   -0.3080688053     0.9377684502      
                  -0.3080688053     0.9377684502      -0.01898141742    -0.01984608467    
355000000         -0.01580852174    -0.007453997237   -0.2964476075     0.941487981       
                  -0.2964476075     0.941487981       -0.01931442781    -0.01980605012    
356000000         -0.01605570173    -0.007335565188   -0.2847317569     0.9450700554      
                  -0.2847317569     0.9450700554      -0.01964431228    -0.019581546      
357000000         -0.01630986393    -0.00711897696    -0.2729827671     0.9485207048      
                  -0.2729827671     0.9485207048      -0.0200223996     -0.01947813031    
358000000         -0.01660195078    -0.006904110239   -0.2612309386     0.9518250272      
                  -0.2612309386     0.9518250272      -0.02030686829    -0.01946951083    
359000000         -0.01684133784    -0.006611985949   -0.2493645538     0.9549644414      
                  -0.2493645538     0.9549644414      -0.02077226589    -0.01943855719    
360000000         -0.01715019881    -0.00633939098    -0.2375118296     0.9579662494      
                  -0.2375118296     0.9579662494      -0.02119261583    -0.01946408682    
361000000         -0.01733956065    -0.00625746903    -0.2256577546     0.9608026627      
                  -0.2256577546     0.9608026627      -0.0213319739     -0.01919055998    
362000000         -0.01753707772    -0.006183422214   -0.2136761627     0.9634950057      
                  -0.2136761627     0.9634950057      -0.02139065448    -0.01871735219    
363000000         -0.01776488455    -0.006051887949   -0.2017485573     0.9660360981      
                  -0.2017485573     0.9660360981      -0.02155930335    -0.01852073928    
364000000         -0.01791356055    -0.005920514838   -0.1897250695     0.9684859252      
                  -0.1897250695     0.9684859252      -0.02187111744    -0.01804813131    
365000000         -0.01811578148    -0.005729618447   -0.1777243337     0.9707312215      
                  -0.1777243337     0.9707312215      -0.02206479966    -0.01783072254    
366000000         -0.01828198525    -0.005511384025   -0.1656669575     0.9728405292      
                  -0.1656669575     0.9728405292      -0.02244687091    -0.01753573836    
367000000         -0.0184223737     -0.005180852238   -0.1535973607     0.974854365       
                  -0.1535973607     0.974854365       -0.0228570107     -0.01740662324    
368000000         -0.01858638712    -0.004896168728   -0.1415274002     0.9766342626      
                  -0.1415274002     0.9766342626      -0.02319704025    -0.01723744872    
369000000         -0.01873949969    -0.004469173741   -0.1294074177     0.9782638138      
                  -0.1294074177     0.9782638138      -0.02368670508    -0.01715155173    
370000000         -0.01888016305    -0.004074607354   -0.1172998359     0.9798045638      
                  -0.1172998359     0.9798045638      -0.02419794276    -0.01707556222    
371000000         -0.01902334619    -0.004033483131   -0.1051609171     0.9811755521      
                  -0.1051609171     0.9811755521      -0.02425431789    -0.01660332244    
372000000         -0.01915991546    -0.003920660813   -0.09296585218    0.9823739067      
                  -0.09296585218    0.9823739067      -0.02439020444    -0.01601774188    
373000000         -0.01938217459    -0.003754298108   -0.08077943608    0.9834096092      
                  -0.08077943608    0.9834096092      -0.02436571936    -0.0156694335     
374000000         -0.01951580427    -0.003587054692   -0.06854640223    0.9843112034      
                  -0.06854640223    0.9843112034      -0.02462678597    -0.01527149181    
375000000         -0.0197409723     -0.003309761851   -0.05638394673    0.9850418316      
                  -0.05638394673    0.9850418316      -0.02481269696    -0.01506074978    
376000000         -0.01980778507    -0.003011594679   -0.0441910326     0.9856987881      
                  -0.0441910326     0.9856987881      -0.02507479551    -0.01474469174    
377000000         -0.0199512762     -0.002746265704   -0.03195578417    0.986144043       
                  -0.03195578417    0.986144043       -0.02538347732    -0.01442849586    
378000000         -0.02009517509    -0.002349453691   -0.01975282943    0.9864276454      
                  -0.01975282943    0.9864276454      -0.02564201662    -0.01425674571    
379000000         -0.02018171504    -0.001858452737   -0.007529203994   0.9865386788      
                  -0.007529203994   0.9865386788      -0.0261851628     -0.01413289715    
380000000         -0.02022376315    -0.001420168509   0.004737382194    0.9865595252      
                  0.004737382194    0.9865595252      -0.02678933635    -0.01395624657    
381000000         -0.02038766655    -0.001308444334   0.01695527521     0.986418165       
                  0.01695527521     0.986418165       -0.0266253019     -0.01355575368    
382000000         -0.0206055702     -0.001231996087   0.02913497548     0.9860964198      
                  0.02913497548     0.9860964198      -0.02638866239    -0.01298959148    
383000000         -0.02079604818    -0.001022308267   0.04138364616     0.9856327191      
                  0.04138364616     0.9856327191      -0.02641011121    -0.01273982222    
384000000         -0.02097986335    -0.0008331359876  0.05354333609     0.985038063       
                  0.05354333609     0.985038063       -0.02635071714    -0.0122941159     
385000000         -0.02110079355    -0.0004920264815  0.06579890453     0.984277131       
                  0.06579890453     0.984277131       -0.02658885814    -0.01199638179    
386000000         -0.0211826075     -0.000160090925   0.07798998399     0.9834066733      
                  0.07798998399     0.9834066733      -0.02672195665    -0.01179758171    
387000000         -0.0212559161     0.0002236408595   0.09011441905     0.98236332        
                  0.09011441905     0.98236332        -0.02692257861    -0.01161669247    
388000000         -0.02120239836    0.0007011178049   0.1023371062      0.9811738214      
                  0.1023371062      0.9811738214      -0.0273946095     -0.01137093573    
389000000         -0.02111135635    0.001081440623    0.1144412335      0.9797108198      
                  0.1144412335      0.9797108198      -0.02794279018    -0.01076708935    
390000000         -0.02087249379    0.001571518229    0.1266146641      0.97824917        
                  0.1266146641      0.97824917        -0.02872157618    -0.01046573706    
391000000         -0.02110612937    0.002107770376    0.1387231927      0.9765932539      
                  0.1387231927      0.9765932539      -0.02884256453    -0.01069008803    
392000000         -0.02123783098    0.002611457939    0.1507891077      0.9747468467      
                  0.1507891077      0.9747468467      -0.0290583993     -0.0107263015     
393000000         -0.02129700379    0.003218295872    0.1628501371      0.9727763624      
                  0.1628501371      0.9727763624      -0.02940125332    -0.01092185121    
394000000         -0.02135260353    0.003681850899    0.1749333281      0.9706781319      
                  0.1749333281      0.9706781319      -0.02956275564    -0.01089538596    
395000000         -0.02122049526    0.00411058791     0.1869386962      0.9684494036      
                  0.1869386962      0.9684494036      -0.0299543721     -0.01057994135    
396000000         -0.02102925545    0.004362948229    0.1989151057      0.9659982985      
                  0.1989151057      0.9659982985      -0.03031259496    -0.009958613599   
397000000         -0.02092883346    0.004662324246    0.2108617898      0.9634611584      
                  0.2108617898      0.9634611584      -0.03051786551    -0.009463099807   
398000000         -0.02077980144    0.004760820602    0.2227906457      0.96074108        
                  0.2227906457      0.96074108        -0.03054280395    -0.008707919784   
399000000         -0.02070268322    0.004757353048    0.234664246       0.9579455698      
                  0.234664246       0.9579455698      -0.03031515589    -0.007713990463   
400000000         -0.02073311137    0.004671444488    0.2465406761      0.9549383185      
                  0.2465406761      0.9549383185      -0.02978055554    -0.006949030609   
401000000         -0.02027926735    0.005057854521    0.2583461297      0.9517596293      
                  0.2583461297      0.9517596293      -0.03061164889    -0.00628075539    
402000000         -0.01989409915    0.005418205173    0.2701308107      0.9484919721      
                  0.2701308107      0.9484919721      -0.03127120107    -0.005686118188   
403000000         -0.01963452316    0.005674496718    0.2818259584      0.9450451588      
                  0.2818259584      0.9450451588      -0.03150521166    -0.005108655347   
404000000         -0.0195081733     0.005847518976    0.2935080383      0.9414698444      
                  0.2935080383      0.9414698444      -0.03149824812    -0.004501625963   
405000000         -0.01938454049    0.006078722455    0.3051335431      0.9377405498      
                  0.3051335431      0.9377405498      -0.03169194259    -0.003997602356   
406000000         -0.01934227763    0.006254615116    0.3167234316      0.9338974125      
                  0.3167234316      0.9338974125      -0.03146831239    -0.003541724319   
407000000         -0.01940489403    0.00651608349     0.3282893358      0.9299002201      
                  0.3282893358      0.9299002201      -0.03125390304    -0.003268496752   
408000000         -0.01950415899    0.006764437861    0.3397368446      0.9257347555      
                  0.3397368446      0.9257347555      -0.03082755812    -0.00302154824    
409000000         -0.01962602508    0.00711972877     0.3512055403      0.9214212224      
                  0.3512055403      0.9214212224      -0.03057638944    -0.003001536468   
410000000         -0.01978291336    0.007541000736    0.3625999095      0.9170115093      
                  0.3625999095      0.9170115093      -0.03029467123    -0.003201647083   
411000000         -0.01959024264    0.007632301952    0.373944102       0.9124255959      
                  0.373944102       0.9124255959      -0.03014692055    -0.002508804071   
412000000         -0.01949800638    0.007776379295    0.3851839591      0.9076612073      
                  0.3851839591      0.9076612073      -0.02991824477    -0.001882022022   
413000000         -0.01940230185    0.007983858815    0.3964016593      0.9028196379      
                  0.3964016593      0.9028196379      -0.02997820629    -0.001343364962   
414000000         -0.01925364393    0.008250864235    0.4075640656      0.8978756813      
                  0.4075640656      0.8978756813      -0.02989508635    -0.001020062484   
415000000         -0.0191578253     0.008534590782    0.4186503803      0.8926977794      
                  0.4186503803      0.8926977794      -0.02968905197    -0.0007456800385  
416000000         -0.01904494033    0.00879948664     0.4296627975      0.8874365641      
                  0.4296627975      0.8874365641      -0.02974139662    -0.0002883356702  
417000000         -0.01888942755    0.009125643835    0.4406162228      0.8820361495      
                  0.4406162228      0.8820361495      -0.0296339426     -5.598254356e-06  
418000000         -0.01869477605    0.009529737703    0.4515046308      0.8764989029      
                  0.4515046308      0.8764989029      -0.02969967486    0.0001871697063   
419000000         -0.01849470975    0.009828275123    0.4622981665      0.8708683368      
                  0.4622981665      0.8708683368      -0.02968594778    0.0004431599187   
420000000         -0.01822951723    0.01027845686     0.4730480787      0.8650399241      
                  0.4730480787      0.8650399241      -0.02995670409    0.0005241747113   
421000000         -0.01813047315    0.01040496603     0.4837403457      0.8591073244      
                  0.4837403457      0.8591073244      -0.02963734433    0.0008846426954   
422000000         -0.01801921818    0.0106563962      0.4943213459      0.85302919        
                  0.4943213459      0.85302919        -0.02929554645    0.001254767407    
423000000         -0.01785370466    0.01087977024     0.5048389297      0.8468440763      
                  0.5048389297      0.8468440763      -0.02916941814    0.001565757046    
424000000         -0.01767199825    0.01110960905     0.5152707829      0.8404963379      
                  0.5152707829      0.8404963379      -0.02907305511    0.001887805262    
425000000         -0.01748442849    0.01130795088     0.5256159784      0.8340569015      
                  0.5256159784      0.8340569015      -0.02874850546    0.002322749902    
426000000         -0.01729208949    0.01157318582     0.5359506586      0.8274643194      
                  0.5359506586      0.8274643194      -0.02868123886    0.002668481433    
427000000         -0.01700894556    0.01178731261     0.5461285746      0.8207587925      
                  0.5461285746      0.8207587925      -0.02844554026    0.002930195924    
428000000         -0.01675397057    0.01197331489     0.5562544755      0.8139242711      
                  0.5562544755      0.8139242711      -0.0285073571     0.003613578703    
429000000         -0.01649292409    0.01225232539     0.566272999       0.8069457877      
                  0.566272999       0.8069457877      -0.02827738982    0.00365607177     
430000000         -0.01615972989    0.01238227626     0.5762271165      0.7998645924      
                  0.5762271165      0.7998645924      -0.02830601167    0.004188946075    
431000000         -0.01598010477    0.0125728721      0.586074493       0.7926521842      
                  0.586074493       0.7926521842      -0.027828875      0.004488968633    
432000000         -0.01577919624    0.01281396077     0.5958061216      0.7853298167      
                  0.5958061216      0.7853298167      -0.02778112215    0.00472591145     
433000000         -0.01557458693    0.01297871466     0.6055106692      0.7779173186      
                  0.6055106692      0.7779173186      -0.02733484121    0.004994139229    
434000000         -0.01535464945    0.01312286626     0.6151207516      0.7702897737      
                  0.6151207516      0.7702897737      -0.02711284807    0.005282334437    
435000000         -0.01505802694    0.01335315693     0.6245921232      0.7626412572      
                  0.6245921232      0.7626412572      -0.0268811854     0.005780799589    
436000000         -0.01483675477    0.01351858621     0.6339696184      0.7548239766      
                  0.6339696184      0.7548239766      -0.02665734405    0.006158051616    
437000000         -0.01451898125    0.01364555479     0.6432495239      0.7468778225      
                  0.6432495239      0.7468778225      -0.02641719398    0.006404705381    
438000000         -0.01427051264    0.01382241137     0.6524865146      0.7388609001      
                  0.6524865146      0.7388609001      -0.02613258698    0.006661508392    
439000000         -0.01393098606    0.01394871451     0.6615558366      0.7306939361      
                  0.6615558366      0.7306939361      -0.02594641305    0.007073420003    
440000000         -0.01367398479    0.01408904429     0.6705510051      0.7224638344      
                  0.6705510051      0.7224638344      -0.02559741943    0.007545306901    
441000000         -0.01342425759    0.01424685084     0.6794292342      0.7140468076      
                  0.6794292342      0.7140468076      -0.02552912208    0.007740855512    
442000000         -0.01313803601    0.01436443197     0.6882250586      0.7055746412      
                  0.6882250586      0.7055746412      -0.02529014736    0.008029255205    
443000000         -0.01289454217    0.01450645078     0.69689918        0.6970106623      
                  0.69689918        0.6970106623      -0.02479948108    0.008283341229    
444000000         -0.0126072315     0.01462359192     0.7054428034      0.6883071985      
                  0.7054428034      0.6883071985      -0.02453095861    0.008578614684    
445000000         -0.01230853247    0.0147130213      0.7139311715      0.6795047022      
                  0.7139311715      0.6795047022      -0.02421959402    0.008878319759    
446000000         -0.01198744591    0.01486545739     0.7222308195      0.6706008243      
                  0.7222308195      0.6706008243      -0.02405327618    0.009205153794    
447000000         -0.01170699931    0.01493043393     0.7305157646      0.6616076948      
                  0.7305157646      0.6616076948      -0.02373104584    0.009399250549    
448000000         -0.01139625129    0.01498180476     0.7386579956      0.6524754043      
                  0.7386579956      0.6524754043      -0.02348431672    0.00957048154     
449000000         -0.0111115417     0.01503020139     0.746672302       0.6432805765      
                  0.746672302       0.6432805765      -0.02308027562    0.009971488078    
450000000         -0.01075772565    0.01509545309     0.754600479       0.6339540059      
                  0.754600479       0.6339540059      -0.0227188949     0.01022029049     
