! RsaToolbox (C) 2014 Rohde & Schwarz America
! 
! Number of points: 101
! Number of ports: 2
! Balanced ports?: No
! 
! 
# Hz S RI R 50
350000000         -0.002562250926   -0.01321447951    -0.3838465749     0.9073916886      
                  -0.3838465749     0.9073916886      -0.007068739029   -0.007360943473   
351000000         -0.002861057755   -0.01321153867    -0.3726605535     0.9119630635      
                  -0.3726605535     0.9119630635      -0.007258751382   -0.007337795166   
352000000         -0.003098994526   -0.01329223756    -0.3613839973     0.9164637895      
                  -0.3613839973     0.9164637895      -0.00755053332    -0.007072484132   
353000000         -0.003393176313   -0.01328039074    -0.3500963618     0.920839993       
                  -0.3500963618     0.920839993       -0.007643487053   -0.007076063494   
354000000         -0.003627922536   -0.0133136302     -0.3387151741     0.9250319805      
                  -0.3387151741     0.9250319805      -0.007990154295   -0.006973948186   
355000000         -0.003916309341   -0.01331821294    -0.3272816347     0.9291063825      
                  -0.3272816347     0.9291063825      -0.008282472927   -0.006929482191   
356000000         -0.00419949305    -0.01333353387    -0.3158682812     0.9330397935      
                  -0.3158682812     0.9330397935      -0.008397684088   -0.006856824362   
357000000         -0.004501193491   -0.01326501733    -0.3043771095     0.9368556         
                  -0.3043771095     0.9368556         -0.008704355216   -0.006972542538   
358000000         -0.004829475313   -0.01322112037    -0.2927520487     0.9404811598      
                  -0.2927520487     0.9404811598      -0.009014764431   -0.006983450818   
359000000         -0.005175245541   -0.01323753622    -0.2811863886     0.9440435024      
                  -0.2811863886     0.9440435024      -0.009099587621   -0.006902062512   
360000000         -0.005397057074   -0.01315147028    -0.269554259      0.9474045         
                  -0.269554259      0.9474045         -0.009408301564   -0.006765913184   
361000000         -0.005709815944   -0.01313695774    -0.257832367      0.9505974941      
                  -0.257832367      0.9505974941      -0.009532859746   -0.006767209141   
362000000         -0.005970418286   -0.01312079256    -0.2461357148     0.9536985964      
                  -0.2461357148     0.9536985964      -0.009825743499   -0.006544205326   
363000000         -0.00624188189    -0.01308206936    -0.2343797509     0.9566297733      
                  -0.2343797509     0.9566297733      -0.009929549525   -0.006391671883   
364000000         -0.006493040586   -0.01308131642    -0.2226123086     0.9594164489      
                  -0.2226123086     0.9594164489      -0.01008786054    -0.006265361332   
365000000         -0.006766686841   -0.01291868262    -0.2107361478     0.9621017434      
                  -0.2107361478     0.9621017434      -0.01050850158    -0.006179124928   
366000000         -0.007006785115   -0.01293514358    -0.19890705       0.9645940127      
                  -0.19890705       0.9645940127      -0.0106721716     -0.0059699813     
367000000         -0.007285753569   -0.01282407195    -0.1870406929     0.9669274533      
                  -0.1870406929     0.9669274533      -0.01076334692    -0.005794541079   
368000000         -0.007614886978   -0.01272618407    -0.1750788463     0.9691244983      
                  -0.1750788463     0.9691244983      -0.01102998102    -0.005683201354   
369000000         -0.007860786654   -0.0126475476     -0.1631981017     0.9711908459      
                  -0.1631981017     0.9711908459      -0.01114631366    -0.005692400133   
370000000         -0.008197847067   -0.0125590383     -0.1512053895     0.9731306796      
                  -0.1512053895     0.9731306796      -0.01131525046    -0.005652775813   
371000000         -0.008455229592   -0.01241108915    -0.1392502925     0.9749060506      
                  -0.1392502925     0.9749060506      -0.01148691087    -0.005557349178   
372000000         -0.008706936559   -0.01237863074    -0.1272522863     0.9765240377      
                  -0.1272522863     0.9765240377      -0.01168930257    -0.005205396449   
373000000         -0.008905015193   -0.01222617927    -0.1152139176     0.9779574453      
                  -0.1152139176     0.9779574453      -0.01194598799    -0.005073529757   
374000000         -0.009170824717   -0.01213506026    -0.1031960652     0.9792803897      
                  -0.1031960652     0.9792803897      -0.01202383567    -0.004982155817   
375000000         -0.009397688228   -0.012077402      -0.09115566104    0.9804579221      
                  -0.09115566104    0.9804579221      -0.01210503112    -0.004618331681   
376000000         -0.009647747023   -0.01193062288    -0.07906944798    0.9814702638      
                  -0.07906944798    0.9814702638      -0.01230790317    -0.004594686575   
377000000         -0.009967780159   -0.01169432959    -0.06701743009    0.9823547413      
                  -0.06701743009    0.9823547413      -0.01250661666    -0.004679006969   
378000000         -0.01018692435    -0.01157576131    -0.05493216491    0.9831220719      
                  -0.05493216491    0.9831220719      -0.01269355819    -0.004436559353   
379000000         -0.01044335659    -0.01139839334    -0.04279719956    0.9836774134      
                  -0.04279719956    0.9836774134      -0.0128405115     -0.004393340681   
380000000         -0.01070719891    -0.01115719887    -0.03073598672    0.9840988824      
                  -0.03073598672    0.9840988824      -0.01294025996    -0.004418699028   
381000000         -0.01090697787    -0.01111305755    -0.01857114368    0.9844051992      
                  -0.01857114368    0.9844051992      -0.01317821861    -0.00395953289    
382000000         -0.01116290838    -0.01104148364    -0.006495103449   0.9845151497      
                  -0.006495103449   0.9845151497      -0.01299834901    -0.003756220624   
383000000         -0.01138134886    -0.01097311858    0.005603425676    0.9844610848      
                  0.005603425676    0.9844610848      -0.01299879723    -0.003513635269   
384000000         -0.01160151255    -0.01082410315    0.01774845382     0.9843437414      
                  0.01774845382     0.9843437414      -0.01329563654    -0.003185928127   
385000000         -0.01182940023    -0.01069548235    0.0298359965      0.9840398299      
                  0.0298359965      0.9840398299      -0.01317843847    -0.003000784159   
386000000         -0.0120681136     -0.01050487228    0.04190899193     0.9835906052      
                  0.04190899193     0.9835906052      -0.01318755394    -0.002924852558   
387000000         -0.01233421076    -0.01029995298    0.05399002225     0.9829600223      
                  0.05399002225     0.9829600223      -0.01331579425    -0.00281491779    
388000000         -0.01253445054    -0.01006163214    0.06608978139     0.9822105265      
                  0.06608978139     0.9822105265      -0.01346669389    -0.002575467169   
389000000         -0.012681654      -0.009778050248   0.07819026459     0.9813064716      
                  0.07819026459     0.9813064716      -0.01370951905    -0.00261788883    
390000000         -0.01284802658    -0.009452219239   0.09025901465     0.980253295       
                  0.09025901465     0.980253295       -0.01407492845    -0.002595908935   
391000000         -0.01319252338    -0.009380162359   0.1022975998      0.9790564185      
                  0.1022975998      0.9790564185      -0.01365339934    -0.002445208851   
392000000         -0.01353264205    -0.009256594382   0.1143600291      0.9776940172      
                  0.1143600291      0.9776940172      -0.01333953653    -0.002217949474   
393000000         -0.01380203624    -0.009146737628   0.1263371944      0.9762056259      
                  0.1263371944      0.9762056259      -0.0131799865     -0.001984393499   
394000000         -0.01411921674    -0.008975162937   0.1383389925      0.9745725441      
                  0.1383389925      0.9745725441      -0.01288506862    -0.001986878261   
395000000         -0.01433158539    -0.008739578524   0.1503041323      0.9727675371      
                  0.1503041323      0.9727675371      -0.01290441998    -0.001786423818   
396000000         -0.01449572383    -0.008424000319   0.1623014559      0.9707952087      
                  0.1623014559      0.9707952087      -0.01307327683    -0.001695072929   
397000000         -0.01460633614    -0.008109380754   0.1742350164      0.9687117346      
                  0.1742350164      0.9687117346      -0.01319147164    -0.001677990917   
398000000         -0.01463912847    -0.007766337814   0.1861034075      0.9664942682      
                  0.1861034075      0.9664942682      -0.01361259034    -0.001478317219   
399000000         -0.01459622909    -0.007434494334   0.1979925951      0.9640889255      
                  0.1979925951      0.9640889255      -0.01392486679    -0.001285064924   
400000000         -0.01435775828    -0.00708789987    0.2098596231      0.9615912427      
                  0.2098596231      0.9615912427      -0.01457334563    -0.0007666608337  
401000000         -0.01497789775    -0.006746993415   0.221677829       0.9589003034      
                  0.221677829       0.9589003034      -0.01405681837    -0.001418694232   
402000000         -0.01532049367    -0.006293175934   0.2334151973      0.9561210992      
                  0.2334151973      0.9561210992      -0.01397658114    -0.001755592517   
403000000         -0.01552761505    -0.005846313457   0.245155188       0.9531180995      
                  0.245155188       0.9531180995      -0.01403628549    -0.002112519155   
404000000         -0.01573251237    -0.005450708806   0.2568474333      0.9499925837      
                  0.2568474333      0.9499925837      -0.01412976292    -0.002124776687   
405000000         -0.01580412704    -0.005090592951   0.268510992       0.9467828677      
                  0.268510992       0.9467828677      -0.01433938662    -0.002205972947   
406000000         -0.01577296491    -0.004767229503   0.2801288229      0.9433797373      
                  0.2801288229      0.9433797373      -0.01463641247    -0.00203367661    
407000000         -0.01567456451    -0.004546685434   0.2917106792      0.9398724956      
                  0.2917106792      0.9398724956      -0.01496113653    -0.001635766912   
408000000         -0.01545912244    -0.004379333516   0.3032575736      0.9361457628      
                  0.3032575736      0.9361457628      -0.01538962883    -0.001026751145   
409000000         -0.01529935712    -0.004363531729   0.3147010947      0.9323400121      
                  0.3147010947      0.9323400121      -0.01557721377    -0.0001509934562  
410000000         -0.01512049308    -0.004488856484   0.3261582226      0.928404268       
                  0.3261582226      0.928404268       -0.01560511002    0.0008743895978   
411000000         -0.01519848449    -0.004114669511   0.3375587758      0.9243008912      
                  0.3375587758      0.9243008912      -0.01564636141    0.000878281698    
412000000         -0.01521921768    -0.003793117258   0.3488680745      0.9200487145      
                  0.3488680745      0.9200487145      -0.0158005799     0.001025822473    
413000000         -0.01522855318    -0.003534996094   0.3601603748      0.9156759619      
                  0.3601603748      0.9156759619      -0.0158368127     0.001270299183    
414000000         -0.01523992551    -0.003218074552   0.3713546064      0.9111415774      
                  0.3713546064      0.9111415774      -0.01590666402    0.001421076689    
415000000         -0.01526690832    -0.003023420353   0.3825422456      0.9065267749      
                  0.3825422456      0.9065267749      -0.01580713103    0.001602390544    
416000000         -0.01532134811    -0.002812009572   0.3936179019      0.9017298124      
                  0.3936179019      0.9017298124      -0.01587307923    0.001983694036    
417000000         -0.01534494243    -0.002576937492   0.4046604983      0.8967648772      
                  0.4046604983      0.8967648772      -0.01579276602    0.002237069393    
418000000         -0.01526353378    -0.002348886384   0.4156468036      0.8917080815      
                  0.4156468036      0.8917080815      -0.01575736445    0.002584247734    
419000000         -0.01527090689    -0.002138059726   0.4265828278      0.8865066832      
                  0.4265828278      0.8865066832      -0.01572145065    0.002836525074    
420000000         -0.01527388795    -0.001882342328   0.4374631149      0.8811995303      
                  0.4374631149      0.8811995303      -0.0155670699     0.003104552798    
421000000         -0.01616387614    -0.001248034901   0.4482755982      0.8757403276      
                  0.4482755982      0.8757403276      -0.01450332402    0.00182060266     
422000000         -0.01664336091    -0.0004951493466  0.4589876089      0.8701539782      
                  0.4589876089      0.8701539782      -0.01383154964    0.000715263487    
423000000         -0.01682792302    0.0001906001391   0.4696754915      0.8644677431      
                  0.4696754915      0.8644677431      -0.0137287189     4.682408084e-06   
424000000         -0.01679538622    0.0009286406972   0.4802648599      0.8585680404      
                  0.4802648599      0.8585680404      -0.01393710229    -0.0006982021423  
425000000         -0.01652852475    0.001401269564    0.4907939798      0.8525358454      
                  0.4907939798      0.8525358454      -0.01457346482    -0.0006637772521  
426000000         -0.01615414391    0.001623120974    0.5011794914      0.8464483099      
                  0.5011794914      0.8464483099      -0.01491144836    -0.0002161120217  
427000000         -0.01570159301    0.001687063455    0.511566203       0.8401829344      
                  0.511566203       0.8401829344      -0.01534088484    0.0008031351514   
428000000         -0.01525904552    0.001491500419    0.5218222527      0.8338432597      
                  0.5218222527      0.8338432597      -0.01556446768    0.001970078826    
429000000         -0.01498600487    0.001088347986    0.5320205272      0.8273493444      
                  0.5320205272      0.8273493444      -0.01539741586    0.003488291686    
430000000         -0.01476316936    0.0005810113381   0.5421639695      0.8207372722      
                  0.5421639695      0.8207372722      -0.01492839729    0.005107114082    
431000000         -0.01514024483    0.0008914605437   0.5522106583      0.8140089629      
                  0.5522106583      0.8140089629      -0.01417396506    0.004902776828    
432000000         -0.01535633425    0.001279897787    0.5621240591      0.8071084293      
                  0.5621240591      0.8071084293      -0.01360182035    0.004744440784    
433000000         -0.01545894925    0.001663021791    0.5720379511      0.800121679       
                  0.5720379511      0.800121679       -0.01312097326    0.00440462756     
434000000         -0.01546119051    0.002045282896    0.5817955857      0.7930427434      
                  0.5817955857      0.7930427434      -0.01297613631    0.004190999792    
435000000         -0.01536292059    0.002348513341    0.5915092565      0.7857949948      
                  0.5915092565      0.7857949948      -0.01294773929    0.004300928682    
436000000         -0.01511419094    0.002654821232    0.6010892992      0.7784863907      
                  0.6010892992      0.7784863907      -0.01303431231    0.004385525054    
437000000         -0.01482193254    0.002851161698    0.6106322363      0.7709908697      
                  0.6106322363      0.7709908697      -0.01333627354    0.004787190098    
438000000         -0.01447198725    0.002952654255    0.6200638738      0.7633949242      
                  0.6200638738      0.7633949242      -0.01348304478    0.005330676973    
439000000         -0.01410127321    0.00305315294     0.6293925066      0.7556783826      
                  0.6293925066      0.7556783826      -0.01369352818    0.005911769451    
440000000         -0.01367103022    0.002952819773    0.6386253629      0.7478953056      
                  0.6386253629      0.7478953056      -0.01399076591    0.006813526754    
441000000         -0.01352939574    0.003252048109    0.6477454565      0.7399915264      
                  0.6477454565      0.7399915264      -0.01383167259    0.006771888318    
442000000         -0.01345402547    0.003488271822    0.656770415       0.7319549964      
                  0.656770415       0.7319549964      -0.01368859602    0.006901754614    
443000000         -0.01337076976    0.003694453413    0.66569446        0.7237988805      
                  0.66569446        0.7237988805      -0.01346164947    0.007074306831    
444000000         -0.01318187412    0.003914041111    0.6745365937      0.7155221654      
                  0.6745365937      0.7155221654      -0.013508634      0.007190910579    
445000000         -0.01302547787    0.004111970651    0.6832853193      0.7072105222      
                  0.6832853193      0.7072105222      -0.01316000666    0.007104575191    
446000000         -0.01276400914    0.00436234869     0.6919197505      0.6987334575      
                  0.6919197505      0.6987334575      -0.01305767161    0.007397726717    
447000000         -0.0126671638     0.004514026201    0.7004301126      0.6901505044      
                  0.7004301126      0.6901505044      -0.01318606321    0.007633350263    
448000000         -0.01242249108    0.004699696576    0.7088390446      0.6814493472      
                  0.7088390446      0.6814493472      -0.01300146112    0.007774251054    
449000000         -0.01214813584    0.004862594593    0.717180072       0.6726689804      
                  0.717180072       0.6726689804      -0.01288124347    0.008015205745    
450000000         -0.01193320224    0.004996479368    0.7253706824      0.6638072292      
                  0.7253706824      0.6638072292      -0.01302906695    0.008353608643    
