! RsaToolbox (C) 2015 Rohde & Schwarz America
! 
! Number of points: 201
! Number of ports: 2
! Balanced ports?: No
! 
! 
# Hz S RI R 50
100000            5.147982128       -4.712490574      8.317117934       -7.959187223      8.317117934       -7.959187223      16.45314937       -13.3948868       
42599500          0.8958033118      -0.01328244873    -0.03788005357    -1.459544176      -0.03788005357    -1.459544176      -4.217068076      -0.01430725661    
85099000          1.220787942       -0.1702973986     -0.3436513676     -1.457588518      -0.3436513676     -1.457588518      -7.497065595      -1.714195691      
127598500         0.3260710765      -0.04059398645    1.762889654       -0.5807501967     1.762889654       -0.5807501967     7.324966422       -2.628331168      
170098000         1.031137112       -0.4261405974     1.012718916       0.6292134872      1.012718916       0.6292134872      -0.9315922822     2.256626716       
212597500         0.05811989565     -0.649816762      0.1470390059      -0.1790128228     0.1470390059      -0.1790128228     1.049182076       -0.01673122484    
255097000         -0.1160560214     -1.191062869      0.2484866958      -2.407737476      0.2484866958      -2.407737476      2.37777918        -4.897278862      
297596500         0.5166322278      3.181587926       -8.844801888      -4.447420439      -8.844801888      -4.447420439      29.9305997        -14.16680178      
340096000         -0.4020844743     1.074514112       -1.601650744      0.1781686493      -1.601650744      0.1781686493      -0.6044163469     -2.54224628       
382595500         0.03978839449     0.3849588226      -0.9596392443     -0.9794410973     -0.9596392443     -0.9794410973     1.419654521       -0.2294973727     
425095000         -0.9700315322     -0.2404721282     -0.7957810574     0.5382997051      -0.7957810574     0.5382997051      -1.209731552      1.795438131       
467594500         0.03134447588     -0.09310265343    -0.5163992742     0.6734531558      -0.5163992742     0.6734531558      -0.09337542769    -1.454560393      
510094000         -0.1054669        -0.5049210492     -1.049814938      0.3254584411      -1.049814938      0.3254584411      1.731172815       0.4624638174      
552593500         -0.7559194666     -1.314231328      -5.311237636      0.2283409198      -5.311237636      0.2283409198      5.364428531       27.71215565       
595093000         -0.08891960944    -0.006593243051   -0.1858839316     -0.3375086165     -0.1858839316     -0.3375086165     -0.09868280512    -0.8983671755     
637592500         0.8127614753      -0.54041074       0.08711519953     -0.5223768605     0.08711519953     -0.5223768605     -0.7878465551     -0.03414851484    
680092000         -0.04255662961    -0.05764069663    0.0775588721      -0.7696948944     0.0775588721      -0.7696948944     -0.5587469087     -0.7266142265     
722591500         0.3728471382      -3.2779031        14.85327119       -5.76552579       14.85327119       -5.76552579       49.42140193       52.31874777       
765091000         -0.2514766599     -0.1121115317     1.378501579       -0.2788726173     1.378501579       -0.2788726173     3.699631747       -0.5628867039     
807590500         0.1857941602      0.04716779384     0.6041633517      -0.06378107254    0.6041633517      -0.06378107254    -0.09319692404    0.9548912824      
850090000         0.001782160224    0.003891060944    0.26300261        0.08183601593     0.26300261        0.08183601593     -0.7580542885     0.07101176015     
892589500         0.1214956833      -0.02298647439    0.872314363       0.101508838       0.872314363       0.101508838       1.379574913       1.579752842       
935089000         -0.06189057201    -0.1006705959     0.7725918266      -0.1566071177     0.7725918266      -0.1566071177     0.2423146812      2.646886466       
977588500         0.08533669928     0.1011087865      4.056724021       -0.8624932498     4.056724021       -0.8624932498     -22.07501227      7.262470018       
1020088000        -1.01196659       -0.2471752478     3.35452031        -3.807480774      3.35452031        -3.807480774      9.087820331       23.17322949       
1062587500        0.382362204       1.282711242       5.559962343       -4.45329069       5.559962343       -4.45329069       -33.72504004      8.731450895       
1105087000        0.5501123591      -0.5864400691     -0.9953830088     -2.337509513      -0.9953830088     -2.337509513      -4.052037521      0.706037014       
1147586500        -0.2601346779     0.6383889852      -0.7722890597     -1.916700053      -0.7722890597     -1.916700053      4.7140676         -1.327531261      
1190086000        0.7082016932      -0.1139781463     0.8502693326      -0.9393554237     0.8502693326      -0.9393554237     1.032383961       -0.5738352882     
1232585500        -0.5896034907     0.05970120799     -0.006703018013   -1.283829223      -0.006703018013   -1.283829223      0.7969414544      -3.202278248      
1275085000        -0.5281903118     0.1899297989      -0.3801811798     -0.6753096566     -0.3801811798     -0.6753096566     1.578887963       -0.03131988123    
1317584500        -0.9584291316     0.4620416956      0.0674012476      -0.5088955243     0.0674012476      -0.5088955243     -0.9155278372     0.3124418655      
1360084000        -0.3004294564     0.7473397696      -2.268681974      -1.695325441      -2.268681974      -1.695325441      6.641055281       -4.064448072      
1402583500        -0.9969392616     -0.08111628559    0.5262513642      -1.097997419      0.5262513642      -1.097997419      1.231263202       0.933181369       
1445083000        -0.4234720228     1.287532788       4.427537775       1.581390891       4.427537775       1.581390891       6.421869881       -14.10593055      
1487582500        0.2696541063      -0.07120295734    0.4283049636      1.172752935       0.4283049636      1.172752935       -5.759986363      -0.5642475047     
1530082000        -0.05259349462    -0.2190160989     2.742288825       -0.7289164397     2.742288825       -0.7289164397     -5.10723119       10.47425945       
1572581500        1.894303824       0.08153470592     1.726630105       -1.280656495      1.726630105       -1.280656495      -0.02734614799    -1.466321489      
1615081000        0.08127209533     0.3410924434      -0.4427811817     -1.018516499      -0.4427811817     -1.018516499      2.527643252       -1.007311484      
1657580500        -0.8273946742     0.351703064       -2.263953519      -2.584809641      -2.263953519      -2.584809641      1.449151488       -5.90619155       
1700080000        -3.703678987      -4.109536619      0.7210405473      -4.362670532      0.7210405473      -4.362670532      2.403719172       -2.873599968      
1742579500        -0.6891380985     0.622440207       0.02398806305     -0.3863795579     0.02398806305     -0.3863795579     1.680585343       -0.02946942307    
1785079000        -0.02940845658    0.8396843105      0.2277755206      -1.799667336      0.2277755206      -1.799667336      0.397282187       1.932396821       
1827578500        -1.879675213      -0.3187912084     -0.6684973707     -0.2206926858     -0.6684973707     -0.2206926858     -1.650588251      -0.1210573048     
1870078000        -0.1804702132     -0.007296957952   -0.1704002997     -0.4275827917     -0.1704002997     -0.4275827917     2.17527768        -0.9860480862     
1912577500        -5.885214038      0.6020105302      1.576484098       -2.591612518      1.576484098       -2.591612518      2.220466084       1.985562803       
1955077000        -0.5046289097     0.02133368201     0.3169484618      -1.468602227      0.3169484618      -1.468602227      1.38231017        0.721052784       
1997576500        -0.03091074364    0.1033394151      0.6999893017      -2.265043548      0.6999893017      -2.265043548      -4.373532634      -2.89912779       
2040076000        -0.02856784781    -0.3541678196     0.862857166       -0.8602917695     0.862857166       -0.8602917695     -0.752831452      1.097858493       
2082575500        0.974284727       -0.1107379166     1.183264807       -0.4016956051     1.183264807       -0.4016956051     -0.5313203253     -0.8072673979     
2125075000        -0.6686852653     -0.01160342953    3.078434879       1.283721902       3.078434879       1.283721902       -11.30917913      -11.13954735      
2167574500        0.4677121111      0.301228776       0.2822180822      0.1098571877      0.2822180822      0.1098571877      0.9383195975      -0.1078649249     
2210074000        0.7881280879      0.4944668064      0.355608671       1.478279612       0.355608671       1.478279612       -1.545138835      1.690935996       
2252573500        1.042219746       -0.4271524314     0.5499900817      1.03149201        0.5499900817      1.03149201        -0.08823053449    1.068085757       
2295073000        0.1666004826      0.4398315017      -0.3481011394     0.7057442251      -0.3481011394     0.7057442251      0.2491109025      -0.4631616439     
2337572500        -0.3240617775     0.05329657228     -0.4788561394     -0.05039451897    -0.4788561394     -0.05039451897    1.065444916       -0.1410034279     
2380072000        -0.3881097545     -0.1000652792     -1.109500818      -0.08988221487    -1.109500818      -0.08988221487    0.2664223191      -0.2073833232     
2422571500        -0.96196415       -0.2197683552     -0.2540194621     -0.3813061        -0.2540194621     -0.3813061        -0.4626609377     -0.3660160993     
2465071000        0.1234984906      -0.05215223758    -0.7109749984     -0.2182537243     -0.7109749984     -0.2182537243     -1.253984711      -1.015260431      
2507570500        0.00305062594     0.02766519693     -0.3372023319     0.2594446952      -0.3372023319     0.2594446952      -4.545888836      -2.46278073       
2550070000        -0.2128306993     0.01160744448     -0.1357348297     0.05705559122     -0.1357348297     0.05705559122     -0.8041626286     -0.1952268456     
2592569500        -0.3395269674     0.08152167389     -0.08867597842    0.5256062527      -0.08867597842    0.5256062527      0.03447471793     0.3198525523      
2635069000        -0.1608990523     -0.04979141552    -0.287017921      1.241793914       -0.287017921      1.241793914       2.84830627        7.948497784       
2677568500        0.8191413168      0.04248780675     -0.7562507052     1.341741127       -0.7562507052     1.341741127       -0.591997687      -0.489276427      
2720068000        1.520292777       1.348409841       -2.875393818      0.3690427721      -2.875393818      0.3690427721      1.54472829        -3.079832882      
2762567500        -0.02730168712    0.2149151851      -0.849047943      -1.598208551      -0.849047943      -1.598208551      11.86408865       4.73561429        
2805067000        0.2301519383      -0.01584041734    -0.467276972      -0.06731675048    -0.467276972      -0.06731675048    -0.9411822587     -0.06106237138    
2847566500        -0.5844728834     -0.07140941239    -1.059015836      0.5380110337      -1.059015836      0.5380110337      -7.377652389      0.9591388321      
2890066000        0.1452081667      -0.03597171609    -0.3949125675     0.2428629435      -0.3949125675     0.2428629435      1.797068004       -0.06185982336    
2932565500        -0.3661839343     1.018043657       1.298387691       3.069923242       1.298387691       3.069923242       10.98334607       5.056509879       
2975065000        -0.7954089519     -0.013747693      -1.178631811      0.5620868747      -1.178631811      0.5620868747      0.6113132948      3.637640824       
3017564500        0.122537518       -0.05721547897    0.04517993473     0.3186387033      0.04517993473     0.3186387033      1.612813999       -0.1689960971     
3060064000        -1.010350965      0.1063029946      -0.8609675676     2.350238406       -0.8609675676     2.350238406       4.125244702       4.689834227       
3102563500        1.445011705       1.259160952       -1.806347053      1.295947876       -1.806347053      1.295947876       -1.075263935      -1.469910367      
3145063000        -0.5600414763     0.1400516626      -1.078483858      1.745523027       -1.078483858      1.745523027       4.925558385       1.745186606       
3187562500        0.6069697184      -0.01063034709    -0.1251401378     1.771405565       -0.1251401378     1.771405565       -4.610728216      -1.559508643      
3230062000        -1.330576863      -1.115132124      0.968818015       1.116551881       0.968818015       1.116551881       -0.5022702793     -1.402705714      
3272561500        2.118347542       0.3785507983      3.166619282       -0.8108062841     3.166619282       -0.8108062841     4.489108397       -2.265639956      
3315061000        0.1776841397      1.058183348       1.81788108        -0.2264969505     1.81788108        -0.2264969505     -0.5604837024     -0.9749428778     
3357560500        0.03174193346     -0.1195966803     0.3565553606      0.07068743189     0.3565553606      0.07068743189     1.177127175       0.228259151       
3400060000        -1.042089694      0.3743830521      0.4184196862      -0.4245390988     0.4184196862      -0.4245390988     -1.263261954      0.5412955288      
3442559500        -0.02697262659    -0.0163869597     -0.07263522595    -0.3266758919     -0.07263522595    -0.3266758919     1.216962716       -0.09268708938    
3485059000        0.4317986979      0.222361783       -0.6826762721     -0.6801526792     -0.6826762721     -0.6801526792     2.553922701       2.628380075       
3527558500        0.2875903872      0.5545574038      -1.460005854      0.2799552065      -1.460005854      0.2799552065      -3.030719566      -0.7757731398     
3570058000        -0.1440957036     0.00587016466     -2.032721442      0.1090517473      -2.032721442      0.1090517473      -5.267811836      0.8710117344      
3612557500        0.2925902816      0.3236200556      -0.190010197      -1.631177534      -0.190010197      -1.631177534      -0.7288186285     0.9034381748      
3655057000        0.01456985686     -0.009721709913   -0.1227787918     -0.004508809361   -0.1227787918     -0.004508809361   -0.3109937131     0.437166128       
3697556500        -0.8002731389     0.3093519177      -0.3662492291     -1.523527325      -0.3662492291     -1.523527325      0.3289971059      0.3192225841      
3740056000        -0.7413809954     0.1858248721      -0.463864183      -0.5596704515     -0.463864183      -0.5596704515     0.3022509935      1.43961457        
3782555500        -0.3685571216     0.588389464       -0.996318017      0.4084736023      -0.996318017      0.4084736023      0.6751452493      -0.6031764994     
3825055000        0.2021101832      -0.3060251392     -0.08472942392    0.3663304872      -0.08472942392    0.3663304872      1.121483833       -0.4164333321     
3867554500        -0.1541326199     -0.1770013604     1.44250082        0.4700379474      1.44250082        0.4700379474      -4.073158282      -2.244192029      
3910054000        -0.5314542351     -0.3855824586     3.120879736       2.173916941       3.120879736       2.173916941       -4.502982565      -9.584687385      
3952553500        -0.400227502      0.4261033284      -0.4075366482     0.6364345666      -0.4075366482     0.6364345666      -1.538002976      -0.370504689      
3995053000        0.3187780969      0.4718418548      -0.8281237764     0.07445270441     -0.8281237764     0.07445270441     -0.3507800818     -0.5491704395     
4037552500        -0.06407070408    -0.04978200142    0.01708438505     0.573647004       0.01708438505     0.573647004       0.7106049476      0.1896989348      
4080052000        -0.009581574805   -0.1732583911     0.1338322187      1.056766509       0.1338322187      1.056766509       0.1303008378      0.1815566258      
4122551500        0.3950167388      0.4753095214      0.9591040178      0.908017982       0.9591040178      0.908017982       1.350979249       -0.08367993335    
4165051000        0.08450481084     -0.07177680663    0.1709323929      2.675189079       0.1709323929      2.675189079       -7.394198251      0.5033683482      
4207550500        -0.7728372067     -0.1249570442     0.01862358958     0.1849931274      0.01862358958     0.1849931274      0.7902902965      0.04617392719     
4250050000        1.112125421       -0.1535171433     0.1926846659      0.2456658231      0.1926846659      0.2456658231      -0.8542098181     -0.03350020759    
4292549500        -0.9927416727     -0.01204199752    0.1977881955      0.7773675146      0.1977881955      0.7773675146      -9.056065821      -0.6771222559     
4335049000        -0.1025743505     -0.13087116       -0.2375257945     1.000099734       -0.2375257945     1.000099734       0.1463010259      -0.322494759      
4377548500        0.2824334607      0.2858749407      0.132089039       1.22238422        0.132089039       1.22238422        -1.487653302      0.4428158667      
4420048000        4.841391004       -21.27302672      -7.817994019      24.44510804       -7.817994019      24.44510804       13.97686557       -30.26876436      
4462547500        0.1440378428      0.02811695784     0.601139119       0.5581097175      0.601139119       0.5581097175      0.05328770053     1.184872263       
4505047000        -0.4950848685     0.08883043131     -0.0419456516     0.7318959011      -0.0419456516     0.7318959011      -2.062336351      0.09294897876     
4547546500        0.4504139934      -0.06601695436    -0.7670801401     2.249596927       -0.7670801401     2.249596927       -1.931244216      -3.054007412      
4590046000        1.051072093       -0.1056020903     1.296635173       1.113695491       1.296635173       1.113695491       -6.856661913      11.74994395       
4632545500        -0.000670998281   -0.01430311047    0.1682210116      0.04297408969     0.1682210116      0.04297408969     -0.5088015464     -0.01014584729    
4675045000        0.4775425258      -0.177680379      1.47886816        0.4890518409      1.47886816        0.4890518409      0.1613810614      1.193773847       
4717544500        -0.9691224011     0.2808200234      1.446586438       2.471866548       1.446586438       2.471866548       -0.3841254817     -7.578651796      
4760044000        0.7297034748      0.3530831162      1.640301412       -0.5548230769     1.640301412       -0.5548230769     -3.029575019      -1.874764508      
4802543500        0.4118715036      0.2132720078      -0.08139836748    -2.212938685      -0.08139836748    -2.212938685      0.9895796791      -3.405424198      
4845043000        1.173816431       -0.5085924031     1.222339435       -1.8190944        1.222339435       -1.8190944        1.221782938       -3.692069433      
4887542500        0.08616613192     1.41114228        4.372844211       -1.324298232      4.372844211       -1.324298232      -7.702092675      -14.83152014      
4930042000        1.769525911       -3.180627815      4.011212738       -2.679228358      4.011212738       -2.679228358      5.70302396        -1.464547198      
4972541500        -0.2859751747     0.5597961988      1.498883815       0.05244493376     1.498883815       0.05244493376     0.9638248068      -2.713043308      
5015041000        0.6617021956      0.3375136805      1.941777228       -0.776450794      1.941777228       -0.776450794      -8.530536134      -0.3348831141     
5057540500        -0.1293633758     0.4616266815      0.7798776105      -0.03087242413    0.7798776105      -0.03087242413    0.3356711897      -0.6134598539     
5100040000        -0.1277517043     -0.1386121539     1.389704967       -0.09147933943    1.389704967       -0.09147933943    -6.639547439      2.926020811       
