! RsaToolbox (C) 2015 Rohde & Schwarz America
! 
! Number of points: 201
! Number of ports: 2
! Balanced ports?: No
! 
! 
# Hz S RI R 50
100000            -0.4915497027     -0.1325912349     0.8727850535      0.5361381833      0.8727850535      0.5361381833      -0.4172179074     -0.3157551542     
42599500          1.085135958       -0.8769815719     -0.3917714247     0.9523801038      -0.3917714247     0.9523801038      0.2303490638      0.008951783096    
85099000          -0.5967825518     0.08332428093     -0.4171672997     1.373188715       -0.4171672997     1.373188715       -0.1915493733     -0.9826224184     
127598500         0.08669124174     -0.43472209       -0.1197059368     0.6297769868      -0.1197059368     0.6297769868      0.949712133       -0.2190975186     
170098000         7.528154765       4.072226855       -16.10979015      -1.2651082        -16.10979015      -1.2651082        27.80098762       -11.90146393      
212597500         0.1189856154      -0.3876061261     -0.103305535      0.975795207       -0.103305535      0.975795207       -0.4628204931     -1.130526658      
255097000         -0.6456679614     -0.8718421095     1.064074308       0.5055796432      1.064074308       0.5055796432      -1.327790504      0.3066926079      
297596500         0.06568412485     0.01333751547     0.1691310722      0.2317923605      0.1691310722      0.2317923605      0.8905689334      0.9013809992      
340096000         0.7682698385      0.3566573675      1.086563633       -0.6808243305     1.086563633       -0.6808243305     0.444350284       -1.79485435       
382595500         -0.7337328875     -1.188622067      4.29741516        -1.00592621       4.29741516        -1.00592621       -2.522432711      12.92672641       
425095000         1.109025167       0.4454384318      -0.04197600244    -0.7163400096     -0.04197600244    -0.7163400096     -0.5812190572     0.6021780111      
467594500         -0.3137039771     -0.4561480948     0.5314512621      -0.08474258684    0.5314512621      -0.08474258684    0.3071847877      0.06200272266     
510094000         -0.07384884339    -0.2419013003     1.280692171       -0.2686592364     1.280692171       -0.2686592364     0.6117628554      0.2758666986      
552593500         0.9601005029      0.323252149       0.5830122051      -1.185488549      0.5830122051      -1.185488549      -0.5640120183     -1.242650186      
595093000         2.067019509       1.195478241       7.0910672         3.009777831       7.0910672         3.009777831       30.3496086        1.945376957       
637592500         0.2247641598      0.4368705819      3.489943636       -0.3680163811     3.489943636       -0.3680163811     -8.933878741      -0.9124258298     
680092000         0.07276274364     -0.04361394281    0.6137741938      0.1779291202      0.6137741938      0.1779291202      0.7800224481      -2.501001768      
722591500         0.3594528846      0.01779706775     1.963176553       1.434492826       1.963176553       1.434492826       -2.387393919      -8.800950455      
765091000         -0.3020241018     0.3224459866      -1.081440441      2.354669245       -1.081440441      2.354669245       -3.208054135      17.67357515       
807590500         -0.02733146106    -0.007975684737   0.6447633264      0.5833855135      0.6447633264      0.5833855135      1.066263645       0.6293793856      
850090000         1.153585259       2.086316531       0.1426096904      0.9707419009      0.1426096904      0.9707419009      0.9415166664      0.4305110304      
892589500         -0.02518053371    -0.06230088725    -0.5575905081     0.913759316       -0.5575905081     0.913759316       -0.1484144291     -0.8114377649     
935089000         0.2570260075      -0.6899344026     -0.2025401517     1.419795141       -0.2025401517     1.419795141       1.198577456       -5.637671772      
977588500         -1.090631262      -0.08051448919    0.4757268857      0.07980916842     0.4757268857      0.07980916842     -1.226580857      -0.01803733648    
1020088000        0.7997510859      0.9922268733      0.1290156208      0.8143756329      0.1290156208      0.8143756329      -0.9168584328     0.5452307931      
1062587500        -0.2074083743     0.05078244205     -0.0367343831     0.2108380818      -0.0367343831     0.2108380818      1.532128563       0.2468021328      
1105087000        3.198804922       0.1438699807      -0.07646533336    0.6190455396      -0.07646533336    0.6190455396      0.8900336506      -0.02348281671    
1147586500        -0.7959003255     0.02669867238     -0.2664309863     0.0673136705      -0.2664309863     0.0673136705      1.618509847       -0.4832291797     
1190086000        0.9209728204      0.1713441648      0.03589072663     0.1941967472      0.03589072663     0.1941967472      -1.070448412      0.0391837574      
1232585500        0.9459121755      -0.1798474014     0.08875816185     0.422855298       0.08875816185     0.422855298       -0.9785372943     0.129455573       
1275085000        0.08010780536     0.05038055157     0.07483897791     0.227040392       0.07483897791     0.227040392       0.8194493566      0.301692966       
1317584500        0.8801247366      0.08115068958     0.0784809739      0.1824005406      0.0784809739      0.1824005406      -0.9112003378     -0.01369469459    
1360084000        0.8507650075      0.136246031       0.1291862595      0.4235465936      0.1291862595      0.4235465936      -1.068240997      -0.07292732587    
1402583500        1.337278178       0.1585422911      1.327330595       0.1174399272      1.327330595       0.1174399272      2.091630981       0.07412357397     
1445083000        1.735451468       0.006700774423    4.467752068       -0.007795181288   4.467752068       -0.007795181288   8.552478988       -0.04779181939    
1487582500        0.9652592997      0.2224758423      3.322137123       -1.242399411      3.322137123       -1.242399411      -5.810493231      -10.77266137      
1530082000        -0.3172722904     -0.0156042365     0.8438022416      0.0684696534      0.8438022416      0.0684696534      -1.40376095       0.3334123089      
1572581500        -0.006880580215   0.0440076789      0.1136951115      -0.5700252891     0.1136951115      -0.5700252891     -4.455398741      0.7937199949      
1615081000        -0.5948126777     0.2857043456      1.852114851       -1.131876298      1.852114851       -1.131876298      -4.740945071      -1.393675157      
1657580500        -0.1553389028     -0.01304939174    -0.1292593609     -1.013921468      -0.1292593609     -1.013921468      2.02897965        -0.8258488158     
1700080000        5.392479101       0.4800076347      1.637631875       -2.834098515      1.637631875       -2.834098515      -3.386478881      -1.480065225      
1742579500        -1.253784825      -0.2574616282     -0.3256207942     -2.766984454      -0.3256207942     -2.766984454      2.435145794       -1.893657666      
1785079000        -0.01286035869    0.02769881345     -0.2407651527     -0.2232398238     -0.2407651527     -0.2232398238     0.53469516        -0.68582115       
1827578500        0.6354544506      0.1871651702      -0.2086421628     -0.856295335      -0.2086421628     -0.856295335      -0.2312513505     1.170669014       
1870078000        0.06814534598     -0.3279116264     -1.366531381      -0.6606421658     -1.366531381      -0.6606421658     0.5657129472      1.978112308       
1912577500        -0.6451387637     0.02001347559     -0.1669534971     -0.606687518      -0.1669534971     -0.606687518      -1.121134069      0.1807085936      
1955077000        -1.055524551      0.02415116504     -0.06457972192    -0.2996793227     -0.06457972192    -0.2996793227     1.341033887       -0.03739704826    
1997576500        -0.4943281424     0.0007362439637   -0.1708684189     0.002810699382    -0.1708684189     0.002810699382    0.837604686       0.00636567839     
2040076000        -0.8496371187     -0.1725239332     -3.440729445      5.567800403       -3.440729445      5.567800403       40.99448749       47.66579114       
2082575500        -0.1767982103     -0.4493972484     -0.1056225865     0.7552917251      -0.1056225865     0.7552917251      0.7790833915      -0.3143406926     
2125075000        -0.02590991552    0.1190321129      0.1871609482      0.3089066712      0.1871609482      0.3089066712      1.027240458       -0.09562282933    
2167574500        1.061586917       0.2714433315      0.7025685104      1.286578181       0.7025685104      1.286578181       -1.69648203       1.925752672       
2210074000        0.6160609819      -0.8808817937     -1.180580759      1.777090583       -1.180580759      1.777090583       1.080445559       -4.324385172      
2252573500        -0.07247846024    -0.05121913977    0.1441208617      0.3078572365      0.1441208617      0.3078572365      1.880894488       -0.560888558      
2295073000        -0.2681304311     0.2012245885      -1.125249252      0.6998453285      -1.125249252      0.6998453285      -1.352761793      0.6972289754      
2337572500        0.3528088554      0.02342878096     -0.5065388206     -0.5553691391     -0.5065388206     -0.5553691391     0.5173433614      0.844211331       
2380072000        -0.3485782359     0.3414193017      -1.264098719      -0.5755524549     -1.264098719      -0.5755524549     -0.6432163163     -3.733358207      
2422571500        0.1846107233      -0.1574848946     -0.8647529154     -0.7840057809     -0.8647529154     -0.7840057809     2.829489882       3.684906379       
2465071000        0.09491224441     0.0102363562      -0.7600505241     0.6783878626      -0.7600505241     0.6783878626      -5.0969415        0.6522513249      
2507570500        0.3617261254      1.71177975        -1.173166512      3.489979611       -1.173166512      3.489979611       -1.452626907      6.868421019       
2550070000        0.07369990087     0.3299310784      -2.142976993      0.2575930954      -2.142976993      0.2575930954      -3.796555316      -0.7702560942     
2592569500        -0.2048433254     -0.06501871685    -0.1044577471     -0.4388199793     -0.1044577471     -0.4388199793     1.184803442       -0.3892297417     
2635069000        -0.06869557443    -0.1679953621     -0.2189694299     -0.1718467085     -0.2189694299     -0.1718467085     -1.489297679      0.4489556895      
2677568500        0.01067853994     0.01812153262     0.308339115       -0.5201528044     0.308339115       -0.5201528044     -0.6851599377     0.3235341126      
2720068000        0.3732108334      0.1500760061      0.01658028609     -0.3721543701     0.01658028609     -0.3721543701     -1.391551876      -0.3978917346     
2762567500        1.176617897       0.8552098503      -0.1842310345     -0.2334745397     -0.1842310345     -0.2334745397     0.9658514085      0.004167193319    
2805067000        -0.2262598197     1.10807058        1.261748315       -1.009228363      1.261748315       -1.009228363      -1.208837826      -3.109267976      
2847566500        0.1862148302      -0.2576386579     0.5894302498      0.4003175116      0.5894302498      0.4003175116      -2.039254232      0.6031441483      
2890066000        -0.6163498589     0.3774471178      -0.3626184533     2.252944955       -0.3626184533     2.252944955       7.446914415       7.408978588       
2932565500        -0.06163843059    -0.02144077888    -0.4629981034     0.1377575165      -0.4629981034     0.1377575165      -0.3416467398     0.560452279       
2975065000        -0.784275623      -0.1068327674     -0.05498673962    1.010767425       -0.05498673962    1.010767425       -1.264722404      -0.6529440949     
3017564500        -0.170011802      0.03733272994     -0.1119220815     0.2179715226      -0.1119220815     0.2179715226      0.9324714793      0.05320710371     
3060064000        0.6296583453      -0.2807701813     -0.8113844784     0.1441844843      -0.8113844784     0.1441844843      1.05643539        1.768518057       
3102563500        0.2359674412      0.227518824       -0.5877095303     0.09410465948     -0.5877095303     0.09410465948     0.7780391807      -0.8897636104     
3145063000        0.07377584248     0.9731437111      -0.9607013253     -0.2719068335     -0.9607013253     -0.2719068335     1.660675968       -0.5100336518     
3187562500        -0.5286207347     0.2628088092      -0.9761695853     0.07145764105     -0.9761695853     0.07145764105     -1.562538584      -0.3505273272     
3230062000        -0.1174027561     -0.01188680491    -0.5634969691     -0.2275657837     -0.5634969691     -0.2275657837     -1.34582456       0.1919311747      
3272561500        0.8464264027      -0.175561127      -0.5231763874     0.2629246978      -0.5231763874     0.2629246978      1.072459323       -0.1533637018     
3315061000        0.537314386       0.08005966189     -0.4742533618     0.6630213617      -0.4742533618     0.6630213617      -1.217978657      -0.3605845393     
3357560500        -0.7383847613     -0.07590052118    -0.7929671507     -0.3470876966     -0.7929671507     -0.3470876966     -0.3119930462     -2.711362852      
3400060000        -0.6286318021     -0.2037732153     -0.9355071611     -2.99438309       -0.9355071611     -2.99438309       -16.23342098      -11.46538788      
3442559500        0.05428581068     -0.2268723187     0.3385672095      -0.718405982      0.3385672095      -0.718405982      0.6403897493      -0.2991840074     
3485059000        0.0968549831      -0.5240621991     1.250260188       -0.08254255582    1.250260188       -0.08254255582    -1.438843368      1.218173435       
3527558500        -0.007858782228   -0.1039510953     0.3744098442      -0.537826689      0.3744098442      -0.537826689      6.82468261        -5.050211697      
3570058000        0.09314184598     0.05034602228     -0.01909217935    -0.1700251747     -0.01909217935    -0.1700251747     1.042413002       -0.04142905719    
3612557500        -0.7408371989     -0.3753416358     0.8357883012      -0.2492105504     0.8357883012      -0.2492105504     -0.7793203516     0.4746456026      
3655057000        0.2046629467      -0.466367597      1.827916709       -0.2244493958     1.827916709       -0.2244493958     4.66102217        -1.076429235      
3697556500        -0.9607010783     -0.2025090751     0.5814330126      0.7762411639      0.5814330126      0.7762411639      -0.9564125902     -1.017128632      
3740056000        -0.0276000774     0.004929948679    0.3547812518      0.03989986495     0.3547812518      0.03989986495     1.020484002       3.695391326       
3782555500        -0.2580017888     -0.4401609495     1.272207559       1.510833228       1.272207559       1.510833228       -2.075571777      -3.164901775      
3825055000        0.2715871426      -0.3957824123     0.02347509075     1.035219608       0.02347509075     1.035219608       -2.15107634       0.1644284867      
3867554500        -0.2245048279     -0.3237658364     -0.2096469658     0.2983231452      -0.2096469658     0.2983231452      -0.3909914419     0.1113631178      
3910054000        0.8604859563      0.004293344536    -0.01167565068    0.5780739813      -0.01167565068    0.5780739813      -1.028623303      0.04429102669     
3952553500        0.2389010152      -0.1008779536     -1.528950105      0.289099041       -1.528950105      0.289099041       1.379185791       -0.6151859234     
3995053000        0.06619130926     0.002069142117    -0.4397717126     0.1378443098      -0.4397717126     0.1378443098      -0.2035020675     -0.5477218907     
4037552500        0.03988892977     0.007126581083    -0.7806823072     0.1062726761      -0.7806823072     0.1062726761      0.3781957856      -0.653822258      
4080052000        1.542137318       0.1675150904      -1.854699116      -0.7098546285     -1.854699116      -0.7098546285     3.429523294       2.462834677       
4122551500        1.12157318        0.01793820686     -0.2203191285     -0.1866131963     -0.2203191285     -0.1866131963     -1.012920111      -0.254008005      
4165051000        -1.691168188      0.05965226729     -0.1648127813     -1.865648774      -0.1648127813     -1.865648774      4.28163872        -0.2986750125     
4207550500        -1.032938299      -0.01949083164    0.04918373299     -5.03926481       0.04918373299     -5.03926481       21.7942086        0.07400057774     
4250050000        0.01451497116     0.0465032664      0.04039564156     -0.02967054461    0.04039564156     -0.02967054461    -0.9177403372     0.06760896121     
4292549500        -0.2742033317     0.02450436688     0.2782129252      -1.295641104      0.2782129252      -1.295641104      -3.678506027      -1.106417877      
4335049000        0.330978044       -0.3949983469     -0.5000927975     -0.5722395428     -0.5000927975     -0.5722395428     1.870180654       -0.02364355259    
4377548500        -0.6593531925     3.372134119       3.202690006       -4.350148258      3.202690006       -4.350148258      -6.780291488      3.834906057       
4420048000        -1.056286694      0.640023115       7.94060317        2.01338021        7.94060317        2.01338021        49.88432034       -89.04548854      
4462547500        -1.036561597      -0.04637882602    0.2890021608      1.914517706       0.2890021608      1.914517706       4.190296007       -0.6911348327     
4505047000        -0.1914130941     0.465655551       -0.7478854311     0.7460528579      -0.7478854311     0.7460528579      0.7230152584      -0.1207981413     
4547546500        -0.04031956559    -0.05788846697    -0.3919956057     0.1086806941      -0.3919956057     0.1086806941      0.8558900156      0.3428768588      
4590046000        -0.7619845254     -0.2005633042     -2.397281059      -0.6654743942     -2.397281059      -0.6654743942     -1.130744448      -1.690648148      
4632545500        -1.253264396      -0.0134774036     -1.651143197      -0.04930147319    -1.651143197      -0.04930147319    -0.5105570319     -0.03643754845    
4675045000        1.001611038       0.009366113936    -0.1946798104     -0.3840107684     -0.1946798104     -0.3840107684     0.8197746766      0.03109392886     
4717544500        2.638039731       8.991514271       -10.16177714      -5.760079042      -10.16177714      -5.760079042      15.10994188       -3.42617707       
4760044000        0.5375794282      0.2466971064      -0.2257510153     0.1241415426      -0.2257510153     0.1241415426      0.02302600999     0.00458730722     
4802543500        -0.04484002947    -0.1899031478     -0.6807798582     -0.2243501749     -0.6807798582     -0.2243501749     -0.1997067766     -0.4991876016     
4845043000        -9.387693945      -2.559662377      -4.136235482      -4.188899489      -4.136235482      -4.188899489      -0.8995229356     -3.783770541      
4887542500        -0.5053397305     0.2023138285      -0.1906061149     -0.8581974553     -0.1906061149     -0.8581974553     -0.6123650807     -0.007391006923   
4930042000        -2.058019061      1.101734996       1.800112314       -0.4507673479     1.800112314       -0.4507673479     -0.9103690305     -1.304500595      
4972541500        -0.884971523      0.5351542323      4.474324291       -0.55633968       4.474324291       -0.55633968       -15.91022616      -0.1170954854     
5015041000        0.3304467556      0.006495136671    1.768504523       0.08863682563     1.768504523       0.08863682563     4.146970995       1.237754293       
5057540500        0.7689445212      -0.2318887563     0.8031631527      -0.8198505187     0.8031631527      -0.8198505187     1.129392473       -1.914342946      
5100040000        -0.5122696302     -0.1110690677     1.141263896       -1.005750138      1.141263896       -1.005750138      1.274317706       4.467572248       
