! RsaToolbox (C) 2014 Rohde & Schwarz America
! 
! Number of points: 201
! Number of ports: 2
! Balanced ports?: No
! 
! 
# Hz S RI R 50
1000000000        0                 0                 1                 0                 
                  1                 0                 2.220446049e-16   0                 
1035000000        0                 0                 1                 0                 
                  1                 0                 0                 8.326672685e-17   
1070000000        0                 0                 1                 0                 
                  1                 0                 0                 0                 
1105000000        0                 0                 1                 0                 
                  1                 0                 -4.440892099e-16  -5.551115123e-17  
1140000000        0                 0                 1                 0                 
                  1                 0                 0                 0                 
1175000000        0                 0                 1                 0                 
                  1                 0                 0                 0                 
1210000000        0                 0                 1                 0                 
                  1                 0                 4.440892099e-16   2.220446049e-16   
1245000000        0                 0                 1                 0                 
                  1                 0                 0                 0                 
1280000000        0                 0                 1                 0                 
                  1                 0                 0                 8.881784197e-16   
1315000000        0                 0                 1                 0                 
                  1                 0                 2.220446049e-16   1.110223025e-16   
1350000000        0                 0                 1                 0                 
                  1                 0                 0                 -2.775557562e-17  
1385000000        0                 0                 1                 0                 
                  1                 0                 0                 2.775557562e-17   
1420000000        0                 0                 1                 -3.910795923e-17  
                  1                 -3.910795923e-17  0                 0                 
1455000000        0                 0                 1                 0                 
                  1                 0                 0                 0                 
1490000000        0                 0                 1                 0                 
                  1                 0                 0                 0                 
1525000000        0                 0                 1                 0                 
                  1                 0                 0                 0                 
1560000000        0                 0                 1                 0                 
                  1                 0                 5.551115123e-17   -1.110223025e-16  
1595000000        0                 0                 1                 0                 
                  1                 0                 0                 0                 
1630000000        0                 0                 1                 0                 
                  1                 0                 0                 0                 
1665000000        0                 0                 1                 0                 
                  1                 0                 0                 0                 
1700000000        0                 0                 1                 0                 
                  1                 0                 -5.551115123e-17  -4.440892099e-16  
1735000000        0                 0                 1                 0                 
                  1                 0                 0                 0                 
1770000000        0                 0                 1                 0                 
                  1                 0                 0                 0                 
1805000000        0                 0                 1                 0                 
                  1                 0                 8.881784197e-16   8.881784197e-16   
1840000000        0                 0                 1                 0                 
                  1                 0                 0                 0                 
1875000000        0                 0                 1                 0                 
                  1                 0                 0                 0                 
1910000000        0                 0                 1                 0                 
                  1                 0                 -2.775557562e-17  -2.220446049e-16  
1945000000        0                 0                 1                 0                 
                  1                 0                 0                 0                 
1980000000        0                 0                 1                 0                 
                  1                 0                 2.775557562e-17   0                 
2015000000        0                 0                 1                 0                 
                  1                 0                 0                 -5.551115123e-17  
2050000000        0                 0                 1                 0                 
                  1                 0                 0                 -5.551115123e-17  
2085000000        0                 0                 1                 0                 
                  1                 0                 0                 -1.776356839e-15  
2120000000        0                 0                 1                 1.923331738e-17   
                  1                 1.923331738e-17   6.938893904e-18   0                 
2155000000        0                 0                 1                 0                 
                  1                 0                 4.163336342e-17   0                 
2190000000        0                 0                 1                 0                 
                  1                 0                 0                 0                 
2225000000        0                 0                 1                 0                 
                  1                 0                 0                 0                 
2260000000        0                 0                 1                 8.850709925e-18   
                  1                 8.850709925e-18   0                 2.775557562e-17   
2295000000        0                 0                 1                 1.428630072e-17   
                  1                 1.428630072e-17   0                 0                 
2330000000        0                 0                 1                 0                 
                  1                 0                 -3.330669074e-16  -1.776356839e-15  
2365000000        0                 0                 1                 0                 
                  1                 0                 8.881784197e-16   0                 
2400000000        0                 0                 1                 0                 
                  1                 0                 2.220446049e-16   0                 
2435000000        0                 0                 1                 0                 
                  1                 0                 0                 0                 
2470000000        0                 0                 1                 0                 
                  1                 0                 0                 4.440892099e-16   
2505000000        0                 0                 1                 0                 
                  1                 0                 0                 0                 
2540000000        0                 0                 1                 0                 
                  1                 0                 -8.881784197e-16  0                 
2575000000        0                 0                 1                 0                 
                  1                 0                 8.881784197e-16   0                 
2610000000        0                 0                 1                 0                 
                  1                 0                 0                 0                 
2645000000        0                 0                 1                 0                 
                  1                 0                 0                 0                 
2680000000        0                 0                 1                 0                 
                  1                 0                 5.551115123e-17   -1.110223025e-16  
2715000000        0                 0                 1                 0                 
                  1                 0                 0                 0                 
2750000000        0                 0                 1                 0                 
                  1                 0                 -1.110223025e-16  4.440892099e-16   
2785000000        0                 0                 1                 4.115891506e-17   
                  1                 4.115891506e-17   0                 -4.440892099e-16  
2820000000        0                 0                 1                 0                 
                  1                 0                 0                 0                 
2855000000        0                 0                 1                 0                 
                  1                 0                 0                 0                 
2890000000        0                 0                 1                 0                 
                  1                 0                 4.440892099e-16   -1.110223025e-16  
2925000000        0                 0                 1                 0                 
                  1                 0                 -4.440892099e-16  0                 
2960000000        0                 0                 1                 0                 
                  1                 0                 0                 0                 
2995000000        0                 0                 1                 0                 
                  1                 0                 -4.440892099e-16  0                 
3030000000        0                 0                 1                 0                 
                  1                 0                 0                 2.775557562e-17   
3065000000        0                 0                 1                 0                 
                  1                 0                 0                 0                 
3100000000        0                 0                 1                 0                 
                  1                 0                 0                 0                 
3135000000        0                 0                 1                 0                 
                  1                 0                 5.551115123e-17   0                 
3170000000        0                 0                 1                 0                 
                  1                 0                 0                 -1.387778781e-17  
3205000000        0                 0                 1                 0                 
                  1                 0                 4.440892099e-16   0                 
3240000000        0                 0                 1                 0                 
                  1                 0                 -2.220446049e-16  0                 
3275000000        0                 0                 1                 0                 
                  1                 0                 -4.440892099e-16  0                 
3310000000        0                 0                 1                 0                 
                  1                 0                 5.551115123e-17   0                 
3345000000        0                 0                 1                 0                 
                  1                 0                 0                 4.440892099e-16   
3380000000        0                 0                 1                 0                 
                  1                 0                 0                 0                 
3415000000        0                 0                 1                 0                 
                  1                 0                 0                 6.938893904e-18   
3450000000        0                 0                 1                 0                 
                  1                 0                 0                 0                 
3485000000        0                 0                 1                 0                 
                  1                 0                 5.551115123e-17   0                 
3520000000        0                 0                 1                 0                 
                  1                 0                 -2.220446049e-16  0                 
3555000000        0                 0                 1                 0                 
                  1                 0                 -5.551115123e-17  0                 
3590000000        0                 0                 1                 0                 
                  1                 0                 0                 0                 
3625000000        0                 0                 1                 0                 
                  1                 0                 -1.110223025e-16  0                 
3660000000        0                 0                 1                 0                 
                  1                 0                 -5.551115123e-17  -2.220446049e-16  
3695000000        0                 0                 1                 0                 
                  1                 0                 0                 0                 
3730000000        0                 0                 1                 0                 
                  1                 0                 2.220446049e-16   2.220446049e-16   
3765000000        0                 0                 1                 0                 
                  1                 0                 -2.220446049e-16  0                 
3800000000        0                 0                 1                 0                 
                  1                 0                 -2.220446049e-16  2.220446049e-16   
3835000000        0                 0                 1                 0                 
                  1                 0                 0                 8.881784197e-16   
3870000000        0                 0                 1                 0                 
                  1                 0                 0                 1.110223025e-16   
3905000000        0                 0                 1                 0                 
                  1                 0                 4.440892099e-16   0                 
3940000000        0                 0                 1                 0                 
                  1                 0                 0                 5.551115123e-17   
3975000000        0                 0                 1                 0                 
                  1                 0                 0                 0                 
4010000000        0                 0                 1                 0                 
                  1                 0                 0                 0                 
4045000000        0                 0                 1                 0                 
                  1                 0                 0                 0                 
4080000000        0                 0                 1                 0                 
                  1                 0                 0                 0                 
4115000000        0                 0                 1                 0                 
                  1                 0                 -5.551115123e-17  0                 
4150000000        0                 0                 1                 8.119153424e-18   
                  1                 8.119153424e-18   0                 0                 
4185000000        0                 0                 1                 0                 
                  1                 0                 0                 0                 
4220000000        0                 0                 1                 0                 
                  1                 0                 -4.440892099e-16  0                 
4255000000        0                 0                 1                 5.676415043e-18   
                  1                 5.676415043e-18   0                 5.551115123e-17   
4290000000        0                 0                 1                 0                 
                  1                 0                 -2.775557562e-17  0                 
4325000000        0                 0                 1                 0                 
                  1                 0                 0                 0                 
4360000000        0                 0                 1                 -6.141530125e-17  
                  1                 -6.141530125e-17  -5.551115123e-17  -5.551115123e-17  
4395000000        0                 0                 1                 3.730451143e-17   
                  1                 3.730451143e-17   0                 4.440892099e-16   
4430000000        0                 0                 1                 0                 
                  1                 0                 0                 0                 
4465000000        0                 0                 1                 0                 
                  1                 0                 0                 0                 
4500000000        0                 0                 1                 0                 
                  1                 0                 1.776356839e-15   2.220446049e-16   
4535000000        0                 0                 1                 0                 
                  1                 0                 0                 0                 
4570000000        0                 0                 1                 0                 
                  1                 0                 0                 0                 
4605000000        0                 0                 1                 0                 
                  1                 0                 0                 0                 
4640000000        0                 0                 1                 0                 
                  1                 0                 3.469446952e-17   -1.110223025e-16  
4675000000        0                 0                 1                 0                 
                  1                 0                 -2.220446049e-16  4.440892099e-16   
4710000000        0                 0                 1                 0                 
                  1                 0                 2.775557562e-17   0                 
4745000000        0                 0                 1                 2.222129443e-17   
                  1                 2.222129443e-17   0                 0                 
4780000000        0                 0                 1                 0                 
                  1                 0                 1.110223025e-16   0                 
