! RsaToolbox (C) 2015 Rohde & Schwarz America
! 
! Number of points: 201
! Number of ports: 2
! Balanced ports?: No
! 
! 
# Hz S RI R 50
100000            0                 0                 1                 1.224646799e-16   1                 1.224646799e-16   0                 5.551115123e-17   
42599500          0                 0                 1                 1.224646799e-16   1                 1.224646799e-16   1.776356839e-15   1.776356839e-15   
85099000          0                 0                 1                 1.224646799e-16   1                 1.224646799e-16   -8.881784197e-16  -2.220446049e-16  
127598500         0                 0                 1                 1.224646799e-16   1                 1.224646799e-16   0                 0                 
170098000         0                 0                 1                 1.224646799e-16   1                 1.224646799e-16   0                 0                 
212597500         0                 0                 1                 1.224646799e-16   1                 1.224646799e-16   0                 -1.110223025e-16  
255097000         0                 0                 1                 1.224646799e-16   1                 1.224646799e-16   0                 0                 
297596500         0                 0                 1                 1.224646799e-16   1                 1.224646799e-16   5.551115123e-17   1.110223025e-16   
340096000         0                 0                 1                 1.224646799e-16   1                 1.224646799e-16   4.440892099e-16   0                 
382595500         0                 0                 1                 1.224646799e-16   1                 1.224646799e-16   0                 8.326672685e-17   
425095000         0                 0                 1                 1.224646799e-16   1                 1.224646799e-16   0                 -5.551115123e-17  
467594500         0                 0                 1                 8.328603427e-17   1                 8.328603427e-17   0                 2.220446049e-16   
510094000         0                 0                 1                 1.224646799e-16   1                 1.224646799e-16   -4.440892099e-16  4.440892099e-16   
552593500         0                 0                 1                 1.224646799e-16   1                 1.224646799e-16   2.220446049e-16   0                 
595093000         0                 0                 1                 1.224646799e-16   1                 1.224646799e-16   1.387778781e-17   0                 
637592500         0                 0                 1                 1.224646799e-16   1                 1.224646799e-16   0                 0                 
680092000         0                 0                 1                 1.224646799e-16   1                 1.224646799e-16   0                 0                 
722591500         0                 0                 1                 1.224646799e-16   1                 1.224646799e-16   0                 8.881784197e-16   
765091000         0                 0                 1                 1.224646799e-16   1                 1.224646799e-16   0                 2.220446049e-16   
807590500         0                 0                 1                 1.171422388e-16   1                 1.171422388e-16   0                 0                 
850090000         0                 0                 1                 1.224646799e-16   1                 1.224646799e-16   -1.387778781e-17  -1.110223025e-16  
892589500         0                 0                 1                 1.224646799e-16   1                 1.224646799e-16   0                 0                 
935089000         0                 0                 1                 1.224646799e-16   1                 1.224646799e-16   -3.552713679e-15  -4.440892099e-16  
977588500         0                 0                 1                 1.224646799e-16   1                 1.224646799e-16   -4.440892099e-16  0                 
1020088000        0                 0                 1                 1.224646799e-16   1                 1.224646799e-16   0                 1.110223025e-16   
1062587500        0                 0                 1                 1.224646799e-16   1                 1.224646799e-16   0                 0                 
1105087000        0                 0                 1                 1.224646799e-16   1                 1.224646799e-16   -1.110223025e-16  -5.551115123e-17  
1147586500        0                 0                 1                 1.430260103e-16   1                 1.430260103e-16   0                 1.776356839e-15   
1190086000        0                 0                 1                 1.224646799e-16   1                 1.224646799e-16   -1.110223025e-16  2.220446049e-16   
1232585500        0                 0                 1                 1.224646799e-16   1                 1.224646799e-16   0                 0                 
1275085000        0                 0                 1                 1.224646799e-16   1                 1.224646799e-16   5.551115123e-17   0                 
1317584500        0                 0                 1                 1.224646799e-16   1                 1.224646799e-16   0                 1.110223025e-16   
1360084000        0                 0                 1                 4.836514452e-17   1                 4.836514452e-17   -1.110223025e-16  2.220446049e-16   
1402583500        0                 0                 1                 1.224646799e-16   1                 1.224646799e-16   0                 -1.110223025e-16  
1445083000        0                 0                 1                 1.224646799e-16   1                 1.224646799e-16   1.387778781e-17   1.387778781e-17   
1487582500        0                 0                 1                 1.224646799e-16   1                 1.224646799e-16   0                 0                 
1530082000        0                 0                 1                 1.224646799e-16   1                 1.224646799e-16   0                 0                 
1572581500        0                 0                 1                 1.224646799e-16   1                 1.224646799e-16   0                 -4.440892099e-16  
1615081000        0                 0                 1                 1.224646799e-16   1                 1.224646799e-16   0                 -2.775557562e-17  
1657580500        0                 0                 1                 1.224646799e-16   1                 1.224646799e-16   0                 -4.440892099e-16  
1700080000        0                 0                 1                 1.224646799e-16   1                 1.224646799e-16   -5.551115123e-17  0                 
1742579500        0                 0                 1                 1.224646799e-16   1                 1.224646799e-16   0                 0                 
1785079000        0                 0                 1                 1.224646799e-16   1                 1.224646799e-16   5.551115123e-17   -2.220446049e-16  
1827578500        0                 0                 1                 1.76424607e-16    1                 1.76424607e-16    -2.220446049e-16  2.220446049e-16   
1870078000        0                 0                 1                 6.466777327e-17   1                 6.466777327e-17   4.440892099e-16   -1.776356839e-15  
1912577500        0                 0                 1                 1.859011476e-16   1                 1.859011476e-16   0                 0                 
1955077000        0                 0                 1                 1.224646799e-16   1                 1.224646799e-16   0                 0                 
1997576500        0                 0                 1                 1.224646799e-16   1                 1.224646799e-16   0                 1.110223025e-16   
2040076000        0                 0                 1                 1.224646799e-16   1                 1.224646799e-16   0                 0                 
2082575500        0                 0                 1                 1.224646799e-16   1                 1.224646799e-16   -1.734723476e-17  -1.776356839e-15  
2125075000        0                 0                 1                 1.224646799e-16   1                 1.224646799e-16   -5.551115123e-17  0                 
2167574500        0                 0                 1                 1.224646799e-16   1                 1.224646799e-16   3.469446952e-18   0                 
2210074000        0                 0                 1                 1.224646799e-16   1                 1.224646799e-16   -1.110223025e-16  6.938893904e-18   
2252573500        0                 0                 1                 7.744723152e-17   1                 7.744723152e-17   -4.440892099e-16  -2.220446049e-16  
2295073000        0                 0                 1                 1.224646799e-16   1                 1.224646799e-16   0                 0                 
2337572500        0                 0                 1                 1.224646799e-16   1                 1.224646799e-16   -5.551115123e-17  -2.775557562e-17  
2380072000        0                 0                 1                 1.224646799e-16   1                 1.224646799e-16   0                 2.220446049e-16   
2422571500        0                 0                 1                 1.224646799e-16   1                 1.224646799e-16   -4.163336342e-17  0                 
2465071000        0                 0                 1                 1.224646799e-16   1                 1.224646799e-16   0                 4.440892099e-16   
2507570500        0                 0                 1                 1.224646799e-16   1                 1.224646799e-16   -1.665334537e-16  4.440892099e-16   
2550070000        0                 0                 1                 1.224646799e-16   1                 1.224646799e-16   0                 0                 
2592569500        0                 0                 1                 1.411009965e-16   1                 1.411009965e-16   0                 0                 
2635069000        0                 0                 1                 4.308417259e-17   1                 4.308417259e-17   0                 0                 
2677568500        0                 0                 1                 1.224646799e-16   1                 1.224646799e-16   0                 -6.938893904e-17  
2720068000        0                 0                 1                 1.224646799e-16   1                 1.224646799e-16   0                 -4.440892099e-16  
2762567500        0                 0                 1                 1.206604964e-16   1                 1.206604964e-16   -1.110223025e-16  0                 
2805067000        0                 0                 1                 1.224646799e-16   1                 1.224646799e-16   0                 -1.776356839e-15  
2847566500        0                 0                 1                 1.224646799e-16   1                 1.224646799e-16   0                 0                 
2890066000        0                 0                 1                 1.224646799e-16   1                 1.224646799e-16   -5.551115123e-17  5.551115123e-17   
2932565500        0                 0                 1                 1.224646799e-16   1                 1.224646799e-16   -5.551115123e-17  2.220446049e-16   
2975065000        0                 0                 1                 1.224646799e-16   1                 1.224646799e-16   0                 1.110223025e-16   
3017564500        0                 0                 1                 1.224646799e-16   1                 1.224646799e-16   0                 0                 
3060064000        0                 0                 1                 1.224646799e-16   1                 1.224646799e-16   0                 -1.110223025e-16  
3102563500        0                 0                 1                 1.224646799e-16   1                 1.224646799e-16   0                 0                 
3145063000        0                 0                 1                 1.224646799e-16   1                 1.224646799e-16   1.110223025e-16   -2.220446049e-16  
3187562500        0                 0                 1                 1.224646799e-16   1                 1.224646799e-16   -2.220446049e-16  0                 
3230062000        0                 0                 1                 1.224646799e-16   1                 1.224646799e-16   -2.775557562e-17  0                 
3272561500        0                 0                 1                 1.224646799e-16   1                 1.224646799e-16   5.551115123e-17   1.387778781e-17   
3315061000        0                 0                 1                 1.224646799e-16   1                 1.224646799e-16   0                 0                 
3357560500        0                 0                 1                 1.224646799e-16   1                 1.224646799e-16   0                 0                 
3400060000        0                 0                 1                 1.224646799e-16   1                 1.224646799e-16   0                 2.775557562e-17   
3442559500        0                 0                 1                 1.224646799e-16   1                 1.224646799e-16   5.551115123e-17   0                 
3485059000        0                 0                 1                 1.224646799e-16   1                 1.224646799e-16   0                 0                 
3527558500        0                 0                 1                 1.224646799e-16   1                 1.224646799e-16   0                 0                 
3570058000        0                 0                 1                 1.224646799e-16   1                 1.224646799e-16   0                 0                 
3612557500        0                 0                 1                 1.224646799e-16   1                 1.224646799e-16   1.110223025e-16   5.551115123e-17   
3655057000        0                 0                 1                 1.224646799e-16   1                 1.224646799e-16   0                 0                 
3697556500        0                 0                 1                 1.710082961e-16   1                 1.710082961e-16   0                 0                 
3740056000        0                 0                 1                 1.224646799e-16   1                 1.224646799e-16   1.776356839e-15   0                 
3782555500        0                 0                 1                 1.224646799e-16   1                 1.224646799e-16   0                 0                 
3825055000        0                 0                 1                 1.224646799e-16   1                 1.224646799e-16   0                 -2.775557562e-17  
3867554500        0                 0                 1                 1.224646799e-16   1                 1.224646799e-16   0                 4.440892099e-16   
3910054000        0                 0                 1                 1.224646799e-16   1                 1.224646799e-16   0                 0                 
3952553500        0                 0                 1                 1.407821349e-16   1                 1.407821349e-16   0                 0                 
3995053000        0                 0                 1                 1.224646799e-16   1                 1.224646799e-16   7.632783294e-17   4.440892099e-16   
4037552500        0                 0                 1                 1.224646799e-16   1                 1.224646799e-16   0                 0                 
4080052000        0                 0                 1                 1.224646799e-16   1                 1.224646799e-16   0                 0                 
4122551500        0                 0                 1                 1.224646799e-16   1                 1.224646799e-16   0                 0                 
4165051000        0                 0                 1                 1.224646799e-16   1                 1.224646799e-16   5.551115123e-17   0                 
4207550500        0                 0                 1                 1.224646799e-16   1                 1.224646799e-16   0                 -2.220446049e-16  
4250050000        0                 0                 1                 1.224646799e-16   1                 1.224646799e-16   0                 -4.440892099e-16  
4292549500        0                 0                 1                 1.224646799e-16   1                 1.224646799e-16   0                 2.775557562e-17   
4335049000        0                 0                 1                 1.224646799e-16   1                 1.224646799e-16   2.220446049e-16   0                 
4377548500        0                 0                 1                 1.224646799e-16   1                 1.224646799e-16   0                 0                 
4420048000        0                 0                 1                 1.224646799e-16   1                 1.224646799e-16   -2.220446049e-16  0                 
4462547500        0                 0                 1                 1.224646799e-16   1                 1.224646799e-16   1.110223025e-16   0                 
4505047000        0                 0                 1                 1.224646799e-16   1                 1.224646799e-16   -2.220446049e-16  0                 
4547546500        0                 0                 1                 1.224646799e-16   1                 1.224646799e-16   0                 8.881784197e-16   
4590046000        0                 0                 1                 1.224646799e-16   1                 1.224646799e-16   0                 1.110223025e-16   
4632545500        0                 0                 1                 1.224646799e-16   1                 1.224646799e-16   -8.881784197e-16  0                 
4675045000        0                 0                 1                 1.224646799e-16   1                 1.224646799e-16   0                 0                 
4717544500        0                 0                 1                 1.224646799e-16   1                 1.224646799e-16   0                 0                 
4760044000        0                 0                 1                 8.231011885e-17   1                 8.231011885e-17   0                 0                 
4802543500        0                 0                 1                 1.224646799e-16   1                 1.224646799e-16   8.881784197e-16   8.881784197e-16   
4845043000        0                 0                 1                 1.224646799e-16   1                 1.224646799e-16   0                 8.881784197e-16   
4887542500        0                 0                 1                 1.224646799e-16   1                 1.224646799e-16   0                 0                 
4930042000        0                 0                 1                 1.224646799e-16   1                 1.224646799e-16   4.440892099e-16   0                 
4972541500        0                 0                 1                 1.224646799e-16   1                 1.224646799e-16   1.110223025e-16   0                 
5015041000        0                 0                 1                 1.224646799e-16   1                 1.224646799e-16   0                 -2.220446049e-16  
5057540500        0                 0                 1                 5.972905338e-17   1                 5.972905338e-17   0                 0                 
5100040000        0                 0                 1                 1.224646799e-16   1                 1.224646799e-16   0                 0                 
