! RsaToolbox (C) 2015 Rohde & Schwarz America
! 
! Number of points: 201
! Number of ports: 2
! Balanced ports?: No
! 
! 
# Hz S RI R 50
300000            0                 0                 1                 0                 1                 0                 0                 1.110223025e-16   
40298500          0                 0                 1                 0                 1                 0                 0                 5.551115123e-17   
80297000          0                 0                 1                 0                 1                 0                 2.775557562e-17   0                 
120295500         0                 0                 1                 0                 1                 0                 0                 0                 
160294000         0                 0                 1                 0                 1                 0                 -4.440892099e-16  2.220446049e-16   
200292500         0                 0                 1                 0                 1                 0                 -7.995991022e-19  0                 
240291000         0                 0                 1                 0                 1                 0                 -2.220446049e-16  0                 
280289500         0                 0                 1                 4.359758971e-17   1                 4.359758971e-17   2.775557562e-17   0                 
320288000         0                 0                 1                 3.133680928e-17   1                 3.133680928e-17   0                 0                 
360286500         0                 0                 1                 0                 1                 0                 0                 0                 
400285000         0                 0                 1                 0                 1                 0                 0                 0                 
440283500         0                 0                 1                 0                 1                 0                 0                 0                 
480282000         0                 0                 1                 0                 1                 0                 0                 0                 
520280500         0                 0                 1                 0                 1                 0                 2.220446049e-16   -5.551115123e-17  
560279000         0                 0                 1                 0                 1                 0                 8.881784197e-16   2.220446049e-16   
600277500         0                 0                 1                 0                 1                 0                 0                 0                 
640276000         0                 0                 1                 0                 1                 0                 -1.110223025e-16  0                 
680274500         0                 0                 1                 0                 1                 0                 0                 0                 
720273000         0                 0                 1                 0                 1                 0                 -2.775557562e-17  1.110223025e-16   
760271500         0                 0                 1                 0                 1                 0                 0                 5.551115123e-17   
800270000         0                 0                 1                 0                 1                 0                 4.440892099e-16   0                 
840268500         0                 0                 1                 4.117852292e-18   1                 4.117852292e-18   0                 0                 
880267000         0                 0                 1                 0                 1                 0                 0                 0                 
920265500         0                 0                 1                 0                 1                 0                 1.110223025e-16   5.551115123e-17   
960264000         0                 0                 1                 0                 1                 0                 1.110223025e-16   -1.110223025e-16  
1000262500        0                 0                 1                 0                 1                 0                 0                 0                 
1040261000        0                 0                 1                 4.339333397e-17   1                 4.339333397e-17   0                 4.440892099e-16   
1080259500        0                 0                 1                 0                 1                 0                 0                 0                 
1120258000        0                 0                 1                 0                 1                 0                 1.110223025e-16   0                 
1160256500        0                 0                 1                 0                 1                 0                 0                 0                 
1200255000        0                 0                 1                 0                 1                 0                 0                 -2.775557562e-17  
1240253500        0                 0                 1                 0                 1                 0                 5.551115123e-17   0                 
1280252000        0                 0                 1                 0                 1                 0                 0                 1.110223025e-16   
1320250500        0                 0                 1                 0                 1                 0                 0                 -5.551115123e-17  
1360249000        0                 0                 1                 0                 1                 0                 -2.220446049e-16  0                 
1400247500        0                 0                 1                 0                 1                 0                 -1.776356839e-15  -3.330669074e-16  
1440246000        0                 0                 1                 0                 1                 0                 0                 0                 
1480244500        0                 0                 1                 0                 1                 0                 -2.220446049e-16  5.551115123e-17   
1520243000        0                 0                 1                 0                 1                 0                 0                 0                 
1560241500        0                 0                 1                 0                 1                 0                 0                 0                 
1600240000        0                 0                 1                 0                 1                 0                 0                 -1.387778781e-17  
1640238500        0                 0                 1                 0                 1                 0                 0                 -5.334274689e-17  
1680237000        0                 0                 1                 -5.887313501e-17  1                 -5.887313501e-17  0                 0                 
1720235500        0                 0                 1                 0                 1                 0                 0                 0                 
1760234000        0                 0                 1                 0                 1                 0                 0                 0                 
1800232500        0                 0                 1                 0                 1                 0                 5.551115123e-17   0                 
1840231000        0                 0                 1                 0                 1                 0                 -2.220446049e-16  0                 
1880229500        0                 0                 1                 0                 1                 0                 0                 1.110223025e-16   
1920228000        0                 0                 1                 0                 1                 0                 4.440892099e-16   0                 
1960226500        0                 0                 1                 0                 1                 0                 2.220446049e-16   0                 
2000225000        0                 0                 1                 0                 1                 0                 0                 0                 
2040223500        0                 0                 1                 0                 1                 0                 0                 3.469446952e-18   
2080222000        0                 0                 1                 0                 1                 0                 0                 0                 
2120220500        0                 0                 1                 0                 1                 0                 -2.775557562e-17  0                 
2160219000        0                 0                 1                 0                 1                 0                 0                 0                 
2200217500        0                 0                 1                 0                 1                 0                 0                 0                 
2240216000        0                 0                 1                 0                 1                 0                 -5.551115123e-17  0                 
2280214500        0                 0                 1                 0                 1                 0                 0                 0                 
2320213000        0                 0                 1                 0                 1                 0                 0                 0                 
2360211500        0                 0                 1                 0                 1                 0                 -2.775557562e-17  0                 
2400210000        0                 0                 1                 0                 1                 0                 -2.775557562e-17  0                 
2440208500        0                 0                 1                 0                 1                 0                 -6.245004514e-17  0                 
2480207000        0                 0                 1                 0                 1                 0                 0                 0                 
2520205500        0                 0                 1                 0                 1                 0                 0                 0                 
2560204000        0                 0                 1                 0                 1                 0                 0                 0                 
2600202500        0                 0                 1                 0                 1                 0                 0                 0                 
2640201000        0                 0                 1                 0                 1                 0                 0                 0                 
2680199500        0                 0                 1                 0                 1                 0                 8.881784197e-16   4.440892099e-16   
2720198000        0                 0                 1                 0                 1                 0                 0                 0                 
2760196500        0                 0                 1                 0                 1                 0                 -4.440892099e-16  -4.163336342e-17  
2800195000        0                 0                 1                 0                 1                 0                 2.775557562e-17   0                 
2840193500        0                 0                 1                 0                 1                 0                 -1.110223025e-16  0                 
2880192000        0                 0                 1                 3.668360661e-17   1                 3.668360661e-17   5.551115123e-17   -5.551115123e-17  
2920190500        0                 0                 1                 0                 1                 0                 0                 0                 
2960189000        0                 0                 1                 0                 1                 0                 0                 -2.220446049e-16  
3000187500        0                 0                 1                 3.511692794e-17   1                 3.511692794e-17   0                 0                 
3040186000        0                 0                 1                 0                 1                 0                 0                 -2.220446049e-16  
3080184500        0                 0                 1                 0                 1                 0                 2.220446049e-16   -1.110223025e-16  
3120183000        0                 0                 1                 0                 1                 0                 0                 0                 
3160181500        0                 0                 1                 0                 1                 0                 0                 -2.220446049e-16  
3200180000        0                 0                 1                 0                 1                 0                 0                 0                 
3240178500        0                 0                 1                 0                 1                 0                 1.776356839e-15   0                 
3280177000        0                 0                 1                 0                 1                 0                 0                 0                 
3320175500        0                 0                 1                 0                 1                 0                 4.440892099e-16   0                 
3360174000        0                 0                 1                 0                 1                 0                 0                 0                 
3400172500        0                 0                 1                 0                 1                 0                 0                 -2.220446049e-16  
3440171000        0                 0                 1                 0                 1                 0                 0                 0                 
3480169500        0                 0                 1                 0                 1                 0                 0                 0                 
3520168000        0                 0                 1                 0                 1                 0                 -3.552713679e-15  -4.857225733e-17  
3560166500        0                 0                 1                 0                 1                 0                 0                 0                 
3600165000        0                 0                 1                 0                 1                 0                 1.110223025e-16   0                 
3640163500        0                 0                 1                 -6.054982139e-17  1                 -6.054982139e-17  2.775557562e-16   0                 
3680162000        0                 0                 1                 0                 1                 0                 0                 1.110223025e-16   
3720160500        0                 0                 1                 0                 1                 0                 0                 0                 
3760159000        0                 0                 1                 0                 1                 0                 0                 0                 
3800157500        0                 0                 1                 0                 1                 0                 0                 0                 
3840156000        0                 0                 1                 -4.938268499e-17  1                 -4.938268499e-17  1.110223025e-16   -5.551115123e-17  
3880154500        0                 0                 1                 -4.182683185e-17  1                 -4.182683185e-17  -3.469446952e-18  0                 
3920153000        0                 0                 1                 0                 1                 0                 0                 6.938893904e-18   
3960151500        0                 0                 1                 0                 1                 0                 -1.776356839e-15  0                 
4000150000        0                 0                 1                 0                 1                 0                 0                 0                 
4040148500        0                 0                 1                 -4.543394972e-17  1                 -4.543394972e-17  0                 0                 
4080147000        0                 0                 1                 0                 1                 0                 -1.387778781e-17  0                 
4120145500        0                 0                 1                 0                 1                 0                 0                 -1.110223025e-16  
4160144000        0                 0                 1                 5.497889429e-17   1                 5.497889429e-17   0                 1.110223025e-16   
4200142500        0                 0                 1                 0                 1                 0                 0                 0                 
4240141000        0                 0                 1                 0                 1                 0                 -2.220446049e-16  0                 
4280139500        0                 0                 1                 0                 1                 0                 -1.040834086e-17  0                 
4320138000        0                 0                 1                 0                 1                 0                 1.110223025e-16   0                 
4360136500        0                 0                 1                 0                 1                 0                 0                 0                 
4400135000        0                 0                 1                 0                 1                 0                 -1.110223025e-16  0                 
4440133500        0                 0                 1                 0                 1                 0                 1.110223025e-16   0                 
4480132000        0                 0                 1                 0                 1                 0                 1.110223025e-16   5.551115123e-17   
4520130500        0                 0                 1                 0                 1                 0                 0                 0                 
4560129000        0                 0                 1                 0                 1                 0                 0                 0                 
4600127500        0                 0                 1                 0                 1                 0                 0                 0                 
4640126000        0                 0                 1                 0                 1                 0                 0                 2.220446049e-16   
4680124500        0                 0                 1                 0                 1                 0                 0                 2.775557562e-17   
4720123000        0                 0                 1                 0                 1                 0                 0                 0                 
4760121500        0                 0                 1                 0                 1                 0                 0                 0                 
4800120000        0                 0                 1                 0                 1                 0                 0                 0                 
