! RsaToolbox (C) 2015 Rohde & Schwarz America
! 
! Number of points: 201
! Number of ports: 2
! Balanced ports?: No
! 
! 
# Hz S RI R 50
100000            0                 0                 1                 1.224646799e-16   1                 1.224646799e-16   0                 -5.551115123e-17  
42599500          0                 0                 1                 1.224646799e-16   1                 1.224646799e-16   0                 0                 
85099000          0                 0                 1                 1.224646799e-16   1                 1.224646799e-16   0                 0                 
127598500         0                 0                 1                 1.224646799e-16   1                 1.224646799e-16   1.387778781e-17   0                 
170098000         0                 0                 1                 1.224646799e-16   1                 1.224646799e-16   0                 0                 
212597500         0                 0                 1                 1.224646799e-16   1                 1.224646799e-16   0                 0                 
255097000         0                 0                 1                 1.224646799e-16   1                 1.224646799e-16   0                 1.110223025e-16   
297596500         0                 0                 1                 1.76555351e-16    1                 1.76555351e-16    0                 -2.775557562e-17  
340096000         0                 0                 1                 1.224646799e-16   1                 1.224646799e-16   -1.110223025e-16  0                 
382595500         0                 0                 1                 1.224646799e-16   1                 1.224646799e-16   3.469446952e-18   0                 
425095000         0                 0                 1                 1.224646799e-16   1                 1.224646799e-16   0                 -1.110223025e-16  
467594500         0                 0                 1                 1.224646799e-16   1                 1.224646799e-16   0                 -1.110223025e-16  
510094000         0                 0                 1                 1.224646799e-16   1                 1.224646799e-16   0                 0                 
552593500         0                 0                 1                 1.224646799e-16   1                 1.224646799e-16   0                 -1.110223025e-16  
595093000         0                 0                 1                 1.224646799e-16   1                 1.224646799e-16   0                 0                 
637592500         0                 0                 1                 1.224646799e-16   1                 1.224646799e-16   0                 0                 
680092000         0                 0                 1                 1.224646799e-16   1                 1.224646799e-16   0                 5.551115123e-17   
722591500         0                 0                 1                 1.224646799e-16   1                 1.224646799e-16   0                 0                 
765091000         0                 0                 1                 1.224646799e-16   1                 1.224646799e-16   0                 0                 
807590500         0                 0                 1                 1.224646799e-16   1                 1.224646799e-16   4.163336342e-17   0                 
850090000         0                 0                 1                 1.224646799e-16   1                 1.224646799e-16   2.220446049e-16   0                 
892589500         0                 0                 1                 9.358945736e-17   1                 9.358945736e-17   -2.220446049e-16  0                 
935089000         0                 0                 1                 1.224646799e-16   1                 1.224646799e-16   0                 4.440892099e-16   
977588500         0                 0                 1                 1.224646799e-16   1                 1.224646799e-16   5.551115123e-17   0                 
1020088000        0                 0                 1                 1.224646799e-16   1                 1.224646799e-16   0                 0                 
1062587500        0                 0                 1                 6.541153484e-17   1                 6.541153484e-17   0                 0                 
1105087000        0                 0                 1                 1.224646799e-16   1                 1.224646799e-16   1.110223025e-16   5.551115123e-17   
1147586500        0                 0                 1                 1.224646799e-16   1                 1.224646799e-16   1.387778781e-17   0                 
1190086000        0                 0                 1                 1.224646799e-16   1                 1.224646799e-16   0                 0                 
1232585500        0                 0                 1                 1.224646799e-16   1                 1.224646799e-16   0                 0                 
1275085000        0                 0                 1                 1.224646799e-16   1                 1.224646799e-16   0                 0                 
1317584500        0                 0                 1                 1.224646799e-16   1                 1.224646799e-16   0                 0                 
1360084000        0                 0                 1                 1.224646799e-16   1                 1.224646799e-16   -2.220446049e-16  0                 
1402583500        0                 0                 1                 1.224646799e-16   1                 1.224646799e-16   4.857225733e-17   4.440892099e-16   
1445083000        0                 0                 1                 1.224646799e-16   1                 1.224646799e-16   -2.220446049e-16  0                 
1487582500        0                 0                 1                 1.224646799e-16   1                 1.224646799e-16   0                 0                 
1530082000        0                 0                 1                 1.224646799e-16   1                 1.224646799e-16   0                 -1.387778781e-17  
1572581500        0                 0                 1                 1.224646799e-16   1                 1.224646799e-16   0                 -8.881784197e-16  
1615081000        0                 0                 1                 1.224646799e-16   1                 1.224646799e-16   0                 0                 
1657580500        0                 0                 1                 1.224646799e-16   1                 1.224646799e-16   0                 0                 
1700080000        0                 0                 1                 1.224646799e-16   1                 1.224646799e-16   0                 -2.775557562e-17  
1742579500        0                 0                 1                 1.224646799e-16   1                 1.224646799e-16   -1.110223025e-16  0                 
1785079000        0                 0                 1                 1.224646799e-16   1                 1.224646799e-16   0                 0                 
1827578500        0                 0                 1                 1.224646799e-16   1                 1.224646799e-16   0                 -7.979727989e-17  
1870078000        0                 0                 1                 1.224646799e-16   1                 1.224646799e-16   1.110223025e-16   0                 
1912577500        0                 0                 1                 1.224646799e-16   1                 1.224646799e-16   0                 -8.881784197e-16  
1955077000        0                 0                 1                 1.224646799e-16   1                 1.224646799e-16   0                 0                 
1997576500        0                 0                 1                 1.224646799e-16   1                 1.224646799e-16   0                 1.110223025e-16   
2040076000        0                 0                 1                 1.224646799e-16   1                 1.224646799e-16   2.220446049e-16   0                 
2082575500        0                 0                 1                 1.224646799e-16   1                 1.224646799e-16   1.110223025e-16   0                 
2125075000        0                 0                 1                 1.224646799e-16   1                 1.224646799e-16   0                 -4.440892099e-16  
2167574500        0                 0                 1                 1.224646799e-16   1                 1.224646799e-16   2.775557562e-17   0                 
2210074000        0                 0                 1                 1.224646799e-16   1                 1.224646799e-16   0                 -1.387778781e-17  
2252573500        0                 0                 1                 1.224646799e-16   1                 1.224646799e-16   0                 0                 
2295073000        0                 0                 1                 1.224646799e-16   1                 1.224646799e-16   0                 0                 
2337572500        0                 0                 1                 1.53908361e-16    1                 1.53908361e-16    -2.220446049e-16  0                 
2380072000        0                 0                 1                 1.224646799e-16   1                 1.224646799e-16   -1.110223025e-16  1.110223025e-16   
2422571500        0                 0                 1                 1.224646799e-16   1                 1.224646799e-16   0                 -7.995991022e-17  
2465071000        0                 0                 1                 1.224646799e-16   1                 1.224646799e-16   0                 0                 
2507570500        0                 0                 1                 5.92471776e-17    1                 5.92471776e-17    0                 1.580437558e-17   
2550070000        0                 0                 1                 1.224646799e-16   1                 1.224646799e-16   0                 0                 
2592569500        0                 0                 1                 1.224646799e-16   1                 1.224646799e-16   0                 0                 
2635069000        0                 0                 1                 1.224646799e-16   1                 1.224646799e-16   0                 0                 
2677568500        0                 0                 1                 1.224646799e-16   1                 1.224646799e-16   8.881784197e-16   -4.440892099e-16  
2720068000        0                 0                 1                 1.224646799e-16   1                 1.224646799e-16   0                 0                 
2762567500        0                 0                 1                 1.224646799e-16   1                 1.224646799e-16   0                 -2.220446049e-16  
2805067000        0                 0                 1                 1.224646799e-16   1                 1.224646799e-16   0                 0                 
2847566500        0                 0                 1                 1.224646799e-16   1                 1.224646799e-16   0                 -6.938893904e-18  
2890066000        0                 0                 1                 1.121909333e-16   1                 1.121909333e-16   0                 -8.881784197e-16  
2932565500        0                 0                 1                 1.224646799e-16   1                 1.224646799e-16   0                 0                 
2975065000        0                 0                 1                 1.224646799e-16   1                 1.224646799e-16   -2.775557562e-17  0                 
3017564500        0                 0                 1                 1.224646799e-16   1                 1.224646799e-16   0                 0                 
3060064000        0                 0                 1                 1.224646799e-16   1                 1.224646799e-16   2.220446049e-16   -5.551115123e-17  
3102563500        0                 0                 1                 1.224646799e-16   1                 1.224646799e-16   1.776356839e-15   1.110223025e-16   
3145063000        0                 0                 1                 1.224646799e-16   1                 1.224646799e-16   -2.220446049e-16  4.163336342e-17   
3187562500        0                 0                 1                 1.224646799e-16   1                 1.224646799e-16   0                 0                 
3230062000        0                 0                 1                 1.224646799e-16   1                 1.224646799e-16   0                 0                 
3272561500        0                 0                 1                 1.224646799e-16   1                 1.224646799e-16   0                 -1.110223025e-16  
3315061000        0                 0                 1                 1.224646799e-16   1                 1.224646799e-16   -4.440892099e-16  0                 
3357560500        0                 0                 1                 8.62318721e-17    1                 8.62318721e-17    4.440892099e-16   2.220446049e-16   
3400060000        0                 0                 1                 1.224646799e-16   1                 1.224646799e-16   0                 0                 
3442559500        0                 0                 1                 1.695304673e-16   1                 1.695304673e-16   1.665334537e-16   0                 
3485059000        0                 0                 1                 1.224646799e-16   1                 1.224646799e-16   0                 0                 
3527558500        0                 0                 1                 1.224646799e-16   1                 1.224646799e-16   0                 4.440892099e-16   
3570058000        0                 0                 1                 1.224646799e-16   1                 1.224646799e-16   0                 4.440892099e-16   
3612557500        0                 0                 1                 1.224646799e-16   1                 1.224646799e-16   0                 4.440892099e-16   
3655057000        0                 0                 1                 1.224646799e-16   1                 1.224646799e-16   0                 -1.110223025e-16  
3697556500        0                 0                 1                 1.224646799e-16   1                 1.224646799e-16   0                 0                 
3740056000        0                 0                 1                 1.224646799e-16   1                 1.224646799e-16   0                 0                 
3782555500        0                 0                 1                 1.224646799e-16   1                 1.224646799e-16   0                 0                 
3825055000        0                 0                 1                 1.224646799e-16   1                 1.224646799e-16   -4.440892099e-16  -4.440892099e-16  
3867554500        0                 0                 1                 1.224646799e-16   1                 1.224646799e-16   0                 -6.938893904e-18  
3910054000        0                 0                 1                 1.224646799e-16   1                 1.224646799e-16   -2.775557562e-17  0                 
3952553500        0                 0                 1                 1.059660239e-16   1                 1.059660239e-16   1.110223025e-16   -2.220446049e-16  
3995053000        0                 0                 1                 1.254577893e-16   1                 1.254577893e-16   2.220446049e-16   0                 
4037552500        0                 0                 1                 1.224646799e-16   1                 1.224646799e-16   0                 0                 
4080052000        0                 0                 1                 1.224646799e-16   1                 1.224646799e-16   8.881784197e-16   0                 
4122551500        0                 0                 1                 1.224646799e-16   1                 1.224646799e-16   1.387778781e-17   0                 
4165051000        0                 0                 1                 1.224646799e-16   1                 1.224646799e-16   0                 0                 
4207550500        0                 0                 1                 1.224646799e-16   1                 1.224646799e-16   -4.440892099e-16  0                 
4250050000        0                 0                 1                 1.224646799e-16   1                 1.224646799e-16   8.881784197e-16   0                 
4292549500        0                 0                 1                 1.224646799e-16   1                 1.224646799e-16   -1.110223025e-16  -4.440892099e-16  
4335049000        0                 0                 1                 1.224646799e-16   1                 1.224646799e-16   0                 -5.551115123e-17  
4377548500        0                 0                 1                 1.224646799e-16   1                 1.224646799e-16   1.776356839e-15   0                 
4420048000        0                 0                 1                 1.224646799e-16   1                 1.224646799e-16   0                 2.255140519e-17   
4462547500        0                 0                 1                 1.224646799e-16   1                 1.224646799e-16   0                 0                 
4505047000        0                 0                 1                 1.224646799e-16   1                 1.224646799e-16   0                 1.110223025e-16   
4547546500        0                 0                 1                 6.153567047e-17   1                 6.153567047e-17   0                 0                 
4590046000        0                 0                 1                 1.224646799e-16   1                 1.224646799e-16   0                 0                 
4632545500        0                 0                 1                 1.224646799e-16   1                 1.224646799e-16   0                 -1.776356839e-15  
4675045000        0                 0                 1                 1.224646799e-16   1                 1.224646799e-16   -4.440892099e-16  -2.168404345e-17  
4717544500        0                 0                 1                 1.224646799e-16   1                 1.224646799e-16   -1.110223025e-16  0                 
4760044000        0                 0                 1                 1.224646799e-16   1                 1.224646799e-16   0                 0                 
4802543500        0                 0                 1                 1.224646799e-16   1                 1.224646799e-16   0                 0                 
4845043000        0                 0                 1                 1.224646799e-16   1                 1.224646799e-16   0                 -1.110223025e-16  
4887542500        0                 0                 1                 1.224646799e-16   1                 1.224646799e-16   0                 0                 
4930042000        0                 0                 1                 1.224646799e-16   1                 1.224646799e-16   -4.440892099e-16  0                 
4972541500        0                 0                 1                 1.224646799e-16   1                 1.224646799e-16   0                 0                 
5015041000        0                 0                 1                 1.224646799e-16   1                 1.224646799e-16   0                 -1.387778781e-17  
5057540500        0                 0                 1                 1.224646799e-16   1                 1.224646799e-16   0                 0                 
5100040000        0                 0                 1                 1.224646799e-16   1                 1.224646799e-16   0                 -2.220446049e-16  
