! RsaToolbox (C) 2015 Rohde & Schwarz America
! 
! Number of points: 201
! Number of ports: 2
! Balanced ports?: No
! 
! 
# Hz S RI R 50
<<<<<<< HEAD
100000            0                 0                 1                 0                 1                 0                 0                 2.775557562e-17   
42599500          0                 0                 1                 0                 1                 0                 0                 0                 
85099000          0                 0                 1                 0                 1                 0                 0                 5.551115123e-17   
127598500         0                 0                 1                 0                 1                 0                 0                 0                 
170098000         0                 0                 1                 0                 1                 0                 0                 -1.110223025e-16  
212597500         0                 0                 1                 0                 1                 0                 0                 -4.440892099e-16  
255097000         0                 0                 1                 0                 1                 0                 -2.220446049e-16  4.440892099e-16   
297596500         0                 0                 1                 0                 1                 0                 -5.551115123e-17  0                 
340096000         0                 0                 1                 0                 1                 0                 0                 0                 
382595500         0                 0                 1                 0                 1                 0                 2.220446049e-16   2.220446049e-16   
425095000         0                 0                 1                 0                 1                 0                 0                 -6.938893904e-18  
467594500         0                 0                 1                 0                 1                 0                 1.110223025e-16   -1.110223025e-16  
510094000         0                 0                 1                 0                 1                 0                 0                 0                 
552593500         0                 0                 1                 0                 1                 0                 0                 0                 
595093000         0                 0                 1                 0                 1                 0                 0                 0                 
637592500         0                 0                 1                 0                 1                 0                 0                 0                 
680092000         0                 0                 1                 0                 1                 0                 -1.776356839e-15  -1.776356839e-15  
722591500         0                 0                 1                 0                 1                 0                 0                 0                 
765091000         0                 0                 1                 0                 1                 0                 2.220446049e-16   0                 
807590500         0                 0                 1                 0                 1                 0                 0                 0                 
850090000         0                 0                 1                 0                 1                 0                 0                 0                 
892589500         0                 0                 1                 0                 1                 0                 0                 -2.775557562e-17  
935089000         0                 0                 1                 0                 1                 0                 0                 0                 
977588500         0                 0                 1                 0                 1                 0                 0                 -8.881784197e-16  
1020088000        0                 0                 1                 0                 1                 0                 0                 0                 
1062587500        0                 0                 1                 0                 1                 0                 0                 0                 
1105087000        0                 0                 1                 -4.076463761e-17  1                 -4.076463761e-17  0                 0                 
1147586500        0                 0                 1                 0                 1                 0                 0                 1.110223025e-16   
1190086000        0                 0                 1                 3.674807375e-17   1                 3.674807375e-17   0                 -4.440892099e-16  
1232585500        0                 0                 1                 0                 1                 0                 -2.775557562e-17  -2.220446049e-16  
1275085000        0                 0                 1                 8.293180361e-17   1                 8.293180361e-17   1.110223025e-16   -2.220446049e-16  
1317584500        0                 0                 1                 -4.410514129e-17  1                 -4.410514129e-17  4.440892099e-16   1.110223025e-16   
1360084000        0                 0                 1                 0                 1                 0                 1.110223025e-16   0                 
1402583500        0                 0                 1                 0                 1                 0                 0                 0                 
1445083000        0                 0                 1                 0                 1                 0                 0                 1.110223025e-16   
1487582500        0                 0                 1                 0                 1                 0                 1.387778781e-17   0                 
1530082000        0                 0                 1                 0                 1                 0                 0                 0                 
1572581500        0                 0                 1                 0                 1                 0                 -1.110223025e-16  0                 
1615081000        0                 0                 1                 0                 1                 0                 0                 0                 
1657580500        0                 0                 1                 0                 1                 0                 0                 6.938893904e-18   
1700080000        0                 0                 1                 0                 1                 0                 1.110223025e-16   0                 
1742579500        0                 0                 1                 0                 1                 0                 2.220446049e-16   0                 
1785079000        0                 0                 1                 -1.580521992e-18  1                 -1.580521992e-18  0                 -1.387778781e-17  
1827578500        0                 0                 1                 0                 1                 0                 0                 0                 
1870078000        0                 0                 1                 0                 1                 0                 -2.220446049e-16  0                 
1912577500        0                 0                 1                 0                 1                 0                 0                 0                 
1955077000        0                 0                 1                 0                 1                 0                 0                 2.220446049e-16   
1997576500        0                 0                 1                 4.278983977e-17   1                 4.278983977e-17   0                 0                 
2040076000        0                 0                 1                 1.421855774e-17   1                 1.421855774e-17   0                 -8.326672685e-17  
2082575500        0                 0                 1                 0                 1                 0                 0                 -8.881784197e-16  
2125075000        0                 0                 1                 0                 1                 0                 0                 0                 
2167574500        0                 0                 1                 0                 1                 0                 0                 -2.775557562e-17  
2210074000        0                 0                 1                 0                 1                 0                 0                 0                 
2252573500        0                 0                 1                 -7.276367553e-17  1                 -7.276367553e-17  0                 0                 
2295073000        0                 0                 1                 0                 1                 0                 0                 2.220446049e-16   
2337572500        0                 0                 1                 0                 1                 0                 -2.220446049e-16  0                 
2380072000        0                 0                 1                 0                 1                 0                 0                 0                 
2422571500        0                 0                 1                 0                 1                 0                 -1.110223025e-16  0                 
2465071000        0                 0                 1                 0                 1                 0                 2.220446049e-16   0                 
2507570500        0                 0                 1                 -5.581479982e-17  1                 -5.581479982e-17  0                 -1.110223025e-16  
2550070000        0                 0                 1                 0                 1                 0                 0                 0                 
2592569500        0                 0                 1                 0                 1                 0                 -4.440892099e-16  0                 
2635069000        0                 0                 1                 0                 1                 0                 0                 0                 
2677568500        0                 0                 1                 0                 1                 0                 0                 -1.110223025e-16  
2720068000        0                 0                 1                 0                 1                 0                 0                 -2.220446049e-16  
2762567500        0                 0                 1                 0                 1                 0                 0                 0                 
2805067000        0                 0                 1                 0                 1                 0                 -4.440892099e-16  0                 
2847566500        0                 0                 1                 0                 1                 0                 0                 0                 
2890066000        0                 0                 1                 0                 1                 0                 -1.110223025e-16  0                 
2932565500        0                 0                 1                 6.10696167e-17    1                 6.10696167e-17    1.110223025e-16   0                 
2975065000        0                 0                 1                 0                 1                 0                 1.110223025e-16   0                 
3017564500        0                 0                 1                 0                 1                 0                 0                 0                 
3060064000        0                 0                 1                 0                 1                 0                 0                 -5.551115123e-17  
3102563500        0                 0                 1                 0                 1                 0                 0                 2.220446049e-16   
3145063000        0                 0                 1                 5.598205014e-17   1                 5.598205014e-17   0                 0                 
3187562500        0                 0                 1                 0                 1                 0                 0                 0                 
3230062000        0                 0                 1                 0                 1                 0                 0                 0                 
3272561500        0                 0                 1                 0                 1                 0                 1.110223025e-16   0                 
3315061000        0                 0                 1                 0                 1                 0                 0                 1.110223025e-16   
3357560500        0                 0                 1                 0                 1                 0                 0                 8.881784197e-16   
3400060000        0                 0                 1                 0                 1                 0                 1.776356839e-15   -4.440892099e-16  
3442559500        0                 0                 1                 0                 1                 0                 0                 -8.326672685e-17  
3485059000        0                 0                 1                 0                 1                 0                 0                 0                 
3527558500        0                 0                 1                 0                 1                 0                 -4.440892099e-16  0                 
3570058000        0                 0                 1                 0                 1                 0                 0                 -5.551115123e-17  
3612557500        0                 0                 1                 0                 1                 0                 0                 0                 
3655057000        0                 0                 1                 0                 1                 0                 0                 0                 
3697556500        0                 0                 1                 0                 1                 0                 0                 -2.220446049e-16  
3740056000        0                 0                 1                 -8.028868469e-17  1                 -8.028868469e-17  4.440892099e-16   0                 
3782555500        0                 0                 1                 0                 1                 0                 -2.220446049e-16  0                 
3825055000        0                 0                 1                 0                 1                 0                 0                 0                 
3867554500        0                 0                 1                 0                 1                 0                 0                 0                 
3910054000        0                 0                 1                 0                 1                 0                 0                 0                 
3952553500        0                 0                 1                 0                 1                 0                 0                 2.220446049e-16   
3995053000        0                 0                 1                 0                 1                 0                 -2.220446049e-16  8.881784197e-16   
4037552500        0                 0                 1                 0                 1                 0                 0                 0                 
4080052000        0                 0                 1                 0                 1                 0                 4.440892099e-16   4.440892099e-16   
4122551500        0                 0                 1                 0                 1                 0                 0                 5.551115123e-17   
4165051000        0                 0                 1                 0                 1                 0                 -4.440892099e-16  4.440892099e-16   
4207550500        0                 0                 1                 0                 1                 0                 0                 0                 
4250050000        0                 0                 1                 0                 1                 0                 0                 0                 
4292549500        0                 0                 1                 0                 1                 0                 0                 -4.440892099e-16  
4335049000        0                 0                 1                 4.129343145e-17   1                 4.129343145e-17   0                 8.881784197e-16   
4377548500        0                 0                 1                 0                 1                 0                 -4.440892099e-16  5.551115123e-17   
4420048000        0                 0                 1                 0                 1                 0                 0                 -8.881784197e-16  
4462547500        0                 0                 1                 0                 1                 0                 0                 8.881784197e-16   
4505047000        0                 0                 1                 0                 1                 0                 0                 -1.110223025e-16  
4547546500        0                 0                 1                 8.625529125e-18   1                 8.625529125e-18   5.551115123e-17   0                 
4590046000        0                 0                 1                 0                 1                 0                 0                 2.220446049e-16   
4632545500        0                 0                 1                 0                 1                 0                 0                 0                 
4675045000        0                 0                 1                 0                 1                 0                 0                 0                 
4717544500        0                 0                 1                 0                 1                 0                 0                 0                 
4760044000        0                 0                 1                 0                 1                 0                 1.110223025e-16   0                 
4802543500        0                 0                 1                 0                 1                 0                 2.220446049e-16   0                 
4845043000        0                 0                 1                 0                 1                 0                 0                 2.220446049e-16   
4887542500        0                 0                 1                 0                 1                 0                 0                 4.440892099e-16   
4930042000        0                 0                 1                 0                 1                 0                 -8.881784197e-16  1.776356839e-15   
4972541500        0                 0                 1                 0                 1                 0                 -6.938893904e-18  0                 
5015041000        0                 0                 1                 0                 1                 0                 0                 2.775557562e-16   
5057540500        0                 0                 1                 0                 1                 0                 0                 1.110223025e-16   
5100040000        0                 0                 1                 0                 1                 0                 0                 0                 
