! RsaToolbox (C) 2015 Rohde & Schwarz America
! 
! Number of points: 1199
! Number of ports: 2
! Balanced ports?: No
! 
! 
# Hz S RI R 50
20000000          -0.000465992327   -0.02953239103    0.9977092442      -0.0441824958     0.9977092442      -0.0441824958     -0.001029792016   0.03039352824     
30000000          -0.005437044079   -0.02201378796    0.9975632843      -0.06085027018    0.9975632843      -0.06085027018    0.006602151852    0.01874841615     
40000000          -0.008988460469   -0.01918622082    0.992504072       -0.08222122908    0.992504072       -0.08222122908    0.01119099643     0.01522307232     
50000000          -0.01044088572    -0.01661369784    0.9897935717      -0.1031120176     0.9897935717      -0.1031120176     0.01271217113     0.01325228233     
60000000          -0.01178963481    -0.01491035471    0.9873301712      -0.1234904976     0.9873301712      -0.1234904976     0.01463225614     0.01091407845     
70000000          -0.01293738801    -0.01349352973    0.9836409261      -0.1444022099     0.9836409261      -0.1444022099     0.01589767914     0.01008833814     
80000000          -0.01334075004    -0.01191535344    0.9802939015      -0.1645747176     0.9802939015      -0.1645747176     0.01683151692     0.008405400947    
90000000          -0.01332763523    -0.0106203679     0.9758649199      -0.1857945561     0.9758649199      -0.1857945561     0.01801058781     0.008106702648    
100000000         -0.01255353147    -0.008521346793   0.9705363994      -0.2067495317     0.9705363994      -0.2067495317     0.01867390611     0.008362498262    
110000000         -0.01151918411    -0.006843567044   0.9650956555      -0.2284025351     0.9650956555      -0.2284025351     0.01876834415     0.008991639295    
120000000         -0.00933986247    -0.004719624573   0.9587936705      -0.2490126969     0.9587936705      -0.2490126969     0.01883844029     0.009790769363    
130000000         -0.004898649569   -0.005797015238   0.9503963593      -0.2696956008     0.9503963593      -0.2696956008     0.01970542687     0.01166478988     
140000000         -0.002390042069   -0.01249958082    0.9427603509      -0.2831212287     0.9427603509      -0.2831212287     0.01942807256     0.003508791801    
150000000         -0.009737667747   -0.02898238714    0.9400446993      -0.2868327999     0.9400446993      -0.2868327999     0.01811863818     -0.01302913495    
160000000         -0.02144699584    -0.04202736852    0.9393501277      -0.2907862208     0.9393501277      -0.2907862208     0.01741747249     -0.03038832653    
170000000         -0.03043490378    -0.04441655999    0.9361510345      -0.3032615434     0.9361510345      -0.3032615434     0.01923454621     -0.03784542719    
180000000         -0.03525304261    -0.04038275263    0.9315186317      -0.3225948456     0.9315186317      -0.3225948456     0.01919755558     -0.03989937704    
190000000         -0.0376702017     -0.03674385524    0.9245143248      -0.3425978584     0.9245143248      -0.3425978584     0.02000825373     -0.03964554432    
200000000         -0.0390944765     -0.03297858446    0.9176958843      -0.3627244686     0.9176958843      -0.3627244686     0.02000478916     -0.03932839425    
210000000         -0.04031227772    -0.0297305342     0.9102296228      -0.3825549132     0.9102296228      -0.3825549132     0.01957551019     -0.03880915951    
220000000         -0.04070583685    -0.02689726232    0.9015892711      -0.4013314239     0.9015892711      -0.4013314239     0.02034393848     -0.03860061323    
230000000         -0.04092609196    -0.02442586852    0.8925002052      -0.4199345292     0.8925002052      -0.4199345292     0.02066892003     -0.0387528048     
240000000         -0.04144943631    -0.02169080338    0.8832390315      -0.4383997502     0.8832390315      -0.4383997502     0.02081827907     -0.03878948005    
250000000         -0.04054314393    -0.01886395003    0.8731865322      -0.4573857298     0.8731865322      -0.4573857298     0.02085868213     -0.03814895524    
260000000         -0.03981943544    -0.01698637577    0.8634036142      -0.4756395233     0.8634036142      -0.4756395233     0.02062492031     -0.037487634      
270000000         -0.03812395445    -0.01592265622    0.8531421234      -0.4936123381     0.8531421234      -0.4936123381     0.01877256017     -0.037292515      
280000000         -0.03607927009    -0.01618209087    0.8421586502      -0.5108551995     0.8421586502      -0.5108551995     0.01692357164     -0.03751151823    
290000000         -0.03447204313    -0.01852292441    0.8315577278      -0.5274226048     0.8315577278      -0.5274226048     0.01244552474     -0.03844257584    
300000000         -0.03398611008    -0.0233274391     0.8209427519      -0.5433012577     0.8209427519      -0.5433012577     0.006992019699    -0.04114081885    
310000000         -0.03602070259    -0.029231857      0.8104804899      -0.5576151474     0.8104804899      -0.5576151474     0.0008874398168   -0.04542307896    
320000000         -0.03977389316    -0.03348325244    0.7997989285      -0.5717966944     0.7997989285      -0.5717966944     -0.003928326923   -0.04980491483    
330000000         -0.04372506254    -0.03601248332    0.7890590279      -0.5860149958     0.7890590279      -0.5860149958     -0.007387935735   -0.05327908292    
340000000         -0.0477555495     -0.0363284476     0.7776039549      -0.6005381896     0.7776039549      -0.6005381896     -0.009446119284   -0.05612213312    
350000000         -0.0513920026     -0.0354093383     0.7657162433      -0.6151071093     0.7657162433      -0.6151071093     -0.01078394164    -0.05765030199    
360000000         -0.05422638103    -0.03387471458    0.7532272725      -0.6301468985     0.7532272725      -0.6301468985     -0.01107713484    -0.05883001869    
370000000         -0.05647900034    -0.03200562874    0.740104511       -0.6446192804     0.740104511       -0.6446192804     -0.01239264678    -0.05935704254    
380000000         -0.05875398964    -0.02952459658    0.7272956665      -0.65891227       0.7272956665      -0.65891227       -0.01247640205    -0.06033328957    
390000000         -0.06077335417    -0.02689634641    0.7138961856      -0.6731064479     0.7138961856      -0.6731064479     -0.01251825156    -0.06088707783    
400000000         -0.06233492794    -0.0238802566     0.6997926954      -0.6873568393     0.6997926954      -0.6873568393     -0.01247611188    -0.06160806816    
410000000         -0.0633838294     -0.02039300251    0.6858618264      -0.7009402109     0.6858618264      -0.7009402109     -0.01233658769    -0.06222042899    
420000000         -0.06398079017    -0.01634316033    0.6714471983      -0.7152925015     0.6714471983      -0.7152925015     -0.01161691895    -0.06242747531    
430000000         -0.06352015146    -0.01218955147    0.6565540553      -0.7291019971     0.6565540553      -0.7291019971     -0.01036377859    -0.06175168707    
440000000         -0.06160958234    -0.008161937657   0.6406926308      -0.7429703799     0.6406926308      -0.7429703799     -0.01018867165    -0.06080599524    
450000000         -0.05913324796    -0.00528546964    0.6242136293      -0.7570711781     0.6242136293      -0.7570711781     -0.009795414874   -0.05785552156    
460000000         -0.0560632039     -0.00373785207    0.6066313733      -0.7705729801     0.6066313733      -0.7705729801     -0.01018207704    -0.05468501882    
470000000         -0.05326216006    -0.003733608382   0.5887860815      -0.7836223815     0.5887860815      -0.7836223815     -0.01169409181    -0.05152489755    
480000000         -0.05148628956    -0.005004375795   0.5711652885      -0.7959818304     0.5711652885      -0.7959818304     -0.01325715436    -0.04870522255    
490000000         -0.0505810405     -0.00675089579    0.553088171       -0.8077145523     0.553088171       -0.8077145523     -0.01587726204    -0.0465532374     
500000000         -0.05053428851    -0.008778481408   0.5349509867      -0.8187787054     0.5349509867      -0.8187787054     -0.01870795071    -0.04519254573    
510000000         -0.05107902103    -0.01107078233    0.5168468621      -0.8299079431     0.5168468621      -0.8299079431     -0.02180561904    -0.0444020649     
520000000         -0.05215730141    -0.01245351971    0.4980569189      -0.83980414       0.4980569189      -0.83980414       -0.02381335567    -0.04402203129    
530000000         -0.0533682541     -0.01303027091    0.4797910353      -0.8486743738     0.4797910353      -0.8486743738     -0.02668313662    -0.04246996832    
540000000         -0.05640630633    -0.01342058268    0.462588318       -0.8580139669     0.462588318       -0.8580139669     -0.02908905202    -0.0423535212     
550000000         -0.05889775758    -0.01312189155    0.4445156116      -0.8661476318     0.4445156116      -0.8661476318     -0.03104291274    -0.04248582326    
560000000         -0.06207862434    -0.01174668539    0.4271251889      -0.8726756439     0.4271251889      -0.8726756439     -0.03237110705    -0.04426690171    
570000000         -0.06526051627    -0.008065543247   0.4115062434      -0.8804641461     0.4115062434      -0.8804641461     -0.03256382284    -0.04615185318    
580000000         -0.06785900275    -0.002520561792   0.3955271745      -0.8858777755     0.3955271745      -0.8858777755     -0.02973821193    -0.04923548724    
590000000         -0.06901385102    0.005025506002    0.3818837888      -0.8908799664     0.3818837888      -0.8908799664     -0.02627106182    -0.05291292507    
600000000         -0.06810285371    0.01213496116     0.3668060873      -0.8961272596     0.3668060873      -0.8961272596     -0.02233488258    -0.05602108296    
610000000         -0.06530795869    0.01861827601     0.3509339725      -0.90221608       0.3509339725      -0.90221608       -0.0179873285     -0.0583598137     
620000000         -0.06191330861    0.02278556742     0.3345134203      -0.9085379823     0.3345134203      -0.9085379823     -0.01565143183    -0.05852462934    
630000000         -0.05737445519    0.02511940953     0.3163425691      -0.9158408906     0.3163425691      -0.9158408906     -0.01470168542    -0.05698201705    
640000000         -0.05336492189    0.02548518722     0.2967173785      -0.9222649469     0.2967173785      -0.9222649469     -0.01420199236    -0.0550888199     
650000000         -0.05011614636    0.02455662601     0.2766183057      -0.9288246039     0.2766183057      -0.9288246039     -0.01526984447    -0.05162933513    
660000000         -0.04744947266    0.02276338473     0.2554829738      -0.9355784388     0.2554829738      -0.9355784388     -0.01610526632    -0.04781484944    
670000000         -0.04595793402    0.0209497602      0.2348760086      -0.9406126828     0.2348760086      -0.9406126828     -0.01766099481    -0.04431939853    
680000000         -0.04473160525    0.01870674686     0.2127159486      -0.9455703009     0.2127159486      -0.9455703009     -0.019464262      -0.04193306851    
690000000         -0.04376640697    0.01671737082     0.1919650064      -0.9490244696     0.1919650064      -0.9490244696     -0.02128224667    -0.03910927651    
700000000         -0.04356876287    0.01483507133     0.1714237932      -0.9529905964     0.1714237932      -0.9529905964     -0.02356542026    -0.03675281223    
710000000         -0.04384868337    0.01429573701     0.150897064       -0.9553442962     0.150897064       -0.9553442962     -0.02509897778    -0.03568953689    
720000000         -0.04394780162    0.01429703973     0.1314850732      -0.9579518039     0.1314850732      -0.9579518039     -0.02630005208    -0.03559331899    
730000000         -0.04378938334    0.01546497917     0.1134866604      -0.9600940418     0.1134866604      -0.9600940418     -0.0261629467     -0.03567883909    
740000000         -0.04370255073    0.01746909096     0.09543113573     -0.9609183899     0.09543113573     -0.9609183899     -0.02585860609    -0.03740513583    
750000000         -0.04168461974    0.01978766787     0.07762951389     -0.9623212158     0.07762951389     -0.9623212158     -0.023690326      -0.03830352002    
760000000         -0.03892328357    0.02088321676     0.05853357786     -0.9633858409     0.05853357786     -0.9633858409     -0.02127720231    -0.03746742446    
770000000         -0.03676623359    0.0205256238      0.03896069832     -0.9636577304     0.03896069832     -0.9636577304     -0.02004739731    -0.03527321261    
780000000         -0.03433109813    0.01883810222     0.01740948029     -0.9643422702     0.01740948029     -0.9643422702     -0.01884429512    -0.032612869      
790000000         -0.03263881178    0.01631740198     -0.003907930735   -0.9643565043     -0.003907930735   -0.9643565043     -0.01903084263    -0.02901426325    
800000000         -0.03125442087    0.01317749952     -0.02634576214    -0.9638324323     -0.02634576214    -0.9638324323     -0.01915148966    -0.02489525862    
810000000         -0.03137325183    0.01036872462     -0.04760290185    -0.9629928556     -0.04760290185    -0.9629928556     -0.0196000626     -0.02060168627    
820000000         -0.0312634616     0.006946097395    -0.06971842873    -0.9616774896     -0.06971842873    -0.9616774896     -0.01949542121    -0.01699480371    
830000000         -0.03117934235    0.003534091159    -0.09190608213    -0.9589660787     -0.09190608213    -0.9589660787     -0.01878333411    -0.01335476174    
840000000         -0.03231366135    0.0005855383968   -0.112379785      -0.9554528458     -0.112379785      -0.9554528458     -0.0163833426     -0.0109671592     
850000000         -0.0326517882     -0.00188371235    -0.1327063377     -0.9523007743     -0.1327063377     -0.9523007743     -0.01410129577    -0.008784884497   
860000000         -0.03412714925    -0.003981481921   -0.15160977       -0.9475331338     -0.15160977       -0.9475331338     -0.01060600337    -0.009745437552   
870000000         -0.03675893559    -0.004072703189   -0.1679357364     -0.9429717182     -0.1679357364     -0.9429717182     -0.008612375878   -0.01313393018    
880000000         -0.03972719474    -0.002013328959   -0.1814633717     -0.9378900391     -0.1814633717     -0.9378900391     -0.006549708382   -0.02099715278    
890000000         -0.04368321123    0.003856802552    -0.1930883493     -0.933575528      -0.1930883493     -0.933575528      -0.008251583166   -0.02873409499    
900000000         -0.04799448453    0.01182370633     -0.2060388949     -0.9296208183     -0.2060388949     -0.9296208183     -0.01332334284    -0.03625862858    
910000000         -0.05093840621    0.01895212885     -0.2228067019     -0.9255280117     -0.2228067019     -0.9255280117     -0.0212461176     -0.03531195888    
920000000         -0.05255400573    0.02131236049     -0.244674768      -0.9204678581     -0.244674768      -0.9204678581     -0.02786943642    -0.02853760213    
930000000         -0.05226168828    0.01935003343     -0.2687325783     -0.9152563748     -0.2687325783     -0.9152563748     -0.03281866512    -0.01985724454    
940000000         -0.05273783332    0.01610811111     -0.292386891      -0.9087671045     -0.292386891      -0.9087671045     -0.03488940144    -0.01040637305    
950000000         -0.05400551022    0.01314567472     -0.315646906      -0.9011526211     -0.315646906      -0.9011526211     -0.03523102331    -0.002995027593   
960000000         -0.05644373994    0.01190658461     -0.3379016703     -0.8931745224     -0.3379016703     -0.8931745224     -0.032425258      0.005682680226    
970000000         -0.05865369848    0.008838747197    -0.3596843783     -0.8846139973     -0.3596843783     -0.8846139973     -0.03143621445    0.01207595787     
980000000         -0.06156424579    0.007469443698    -0.3798394888     -0.8750393351     -0.3798394888     -0.8750393351     -0.02961577942    0.01636638203     
990000000         -0.06429897069    0.006169762377    -0.398697145      -0.8655930902     -0.398697145      -0.8655930902     -0.02718082464    0.01891377331     
1000000000        -0.06674925995    0.006410295296    -0.4156512553     -0.8553488688     -0.4156512553     -0.8553488688     -0.02495459796    0.01999394423     
1010000000        -0.07009529022    0.008437818893    -0.430955284      -0.8455536791     -0.430955284      -0.8455536791     -0.02128511592    0.01736734325     
1020000000        -0.07304404268    0.01469065081     -0.4412779362     -0.835214365      -0.4412779362     -0.835214365      -0.01745299034    0.009016401732    
1030000000        -0.07467669174    0.02575294277     -0.4477710054     -0.8263502766     -0.4477710054     -0.8263502766     -0.01499156639    -0.007256174185   
1040000000        -0.07194873766    0.04518652257     -0.4483663623     -0.8183567614     -0.4483663623     -0.8183567614     -0.01477888441    -0.03076649484    
1050000000        -0.06521160272    0.06649914953     -0.4486090126     -0.8124436888     -0.4486090126     -0.8124436888     -0.01905127492    -0.05416722552    
1060000000        -0.05660098836    0.08360678001     -0.4569857728     -0.8056010605     -0.4569857728     -0.8056010605     -0.02887122108    -0.06495498751    
1070000000        -0.04988106282    0.08578258801     -0.478323717      -0.7975060161     -0.478323717      -0.7975060161     -0.040769864      -0.05543767266    
1080000000        -0.04745705589    0.07992635851     -0.5060250211     -0.787198167      -0.5060250211     -0.787198167      -0.04899501749    -0.03710003795    
1090000000        -0.04776479654    0.07220800188     -0.532434253      -0.7746087148     -0.532434253      -0.7746087148     -0.05284771776    -0.01887263438    
1100000000        -0.05098288807    0.06739452568     -0.556560013      -0.7601877596     -0.556560013      -0.7601877596     -0.05357153109    -0.004245450896   
1110000000        -0.05283750698    0.06174207356     -0.5784513718     -0.7461703864     -0.5784513718     -0.7461703864     -0.05364381782    0.01090108663     
1120000000        -0.05550515405    0.05954001326     -0.5989916135     -0.7311991565     -0.5989916135     -0.7311991565     -0.05258717503    0.02147747119     
1130000000        -0.05687519442    0.05926325717     -0.6157170921     -0.7162635459     -0.6157170921     -0.7162635459     -0.05005872487    0.02843060303     
1140000000        -0.05693862845    0.06101864236     -0.6315887515     -0.7017071633     -0.6315887515     -0.7017071633     -0.04846597724    0.03246804615     
1150000000        -0.0561368336     0.06320691043     -0.6448028958     -0.687074469      -0.6448028958     -0.687074469      -0.04639771395    0.03455115723     
1160000000        -0.05311840068    0.06717429439     -0.6560684493     -0.673276271      -0.6560684493     -0.673276271      -0.04468698297    0.03282614926     
1170000000        -0.04722897859    0.07193327757     -0.6653292649     -0.6607167773     -0.6653292649     -0.6607167773     -0.04351736856    0.0292912336      
1180000000        -0.03710720592    0.07719596486     -0.6708293521     -0.6499099396     -0.6708293521     -0.6499099396     -0.04152912476    0.02078636342     
1190000000        -0.02350839216    0.08073406397     -0.6739882748     -0.6411359171     -0.6739882748     -0.6411359171     -0.03806126851    0.008822626486    
1200000000        -0.007519865564   0.08026683375     -0.6774963848     -0.6344144926     -0.6774963848     -0.6344144926     -0.032987747      -0.004245819744   
1210000000        0.005262581831    0.07449471533     -0.6833105837     -0.6272576916     -0.6833105837     -0.6272576916     -0.02669246524    -0.013660336      
1220000000        0.01124492609     0.06448049614     -0.6949471404     -0.6175761376     -0.6949471404     -0.6175761376     -0.02181210781    -0.01760522788    
