! RsaToolbox (C) 2015 Rohde & Schwarz America
! 
! Number of points: 1199
! Number of ports: 2
! Balanced ports?: No
! 
! 
# Hz S RI R 50
20000000          0.0004147179091   -0.02849300749    0.9973671172      -0.0422834267     0.9973671172      -0.0422834267     0.002786536977    0.02540247633     
30000000          -0.00501703668    -0.01967217109    0.9958563673      -0.06385799793    0.9958563673      -0.06385799793    0.009131002959    0.02092837319     
40000000          -0.008643897953   -0.01707532775    0.9919803068      -0.08418810713    0.9919803068      -0.08418810713    0.01080522662     0.01849902849     
50000000          -0.01051104462    -0.01496148174    0.9898119199      -0.1036441411     0.9898119199      -0.1036441411     0.0132089754      0.01366652743     
60000000          -0.01181893741    -0.01373926098    0.9869704313      -0.1240281183     0.9869704313      -0.1240281183     0.01538006438     0.01267382529     
70000000          -0.0140090142     -0.01288689991    0.9841956529      -0.1442196258     0.9841956529      -0.1442196258     0.01710614682     0.01017696707     
80000000          -0.01500967919    -0.01228839715    0.9803419953      -0.1632767297     0.9803419953      -0.1632767297     0.01815050964     0.007481828903    
90000000          -0.01693411803    -0.01264719057    0.9772339118      -0.1825610099     0.9772339118      -0.1825610099     0.01873856195     0.004914833432    
100000000         -0.01873177669    -0.01243676038    0.9735714156      -0.2004571101     0.9735714156      -0.2004571101     0.01961277642     0.001423612382    
110000000         -0.02106696544    -0.01323353141    0.9700488717      -0.2183083835     0.9700488717      -0.2183083835     0.01994242156     -0.001618620974   
120000000         -0.02394791023    -0.01295105354    0.9653956131      -0.2356319672     0.9653956131      -0.2356319672     0.02134099879     -0.005399824281   
130000000         -0.02724225892    -0.01260610967    0.9633033061      -0.2536784467     0.9633033061      -0.2536784467     0.01832402241     -0.009220543981   
140000000         -0.02541180194    -0.005082655219   0.957973164       -0.2791631926     0.957973164       -0.2791631926     0.0158905813      -0.005908314194   
150000000         -0.01391812448    0.005831179439    0.9482029733      -0.3140737986     0.9482029733      -0.3140737986     0.009907531656    0.008575111544    
160000000         0.001055744887    0.01423534315     0.9349655186      -0.3483312312     0.9349655186      -0.3483312312     0.005715344657    0.023305682       
170000000         0.007807009491    0.01630485423     0.922802225       -0.3726593233     0.922802225       -0.3726593233     0.006021886234    0.02991956447     
180000000         0.009989154096    0.0144377306      0.9128353449      -0.3897220004     0.9128353449      -0.3897220004     0.008958911624    0.02831216601     
190000000         0.009848903929    0.01264246855     0.9046191553      -0.4069268118     0.9046191553      -0.4069268118     0.01044810118     0.02704089216     
200000000         0.009397342876    0.01096253861     0.8954298185      -0.422998078      0.8954298185      -0.422998078      0.01161947756     0.02425263671     
210000000         0.00881018337     0.009336743247    0.8868253245      -0.4390536038     0.8868253245      -0.4390536038     0.0125154821      0.0222000108      
220000000         0.008090907133    0.008811952297    0.8775750962      -0.4560006905     0.8775750962      -0.4560006905     0.01327008602     0.02046708829     
230000000         0.007477264702    0.008129330121    0.8686516269      -0.4723099008     0.8686516269      -0.4723099008     0.01380467581     0.01811839277     
240000000         0.006882693693    0.007421853569    0.8591580957      -0.488699893      0.8591580957      -0.488699893      0.01373573655     0.01671057057     
250000000         0.006657196743    0.007230144152    0.84941828        -0.5044496371     0.84941828        -0.5044496371     0.01423469913     0.0145185867      
260000000         0.00619086801     0.006837334279    0.8393167226      -0.5206222157     0.8393167226      -0.5206222157     0.01455087531     0.01299291992     
270000000         0.006773702947    0.006010272671    0.829258298       -0.5361374172     0.829258298       -0.5361374172     0.014451775       0.01088593176     
280000000         0.008033028567    0.004452456306    0.8183120997      -0.5520549329     0.8183120997      -0.5520549329     0.01230897944     0.009165335841    
290000000         0.01026230652     0.0009039508372   0.8065131263      -0.5683552295     0.8065131263      -0.5683552295     0.009076025977    0.007825371364    
300000000         0.01299776637     -0.004528507705   0.7943301259      -0.5854044114     0.7943301259      -0.5854044114     0.003761832407    0.00779968798     
310000000         0.01507320206     -0.01116347527    0.7805692017      -0.6032945339     0.7805692017      -0.6032945339     -0.002684696161   0.008970762686    
320000000         0.01627520087     -0.01731672696    0.7666343525      -0.6201652354     0.7666343525      -0.6201652354     -0.008478340699   0.01004454829     
330000000         0.01610592576     -0.02223448135    0.7523923398      -0.6366524419     0.7523923398      -0.6366524419     -0.01289529082    0.01043276813     
340000000         0.0153945692      -0.02567845488    0.7382061345      -0.6522932657     0.7382061345      -0.6522932657     -0.01605852801    0.01040418714     
350000000         0.01353087619     -0.02840441096    0.7240174133      -0.6669337582     0.7240174133      -0.6669337582     -0.01746436699    0.01075245346     
360000000         0.01191496135     -0.03026358939    0.7095754259      -0.6814941282     0.7095754259      -0.6814941282     -0.01884308919    0.0103854575      
370000000         0.0097987712      -0.031498682      0.6956247978      -0.6953120723     0.6956247978      -0.6953120723     -0.0201580614     0.009665503766    
380000000         0.007925507185    -0.03276626347    0.6806701596      -0.709021127      0.6806701596      -0.709021127      -0.02054420841    0.009535914114    
390000000         0.005723220811    -0.03362663605    0.6662798146      -0.7224627571     0.6662798146      -0.7224627571     -0.0212648444     0.009326577019    
400000000         0.003391097878    -0.03441091045    0.6514684287      -0.734839325      0.6514684287      -0.734839325      -0.02167285034    0.00933792534     
410000000         0.0009800227793   -0.0345019417     0.6364907039      -0.7474128875     0.6364907039      -0.7474128875     -0.02195199208    0.00865253259     
420000000         -0.00143232604    -0.03425120576    0.6211067068      -0.758797112      0.6211067068      -0.758797112      -0.02082662779    0.007558047423    
430000000         -0.004006538294   -0.03330420801    0.6062719943      -0.7701185614     0.6062719943      -0.7701185614     -0.0199719289     0.006391670195    
440000000         -0.006551994442   -0.03200796235    0.5918831859      -0.7807206324     0.5918831859      -0.7807206324     -0.01897680743    0.00458833738     
450000000         -0.009112448813   -0.03044589986    0.577489738       -0.7904838155     0.577489738       -0.7904838155     -0.01815351731    0.002939041224    
460000000         -0.01153496147    -0.02885300854    0.5637306629      -0.8004340425     0.5637306629      -0.8004340425     -0.01821028342    0.001286348264    
470000000         -0.01415281517    -0.0279086288     0.5495760635      -0.8099402147     0.5495760635      -0.8099402147     -0.01893281311    -0.0003089968153  
480000000         -0.01633850217    -0.02739082397    0.5350138556      -0.820093677      0.5350138556      -0.820093677      -0.0202660128     -0.001641958311   
490000000         -0.0192041119     -0.02686429111    0.5204314684      -0.8299550903     0.5204314684      -0.8299550903     -0.02271059571    -0.003177784229   
500000000         -0.02182538127    -0.02656285063    0.5049074173      -0.8392637098     0.5049074173      -0.8392637098     -0.02464212409    -0.00471860695    
510000000         -0.0243784517     -0.0258540819     0.4892312894      -0.8487671718     0.4892312894      -0.8487671718     -0.02669416257    -0.006819882055   
520000000         -0.02724828242    -0.02463104801    0.4739647106      -0.8579242801     0.4739647106      -0.8579242801     -0.02916120743    -0.01026332683    
530000000         -0.02923584797    -0.02415014119    0.4570053416      -0.867264456      0.4570053416      -0.867264456      -0.03119502119    -0.01021183023    
540000000         -0.03132318746    -0.02249692616    0.4401305286      -0.8754402911     0.4401305286      -0.8754402911     -0.03330113216    -0.01127125445    
550000000         -0.03194238845    -0.0201707592     0.4232789347      -0.8853285617     0.4232789347      -0.8853285617     -0.03434946803    -0.01127170859    
560000000         -0.03233821632    -0.01726470923    0.4043320364      -0.8938546718     0.4043320364      -0.8938546718     -0.03466199855    -0.01073234512    
570000000         -0.03049520278    -0.01549752988    0.384683503       -0.9029073715     0.384683503       -0.9029073715     -0.03334268722    -0.009693719119   
580000000         -0.02706056353    -0.01294058434    0.3641541514      -0.9126339283     0.3641541514      -0.9126339283     -0.03226870764    -0.006320955981   
590000000         -0.02290349425    -0.01291210915    0.34228096        -0.9210647727     0.34228096        -0.9210647727     -0.02956438699    -0.002127016482   
600000000         -0.01843687124    -0.01269678864    0.3202240928      -0.9282704611     0.3202240928      -0.9282704611     -0.02709898505    0.001686137834    
610000000         -0.01506111339    -0.01371356681    0.298468684       -0.9351011699     0.298468684       -0.9351011699     -0.02409138849    0.004627360453    
620000000         -0.01341078907    -0.01528771515    0.2791251089      -0.9409579588     0.2791251089      -0.9409579588     -0.02408726988    0.006981114702    
630000000         -0.0135034786     -0.01631821565    0.2603151568      -0.9449618688     0.2603151568      -0.9449618688     -0.02362505073    0.008100609895    
640000000         -0.01471860843    -0.01720271377    0.2421754918      -0.9489242423     0.2421754918      -0.9489242423     -0.02434424806    0.008308777817    
650000000         -0.01672586421    -0.01724910061    0.2251774799      -0.9525013047     0.2251774799      -0.9525013047     -0.02441223404    0.007280575544    
660000000         -0.0195067839     -0.01688828371    0.2087146472      -0.9555366709     0.2087146472      -0.9555366709     -0.02567102377    0.004607698812    
670000000         -0.02166634174    -0.01593780999    0.1919298884      -0.9591327938     0.1919298884      -0.9591327938     -0.02850849976    0.002756752372    
680000000         -0.02351484049    -0.01462855082    0.1750473092      -0.9615092989     0.1750473092      -0.9615092989     -0.02992557099    0.0006202592431   
690000000         -0.02534603356    -0.01302397573    0.1589030265      -0.9649500067     0.1589030265      -0.9649500067     -0.03212069624    -0.001831142875   
700000000         -0.02628597691    -0.01131305773    0.1411953473      -0.9672658439     0.1411953473      -0.9672658439     -0.03328416315    -0.003984126963   
710000000         -0.02695463893    -0.009896058217   0.1230168957      -0.9698728188     0.1230168957      -0.9698728188     -0.03470766476    -0.00459786571    
720000000         -0.02675438887    -0.009349700029   0.1043457463      -0.9720508511     0.1043457463      -0.9720508511     -0.03418827492    -0.003532943558   
730000000         -0.02540839242    -0.009473803057   0.08374980057     -0.9736452669     0.08374980057     -0.9736452669     -0.03347889509    -0.001880459109   
740000000         -0.02395206699    -0.0105380625     0.06326851943     -0.9754519989     0.06326851943     -0.9754519989     -0.03259009789    -0.0001611927682  
750000000         -0.02286252409    -0.01182026306    0.04167395214     -0.9763806762     0.04167395214     -0.9763806762     -0.03160570438    0.00173812564     
760000000         -0.02243459012    -0.01212251246    0.021875596       -0.9769388155     0.021875596       -0.9769388155     -0.03076240376    0.003231543139    
770000000         -0.02208488641    -0.01146446939    0.003901234327    -0.9771948893     0.003901234327    -0.9771948893     -0.03156548455    0.002624034411    
780000000         -0.02249884811    -0.01023385752    -0.01398108647    -0.9772212928     -0.01398108647    -0.9772212928     -0.03192404302    0.0009592055461   
790000000         -0.0224286065     -0.007973576292   -0.03024278355    -0.976344378      -0.03024278355    -0.976344378      -0.03224488235    5.853269801e-05   
800000000         -0.02194668153    -0.005400176217   -0.04645656515    -0.974490985      -0.04645656515    -0.974490985      -0.03027921733    -0.002437547291   
810000000         -0.02101602387    -0.003462780578   -0.06265778124    -0.9739524158     -0.06265778124    -0.9739524158     -0.03000636414    -0.004671484203   
820000000         -0.0194870795     -0.001640602033   -0.0789502618     -0.9721443256     -0.0789502618     -0.9721443256     -0.02760772516    -0.007501282765   
830000000         -0.01728810478    -0.0009194780497  -0.09516658607    -0.9706268249     -0.09516658607    -0.9706268249     -0.0263513471     -0.01027862812    
840000000         -0.01498466677    -0.0009037450711  -0.1117958515     -0.969842701      -0.1117958515     -0.969842701      -0.02623830275    -0.01206024072    
850000000         -0.01257149651    -0.002517857003   -0.1300166226     -0.9676468804     -0.1300166226     -0.9676468804     -0.02383693548    -0.01328078373    
860000000         -0.009674284632   -0.006583423183   -0.1494410099     -0.9675895392     -0.1494410099     -0.9675895392     -0.02364647636    -0.01366821096    
870000000         -0.009436313025   -0.01290588106    -0.1710462026     -0.9656858344     -0.1710462026     -0.9656858344     -0.0251329407     -0.01196529757    
880000000         -0.01219989054    -0.02220603225    -0.1965774685     -0.9625261505     -0.1965774685     -0.9625261505     -0.02714384735    -0.007216236895   
890000000         -0.02017381729    -0.02994881876    -0.2236231849     -0.9582015562     -0.2236231849     -0.9582015562     -0.03336588608    0.0002865381555   
900000000         -0.03172811823    -0.0335765216     -0.2499315885     -0.9524327294     -0.2499315885     -0.9524327294     -0.04270328983    0.00777169429     
910000000         -0.04104560916    -0.02815948449    -0.2703372765     -0.9450457452     -0.2703372765     -0.9450457452     -0.05080384931    0.01249606513     
920000000         -0.04496412731    -0.01876429991    -0.2847481544     -0.9384129374     -0.2847481544     -0.9384129374     -0.05638560612    0.009923387033    
930000000         -0.04422926625    -0.007922004964   -0.2959225354     -0.9321202822     -0.2959225354     -0.9321202822     -0.05943083559    0.005908741329    
940000000         -0.04022094868    9.256562729e-05   -0.3066543848     -0.9270642341     -0.3066543848     -0.9270642341     -0.05848852291    0.0006388659444   
950000000         -0.0348994913     0.005701589189    -0.3193404468     -0.9224984304     -0.3193404468     -0.9224984304     -0.05742185577    -0.002954616963   
960000000         -0.03079632598    0.007031685151    -0.3322968508     -0.9174761579     -0.3322968508     -0.9174761579     -0.05264190228    -0.00874736949    
970000000         -0.02601991115    0.008536164356    -0.3452001401     -0.911641802      -0.3452001401     -0.911641802      -0.04692722189    -0.0126534443     
980000000         -0.02180270661    0.00824931454     -0.3594589703     -0.9064889677     -0.3594589703     -0.9064889677     -0.04318293471    -0.01644888584    
990000000         -0.01881399038    0.005765522429    -0.3749223529     -0.9008621448     -0.3749223529     -0.9008621448     -0.04064161608    -0.01976072696    
1000000000        -0.01744557711    0.00209061747     -0.392634312      -0.8949663682     -0.392634312      -0.8949663682     -0.03846086702    -0.02102088555    
1010000000        -0.01900819472    -0.003939221677   -0.4121079082     -0.8888158157     -0.4121079082     -0.8888158157     -0.03892333619    -0.02188016675    
1020000000        -0.02601364667    -0.01144719605    -0.4368579121     -0.8818678798     -0.4368579121     -0.8818678798     -0.0449647692     -0.01828630043    
1030000000        -0.04116870517    -0.01891173811    -0.4675235159     -0.8725513563     -0.4675235159     -0.8725513563     -0.05635258012    -0.01168096625    
1040000000        -0.064642611      -0.02157689538    -0.5051124855     -0.8587805788     -0.5051124855     -0.8587805788     -0.07787673144    0.001080396049    
1050000000        -0.08948053279    -0.01280345422    -0.5401018617     -0.839486994      -0.5401018617     -0.839486994      -0.1016324646     0.01650039074     
1060000000        -0.100354017      0.00560571045     -0.5636681427     -0.8215300533     -0.5636681427     -0.8215300533     -0.1219314521     0.02615398567     
1070000000        -0.09199097144    0.02458766763     -0.5700242802     -0.8093174832     -0.5700242802     -0.8093174832     -0.1239431082     0.02331530026     
1080000000        -0.07481434069    0.0361612732      -0.5705699699     -0.8008042608     -0.5705699699     -0.8008042608     -0.1160791863     0.01363914386     
1090000000        -0.05796502554    0.0408135851      -0.5721457504     -0.7935895482     -0.5721457504     -0.7935895482     -0.1053914804     0.004551318576    
1100000000        -0.0445320139     0.04216510983     -0.5762885051     -0.7876059021     -0.5762885051     -0.7876059021     -0.09545324099    -0.005287802507   
1110000000        -0.03191671805    0.04038480919     -0.5829881161     -0.7799220801     -0.5829881161     -0.7799220801     -0.0861569576     -0.009736429003   
1120000000        -0.02255529559    0.03780067256     -0.5916966669     -0.7721896383     -0.5916966669     -0.7721896383     -0.07797877088    -0.0143833801     
1130000000        -0.01642968308    0.03446606609     -0.6029308863     -0.7633201292     -0.6029308863     -0.7633201292     -0.07149023717    -0.01831665055    
1140000000        -0.01161926411    0.03097379175     -0.615598745      -0.753918933      -0.615598745      -0.753918933      -0.06827035187    -0.02167797701    
1150000000        -0.009361856595   0.02759328537     -0.6299811046     -0.7433976162     -0.6299811046     -0.7433976162     -0.06637754031    -0.02322286069    
1160000000        -0.01007261218    0.02444724007     -0.647203093      -0.7321038777     -0.647203093      -0.7321038777     -0.06781285169    -0.02247546808    
1170000000        -0.01285896898    0.02241961371     -0.6662178201     -0.7184433203     -0.6662178201     -0.7184433203     -0.07299894107    -0.01849619685    
1180000000        -0.01916323595    0.02248596047     -0.6882146296     -0.7017593888     -0.6882146296     -0.7017593888     -0.08137707162    -0.009766277751   
1190000000        -0.02829218353    0.02541176904     -0.7126553867     -0.681673597      -0.7126553867     -0.681673597      -0.09262591128    0.001292036934    
1200000000        -0.03737786177    0.03055434016     -0.7367958963     -0.6585270761     -0.7367958963     -0.6585270761     -0.1019259789     0.01556914725     
1210000000        -0.0431195052     0.03644916342     -0.7560793482     -0.6356029001     -0.7560793482     -0.6356029001     -0.1066381662     0.02572543464     
1220000000        -0.04380993051    0.0405298867      -0.7683441406     -0.6151458669     -0.7683441406     -0.6151458669     -0.1029151375     0.03016967813     
