! RsaToolbox (C) 2014 Rohde & Schwarz America
! 
! Number of points: 201
! Number of ports: 2
! Balanced ports?: No
! 
! 
# Hz S RI R 50
1000000000        0                 0                 1                 1.224646799e-16   
                  1                 1.224646799e-16   0                 0                 
1035000000        0                 0                 1                 1.224646799e-16   
                  1                 1.224646799e-16   0                 0                 
1070000000        0                 0                 1                 1.224646799e-16   
                  1                 1.224646799e-16   -4.440892099e-16  0                 
1105000000        0                 0                 1                 1.224646799e-16   
                  1                 1.224646799e-16   0                 0                 
1140000000        0                 0                 1                 1.224646799e-16   
                  1                 1.224646799e-16   0                 -2.220446049e-16  
1175000000        0                 0                 1                 1.224646799e-16   
                  1                 1.224646799e-16   0                 0                 
1210000000        0                 0                 1                 1.224646799e-16   
                  1                 1.224646799e-16   2.220446049e-16   -8.881784197e-16  
1245000000        0                 0                 1                 1.975410491e-16   
                  1                 1.975410491e-16   4.440892099e-16   0                 
1280000000        0                 0                 1                 1.224646799e-16   
                  1                 1.224646799e-16   -8.881784197e-16  0                 
1315000000        0                 0                 1                 1.224646799e-16   
                  1                 1.224646799e-16   -1.110223025e-16  -1.110223025e-16  
1350000000        0                 0                 1                 1.224646799e-16   
                  1                 1.224646799e-16   4.440892099e-16   0                 
1385000000        0                 0                 1                 1.224646799e-16   
                  1                 1.224646799e-16   0                 0                 
1420000000        0                 0                 1                 1.224646799e-16   
                  1                 1.224646799e-16   0                 -2.220446049e-16  
1455000000        0                 0                 1                 1.33940652e-16    
                  1                 1.33940652e-16    0                 0                 
1490000000        0                 0                 1                 1.224646799e-16   
                  1                 1.224646799e-16   0                 2.775557562e-17   
1525000000        0                 0                 1                 1.224646799e-16   
                  1                 1.224646799e-16   -2.220446049e-16  8.881784197e-16   
1560000000        0                 0                 1                 1.224646799e-16   
                  1                 1.224646799e-16   -1.110223025e-16  0                 
1595000000        0                 0                 1                 1.224646799e-16   
                  1                 1.224646799e-16   -4.440892099e-16  0                 
1630000000        0                 0                 1                 1.224646799e-16   
                  1                 1.224646799e-16   -2.220446049e-16  5.551115123e-17   
1665000000        0                 0                 1                 1.224646799e-16   
                  1                 1.224646799e-16   0                 -4.440892099e-16  
1700000000        0                 0                 1                 1.224646799e-16   
                  1                 1.224646799e-16   0                 8.881784197e-16   
1735000000        0                 0                 1                 1.224646799e-16   
                  1                 1.224646799e-16   0                 0                 
1770000000        0                 0                 1                 1.224646799e-16   
                  1                 1.224646799e-16   0                 0                 
1805000000        0                 0                 1                 1.224646799e-16   
                  1                 1.224646799e-16   0                 0                 
1840000000        0                 0                 1                 1.224646799e-16   
                  1                 1.224646799e-16   0                 2.220446049e-16   
1875000000        0                 0                 1                 1.224646799e-16   
                  1                 1.224646799e-16   0                 0                 
1910000000        0                 0                 1                 1.224646799e-16   
                  1                 1.224646799e-16   0                 0                 
1945000000        0                 0                 1                 1.224646799e-16   
                  1                 1.224646799e-16   0                 0                 
1980000000        0                 0                 1                 1.224646799e-16   
                  1                 1.224646799e-16   0                 -2.220446049e-16  
2015000000        0                 0                 1                 1.224646799e-16   
                  1                 1.224646799e-16   0                 0                 
2050000000        0                 0                 1                 1.224646799e-16   
                  1                 1.224646799e-16   2.775557562e-17   0                 
2085000000        0                 0                 1                 1.224646799e-16   
                  1                 1.224646799e-16   1.110223025e-16   0                 
2120000000        0                 0                 1                 1.224646799e-16   
                  1                 1.224646799e-16   1.110223025e-16   -4.440892099e-16  
2155000000        0                 0                 1                 1.224646799e-16   
                  1                 1.224646799e-16   0                 0                 
2190000000        0                 0                 1                 1.224646799e-16   
                  1                 1.224646799e-16   0                 0                 
2225000000        0                 0                 1                 1.224646799e-16   
                  1                 1.224646799e-16   0                 0                 
2260000000        0                 0                 1                 1.224646799e-16   
                  1                 1.224646799e-16   0                 0                 
2295000000        0                 0                 1                 1.224646799e-16   
                  1                 1.224646799e-16   1.110223025e-16   0                 
2330000000        0                 0                 1                 1.224646799e-16   
                  1                 1.224646799e-16   0                 0                 
2365000000        0                 0                 1                 1.224646799e-16   
                  1                 1.224646799e-16   0                 -5.551115123e-17  
2400000000        0                 0                 1                 1.224646799e-16   
                  1                 1.224646799e-16   0                 -5.551115123e-17  
2435000000        0                 0                 1                 1.224646799e-16   
                  1                 1.224646799e-16   0                 0                 
2470000000        0                 0                 1                 1.224646799e-16   
                  1                 1.224646799e-16   0                 0                 
2505000000        0                 0                 1                 1.224646799e-16   
                  1                 1.224646799e-16   0                 3.552713679e-15   
2540000000        0                 0                 1                 1.224646799e-16   
                  1                 1.224646799e-16   0                 1.110223025e-16   
2575000000        0                 0                 1                 1.224646799e-16   
                  1                 1.224646799e-16   1.110223025e-16   8.881784197e-16   
2610000000        0                 0                 1                 1.224646799e-16   
                  1                 1.224646799e-16   0                 0                 
2645000000        0                 0                 1                 1.224646799e-16   
                  1                 1.224646799e-16   0                 0                 
2680000000        0                 0                 1                 1.224646799e-16   
                  1                 1.224646799e-16   0                 0                 
2715000000        0                 0                 1                 1.224646799e-16   
                  1                 1.224646799e-16   -5.551115123e-17  1.110223025e-16   
2750000000        0                 0                 1                 1.224646799e-16   
                  1                 1.224646799e-16   -1.110223025e-16  -4.440892099e-16  
2785000000        0                 0                 1                 1.26605751e-16    
                  1                 1.26605751e-16    0                 0                 
2820000000        0                 0                 1                 1.224646799e-16   
                  1                 1.224646799e-16   0                 0                 
2855000000        0                 0                 1                 1.224646799e-16   
                  1                 1.224646799e-16   4.440892099e-16   -1.110223025e-16  
2890000000        0                 0                 1                 1.224646799e-16   
                  1                 1.224646799e-16   0                 0                 
2925000000        0                 0                 1                 1.224646799e-16   
                  1                 1.224646799e-16   0                 1.387778781e-17   
2960000000        0                 0                 1                 1.224646799e-16   
                  1                 1.224646799e-16   8.881784197e-16   0                 
2995000000        0                 0                 1                 1.224646799e-16   
                  1                 1.224646799e-16   0                 -5.551115123e-17  
3030000000        0                 0                 1                 1.224646799e-16   
                  1                 1.224646799e-16   0                 2.220446049e-16   
3065000000        0                 0                 1                 1.224646799e-16   
                  1                 1.224646799e-16   2.220446049e-16   0                 
3100000000        0                 0                 1                 6.654806966e-17   
                  1                 6.654806966e-17   2.220446049e-16   -4.440892099e-16  
3135000000        0                 0                 1                 1.224646799e-16   
                  1                 1.224646799e-16   0                 0                 
3170000000        0                 0                 1                 1.224646799e-16   
                  1                 1.224646799e-16   4.440892099e-16   5.551115123e-17   
3205000000        0                 0                 1                 1.224646799e-16   
                  1                 1.224646799e-16   0                 4.440892099e-16   
3240000000        0                 0                 1                 1.224646799e-16   
                  1                 1.224646799e-16   0                 -4.440892099e-16  
3275000000        0                 0                 1                 1.224646799e-16   
                  1                 1.224646799e-16   1.387778781e-17   -5.551115123e-17  
3310000000        0                 0                 1                 1.224646799e-16   
                  1                 1.224646799e-16   -2.220446049e-16  -1.387778781e-17  
3345000000        0                 0                 1                 1.224646799e-16   
                  1                 1.224646799e-16   0                 0                 
3380000000        0                 0                 1                 1.224646799e-16   
                  1                 1.224646799e-16   5.551115123e-17   2.220446049e-16   
3415000000        0                 0                 1                 1.224646799e-16   
                  1                 1.224646799e-16   0                 0                 
3450000000        0                 0                 1                 1.224646799e-16   
                  1                 1.224646799e-16   1.110223025e-16   0                 
3485000000        0                 0                 1                 1.224646799e-16   
                  1                 1.224646799e-16   -4.440892099e-16  -2.220446049e-16  
3520000000        0                 0                 1                 1.224646799e-16   
                  1                 1.224646799e-16   0                 0                 
3555000000        0                 0                 1                 1.224646799e-16   
                  1                 1.224646799e-16   0                 0                 
3590000000        0                 0                 1                 1.224646799e-16   
                  1                 1.224646799e-16   0                 1.110223025e-16   
3625000000        0                 0                 1                 1.224646799e-16   
                  1                 1.224646799e-16   0                 2.220446049e-16   
3660000000        0                 0                 1                 1.224646799e-16   
                  1                 1.224646799e-16   0                 0                 
3695000000        0                 0                 1                 1.224646799e-16   
                  1                 1.224646799e-16   0                 0                 
3730000000        0                 0                 1                 1.224646799e-16   
                  1                 1.224646799e-16   0                 0                 
3765000000        0                 0                 1                 1.224646799e-16   
                  1                 1.224646799e-16   2.220446049e-16   0                 
3800000000        0                 0                 1                 1.224646799e-16   
                  1                 1.224646799e-16   0                 0                 
3835000000        0                 0                 1                 1.224646799e-16   
                  1                 1.224646799e-16   0                 0                 
3870000000        0                 0                 1                 1.132502489e-16   
                  1                 1.132502489e-16   0                 0                 
3905000000        0                 0                 1                 1.224646799e-16   
                  1                 1.224646799e-16   0                 0                 
3940000000        0                 0                 1                 1.224646799e-16   
                  1                 1.224646799e-16   0                 -3.552713679e-15  
3975000000        0                 0                 1                 1.224646799e-16   
                  1                 1.224646799e-16   0                 3.552713679e-15   
4010000000        0                 0                 1                 1.224646799e-16   
                  1                 1.224646799e-16   1.110223025e-16   0                 
4045000000        0                 0                 1                 1.224646799e-16   
                  1                 1.224646799e-16   0                 0                 
4080000000        0                 0                 1                 1.224646799e-16   
                  1                 1.224646799e-16   1.110223025e-16   0                 
4115000000        0                 0                 1                 1.224646799e-16   
                  1                 1.224646799e-16   -1.110223025e-16  0                 
4150000000        0                 0                 1                 1.860171156e-16   
                  1                 1.860171156e-16   0                 -1.110223025e-16  
4185000000        0                 0                 1                 1.224646799e-16   
                  1                 1.224646799e-16   0                 0                 
4220000000        0                 0                 1                 1.224646799e-16   
                  1                 1.224646799e-16   0                 0                 
4255000000        0                 0                 1                 1.224646799e-16   
                  1                 1.224646799e-16   0                 1.110223025e-16   
4290000000        0                 0                 1                 1.224646799e-16   
                  1                 1.224646799e-16   0                 0                 
4325000000        0                 0                 1                 1.224646799e-16   
                  1                 1.224646799e-16   2.220446049e-16   0                 
4360000000        0                 0                 1                 1.224646799e-16   
                  1                 1.224646799e-16   0                 0                 
4395000000        0                 0                 1                 1.224646799e-16   
                  1                 1.224646799e-16   0                 1.387778781e-17   
4430000000        0                 0                 1                 1.224646799e-16   
                  1                 1.224646799e-16   2.220446049e-16   8.326672685e-17   
4465000000        0                 0                 1                 1.224646799e-16   
                  1                 1.224646799e-16   2.220446049e-16   0                 
4500000000        0                 0                 1                 1.224646799e-16   
                  1                 1.224646799e-16   0                 0                 
4535000000        0                 0                 1                 1.224646799e-16   
                  1                 1.224646799e-16   0                 0                 
4570000000        0                 0                 1                 1.224646799e-16   
                  1                 1.224646799e-16   0                 0                 
4605000000        0                 0                 1                 1.224646799e-16   
                  1                 1.224646799e-16   4.440892099e-16   0                 
4640000000        0                 0                 1                 1.224646799e-16   
                  1                 1.224646799e-16   4.440892099e-16   -5.551115123e-17  
4675000000        0                 0                 1                 1.224646799e-16   
                  1                 1.224646799e-16   0                 0                 
4710000000        0                 0                 1                 1.224646799e-16   
                  1                 1.224646799e-16   4.440892099e-16   0                 
4745000000        0                 0                 1                 1.224646799e-16   
                  1                 1.224646799e-16   2.775557562e-17   0                 
4780000000        0                 0                 1                 1.224646799e-16   
                  1                 1.224646799e-16   0                 4.440892099e-16   
