! RsaToolbox (C) 2015 Rohde & Schwarz America
! 
! Number of points: 201
! Number of ports: 2
! Balanced ports?: No
! 
! 
# Hz S RI R 50
300000            0                 0                 1                 0                 1                 0                 -1.110223025e-16  0                 
40298500          0                 0                 1                 0                 1                 0                 0                 0                 
80297000          0                 0                 1                 5.965014184e-17   1                 5.965014184e-17   0                 0                 
120295500         0                 0                 1                 0                 1                 0                 0                 0                 
160294000         0                 0                 1                 0                 1                 0                 0                 0                 
200292500         0                 0                 1                 0                 1                 0                 -2.220446049e-16  0                 
240291000         0                 0                 1                 0                 1                 0                 0                 0                 
280289500         0                 0                 1                 0                 1                 0                 0                 -2.220446049e-16  
320288000         0                 0                 1                 0                 1                 0                 -2.220446049e-16  -5.551115123e-17  
360286500         0                 0                 1                 0                 1                 0                 0                 -4.440892099e-16  
400285000         0                 0                 1                 0                 1                 0                 2.775557562e-17   -2.220446049e-16  
440283500         0                 0                 1                 0                 1                 0                 0                 0                 
480282000         0                 0                 1                 0                 1                 0                 0                 0                 
520280500         0                 0                 1                 0                 1                 0                 0                 0                 
560279000         0                 0                 1                 0                 1                 0                 0                 0                 
600277500         0                 0                 1                 -4.074624069e-17  1                 -4.074624069e-17  5.551115123e-17   0                 
640276000         0                 0                 1                 0                 1                 0                 0                 0                 
680274500         0                 0                 1                 0                 1                 0                 0                 0                 
720273000         0                 0                 1                 0                 1                 0                 -1.387778781e-17  -5.551115123e-17  
760271500         0                 0                 1                 0                 1                 0                 0                 5.551115123e-17   
800270000         0                 0                 1                 0                 1                 0                 -1.110223025e-16  0                 
840268500         0                 0                 1                 0                 1                 0                 0                 0                 
880267000         0                 0                 1                 0                 1                 0                 1.110223025e-16   5.551115123e-17   
920265500         0                 0                 1                 0                 1                 0                 -2.220446049e-16  1.110223025e-16   
960264000         0                 0                 1                 0                 1                 0                 4.440892099e-16   0                 
1000262500        0                 0                 1                 0                 1                 0                 0                 0                 
1040261000        0                 0                 1                 0                 1                 0                 0                 -1.110223025e-16  
1080259500        0                 0                 1                 0                 1                 0                 -2.775557562e-17  2.775557562e-17   
1120258000        0                 0                 1                 -6.038142179e-17  1                 -6.038142179e-17  0                 -1.110223025e-16  
1160256500        0                 0                 1                 0                 1                 0                 -1.110223025e-16  0                 
1200255000        0                 0                 1                 0                 1                 0                 0                 -1.110223025e-16  
1240253500        0                 0                 1                 0                 1                 0                 0                 0                 
1280252000        0                 0                 1                 0                 1                 0                 -4.440892099e-16  0                 
1320250500        0                 0                 1                 0                 1                 0                 5.551115123e-17   0                 
1360249000        0                 0                 1                 0                 1                 0                 0                 2.220446049e-16   
1400247500        0                 0                 1                 0                 1                 0                 -5.551115123e-17  5.551115123e-17   
1440246000        0                 0                 1                 0                 1                 0                 0                 0                 
1480244500        0                 0                 1                 0                 1                 0                 -1.110223025e-16  -4.440892099e-16  
1520243000        0                 0                 1                 0                 1                 0                 0                 0                 
1560241500        0                 0                 1                 0                 1                 0                 -1.110223025e-16  4.440892099e-16   
1600240000        0                 0                 1                 0                 1                 0                 -2.220446049e-16  0                 
1640238500        0                 0                 1                 -3.349427978e-17  1                 -3.349427978e-17  -5.551115123e-17  0                 
1680237000        0                 0                 1                 -5.020068154e-17  1                 -5.020068154e-17  -1.110223025e-16  0                 
1720235500        0                 0                 1                 0                 1                 0                 0                 1.387778781e-17   
1760234000        0                 0                 1                 0                 1                 0                 -1.110223025e-16  -2.220446049e-16  
1800232500        0                 0                 1                 0                 1                 0                 2.220446049e-16   0                 
1840231000        0                 0                 1                 0                 1                 0                 -5.551115123e-17  0                 
1880229500        0                 0                 1                 0                 1                 0                 -6.938893904e-18  0                 
1920228000        0                 0                 1                 0                 1                 0                 5.204170428e-17   -4.440892099e-16  
1960226500        0                 0                 1                 0                 1                 0                 0                 0                 
2000225000        0                 0                 1                 0                 1                 0                 0                 0                 
2040223500        0                 0                 1                 0                 1                 0                 0                 0                 
2080222000        0                 0                 1                 0                 1                 0                 -2.220446049e-16  0                 
2120220500        0                 0                 1                 0                 1                 0                 0                 0                 
2160219000        0                 0                 1                 0                 1                 0                 0                 0                 
2200217500        0                 0                 1                 0                 1                 0                 1.110223025e-16   5.551115123e-17   
2240216000        0                 0                 1                 0                 1                 0                 2.220446049e-16   -2.775557562e-17  
2280214500        0                 0                 1                 0                 1                 0                 0                 -2.220446049e-16  
2320213000        0                 0                 1                 0                 1                 0                 -2.220446049e-16  0                 
2360211500        0                 0                 1                 0                 1                 0                 -5.551115123e-16  0                 
2400210000        0                 0                 1                 0                 1                 0                 0                 0                 
2440208500        0                 0                 1                 0                 1                 0                 0                 0                 
2480207000        0                 0                 1                 0                 1                 0                 1.110223025e-16   8.881784197e-16   
2520205500        0                 0                 1                 -3.296487468e-17  1                 -3.296487468e-17  -1.110223025e-16  -6.938893904e-18  
2560204000        0                 0                 1                 0                 1                 0                 2.220446049e-16   0                 
2600202500        0                 0                 1                 0                 1                 0                 -2.220446049e-16  0                 
2640201000        0                 0                 1                 0                 1                 0                 0                 0                 
2680199500        0                 0                 1                 0                 1                 0                 1.110223025e-16   0                 
2720198000        0                 0                 1                 0                 1                 0                 0                 0                 
2760196500        0                 0                 1                 -5.007495244e-17  1                 -5.007495244e-17  1.776356839e-15   -1.776356839e-15  
2800195000        0                 0                 1                 0                 1                 0                 0                 0                 
2840193500        0                 0                 1                 -5.40154428e-17   1                 -5.40154428e-17   -2.220446049e-16  0                 
2880192000        0                 0                 1                 0                 1                 0                 0                 0                 
2920190500        0                 0                 1                 0                 1                 0                 2.775557562e-17   2.775557562e-17   
2960189000        0                 0                 1                 0                 1                 0                 0                 4.440892099e-16   
3000187500        0                 0                 1                 0                 1                 0                 2.775557562e-17   1.110223025e-16   
3040186000        0                 0                 1                 0                 1                 0                 4.440892099e-16   0                 
3080184500        0                 0                 1                 0                 1                 0                 0                 2.775557562e-17   
3120183000        0                 0                 1                 0                 1                 0                 0                 0                 
3160181500        0                 0                 1                 0                 1                 0                 4.440892099e-16   2.220446049e-16   
3200180000        0                 0                 1                 0                 1                 0                 0                 0                 
3240178500        0                 0                 1                 0                 1                 0                 0                 0                 
3280177000        0                 0                 1                 0                 1                 0                 2.775557562e-17   -2.775557562e-17  
3320175500        0                 0                 1                 0                 1                 0                 0                 0                 
3360174000        0                 0                 1                 0                 1                 0                 0                 -1.110223025e-16  
3400172500        0                 0                 1                 0                 1                 0                 2.220446049e-16   8.881784197e-16   
3440171000        0                 0                 1                 -5.389800008e-17  1                 -5.389800008e-17  0                 0                 
3480169500        0                 0                 1                 0                 1                 0                 0                 0                 
3520168000        0                 0                 1                 0                 1                 0                 0                 0                 
3560166500        0                 0                 1                 2.033808828e-17   1                 2.033808828e-17   0                 1.110223025e-16   
3600165000        0                 0                 1                 -7.104031925e-17  1                 -7.104031925e-17  0                 -4.163336342e-17  
3640163500        0                 0                 1                 0                 1                 0                 0                 1.110223025e-16   
3680162000        0                 0                 1                 0                 1                 0                 0                 4.440892099e-16   
3720160500        0                 0                 1                 0                 1                 0                 -2.775557562e-17  0                 
3760159000        0                 0                 1                 0                 1                 0                 0                 0                 
3800157500        0                 0                 1                 0                 1                 0                 0                 0                 
3840156000        0                 0                 1                 0                 1                 0                 4.440892099e-16   0                 
3880154500        0                 0                 1                 0                 1                 0                 0                 0                 
3920153000        0                 0                 1                 0                 1                 0                 0                 1.387778781e-17   
3960151500        0                 0                 1                 -5.137501698e-17  1                 -5.137501698e-17  0                 -2.220446049e-16  
4000150000        0                 0                 1                 0                 1                 0                 4.440892099e-16   0                 
4040148500        0                 0                 1                 0                 1                 0                 0                 0                 
4080147000        0                 0                 1                 -2.308656952e-17  1                 -2.308656952e-17  0                 5.551115123e-17   
4120145500        0                 0                 1                 0                 1                 0                 0                 0                 
4160144000        0                 0                 1                 0                 1                 0                 0                 0                 
4200142500        0                 0                 1                 0                 1                 0                 -1.110223025e-16  0                 
4240141000        0                 0                 1                 0                 1                 0                 1.110223025e-16   0                 
4280139500        0                 0                 1                 0                 1                 0                 2.220446049e-16   0                 
4320138000        0                 0                 1                 0                 1                 0                 1.110223025e-16   0                 
4360136500        0                 0                 1                 0                 1                 0                 0                 0                 
4400135000        0                 0                 1                 0                 1                 0                 1.110223025e-16   0                 
4440133500        0                 0                 1                 0                 1                 0                 -1.110223025e-16  0                 
4480132000        0                 0                 1                 0                 1                 0                 -1.387778781e-17  0                 
4520130500        0                 0                 1                 0                 1                 0                 0                 0                 
4560129000        0                 0                 1                 0                 1                 0                 0                 0                 
4600127500        0                 0                 1                 0                 1                 0                 -4.440892099e-16  0                 
4640126000        0                 0                 1                 0                 1                 0                 0                 -4.440892099e-16  
4680124500        0                 0                 1                 0                 1                 0                 -2.220446049e-16  -4.440892099e-16  
4720123000        0                 0                 1                 0                 1                 0                 -4.440892099e-16  -4.440892099e-16  
4760121500        0                 0                 1                 0                 1                 0                 0                 0                 
4800120000        0                 0                 1                 0                 1                 0                 0                 -5.551115123e-17  
