! RsaToolbox (C) 2015 Rohde & Schwarz America
! 
! Number of points: 91
! Number of ports: 2
! Balanced ports?: No
! 
! 
# Hz S RI R 50
500000000         0.9967714912      -0.01624687168    0.4958545115      -0.1345966219     0.4958545115      -0.1345966219     0.0003196107432   -0.001710419959   
550000000         1.002216991       -0.01053936832    0.4921795997      -0.1475576373     0.4921795997      -0.1475576373     0.0002581566698   -0.002666911485   
600000000         1.000555424       -0.004326599132   0.4881892026      -0.1604685024     0.4881892026      -0.1604685024     0.001947811238    -0.001928373482   
650000000         0.9960787579      -0.002835646698   0.4838384791      -0.1732954874     0.4838384791      -0.1732954874     0.002054230287    -0.003452691162   
700000000         0.9922879252      -0.006115459201   0.4791300281      -0.1861040632     0.4791300281      -0.1861040632     0.001998569263    -0.00365765151    
750000000         0.9945296135      -0.007476934604   0.4741909613      -0.1986669577     0.4741909613      -0.1986669577     0.002310020334    -0.004028966473   
800000000         0.9966120268      -0.007317685038   0.4688537551      -0.211133421      0.4688537551      -0.211133421      0.003175786346    -0.00514568689    
850000000         0.9968494133      -0.005841915382   0.4632071803      -0.2234912465     0.4632071803      -0.2234912465     0.002360726526    -0.004992349079   
900000000         0.9954861772      -0.00584236065    0.4572399539      -0.235735473      0.4572399539      -0.235735473      0.001360698077    -0.005858418919   
950000000         0.9956845981      -0.005466667207   0.4510405462      -0.2478768298     0.4510405462      -0.2478768298     0.002450445383    -0.007022670909   
1000000000        0.9959943841      -0.004548943461   0.4443654499      -0.2599017963     0.4443654499      -0.2599017963     0.001012548688    -0.006975237994   
1050000000        0.9944239596      -0.004672892908   0.4373602162      -0.271615242      0.4373602162      -0.271615242      0.0003592681951   -0.008221819142   
1100000000        0.9941619177      -0.005852581642   0.4301630034      -0.2833033343     0.4301630034      -0.2833033343     -0.0004503653497  -0.007482303658   
1150000000        0.9961157339      -0.00658775869    0.4226743461      -0.2946634092     0.4226743461      -0.2946634092     -0.0009010483547  -0.00767758126    
1200000000        0.997285956       -0.00446364858    0.4149366751      -0.3056182577     0.4149366751      -0.3056182577     -0.002111861934   -0.007765290236   
1250000000        0.994141649       -0.001916445881   0.4067941681      -0.3166907907     0.4067941681      -0.3166907907     -0.002859621503   -0.007519007017   
1300000000        0.9889722845      -0.005119139327   0.3983036366      -0.3276313141     0.3983036366      -0.3276313141     -0.003466905554   -0.007616419259   
1350000000        0.9904160382      -0.01282005014    0.3896248011      -0.338254826      0.3896248011      -0.338254826      -0.002482283664   -0.006498375168   
1400000000        0.9993754875      -0.01501242866    0.3805947823      -0.3485509525     0.3805947823      -0.3485509525     -0.004726091784   -0.006283665127   
1450000000        1.00473593        -0.007174210334   0.3714787024      -0.3588482791     0.3714787024      -0.3588482791     -0.003575546767   -0.005793181085   
1500000000        0.99860647        0.001424708913    0.3617807596      -0.3687363055     0.3617807596      -0.3687363055     -0.002851674498   -0.006487525174   
1550000000        0.9870812852      -0.002276190129   0.351964578       -0.3784665385     0.351964578       -0.3784665385     -0.002523994611   -0.007284827909   
1600000000        0.9865371027      -0.01662971759    0.3416674351      -0.3878590014     0.3416674351      -0.3878590014     -0.001521626304   -0.005835145611   
1650000000        1.001391911       -0.02385119852    0.3313062146      -0.3969721213     0.3313062146      -0.3969721213     -0.001694583507   -0.007789397485   
1700000000        1.014786539       -0.0122861611     0.3206269733      -0.40594404       0.3206269733      -0.40594404       -0.001916593778   -0.007763872711   
1750000000        1.009662383       0.005074010003    0.3097362008      -0.4146176696     0.3097362008      -0.4146176696     -0.001520320334   -0.008476621643   
1800000000        0.9918256805      0.005948126309    0.2985306911      -0.422899302      0.2985306911      -0.422899302      -0.001793775766   -0.01045549452    
1850000000        0.9844397306      -0.01148653423    0.287172367       -0.4308905813     0.287172367       -0.4308905813     -0.001639300825   -0.0115142475     
1900000000        0.9995981419      -0.02402365965    0.2757065891      -0.4386848602     0.2757065891      -0.4386848602     -0.002293415533   -0.01171886203    
1950000000        1.017553341       -0.0134282057     0.2638222389      -0.4462273594     0.2638222389      -0.4462273594     -0.003098662979   -0.0121917653     
2000000000        1.014000346       0.007940415196    0.2515735367      -0.4531753902     0.2515735367      -0.4531753902     -0.004272738124   -0.01320821368    
2050000000        0.9920941013      0.01215573384     0.23934841        -0.4600666672     0.23934841        -0.4600666672     -0.005429303348   -0.01297910727    
2100000000        0.980734733       -0.007579243404   0.2270596835      -0.4663223385     0.2270596835      -0.4663223385     -0.006688458279   -0.01403443444    
2150000000        0.9959121044      -0.02548987765    0.2144885282      -0.4725207479     0.2144885282      -0.4725207479     -0.007781816726   -0.01260445836    
2200000000        1.018019487       -0.01636544824    0.2014265954      -0.4783295063     0.2014265954      -0.4783295063     -0.008812576756   -0.0130214361     
2250000000        1.016853171       0.008521597942    0.1884902502      -0.4834434595     0.1884902502      -0.4834434595     -0.007011093777   -0.01339113689    
2300000000        0.9920266577      0.01753596214     0.1753359037      -0.4884938426     0.1753359037      -0.4884938426     -0.008032776498   -0.01171889206    
2350000000        0.9744736041      -0.002432165244   0.1619957453      -0.4930686546     0.1619957453      -0.4930686546     -0.007330159481   -0.01201166974    
2400000000        0.9872159236      -0.02684046654    0.1485172924      -0.4973140194     0.1485172924      -0.4973140194     -0.007567857661   -0.01159589699    
2450000000        1.014384626       -0.02284009716    0.1348214779      -0.501072349      0.1348214779      -0.501072349      -0.009443115805   -0.01069740085    
2500000000        1.019758766       0.004030646577    0.1212203769      -0.5046123599     0.1212203769      -0.5046123599     -0.007550801148   -0.01057021988    
2550000000        0.9932895813      0.01851563124     0.1076965419      -0.5076545056     0.1076965419      -0.5076545056     -0.007679265197   -0.01209391714    
2600000000        0.968972279       -0.001040914925   0.09379961505     -0.5103557848     0.09379961505     -0.5103557848     -0.006951204462   -0.01180307379    
2650000000        0.9788859154      -0.03342118168    0.07995470192     -0.5125490116     0.07995470192     -0.5125490116     -0.007785236328   -0.01146223366    
2700000000        1.014720975       -0.03709642273    0.06588611475     -0.5144485434     0.06588611475     -0.5144485434     -0.008121702477   -0.01273529697    
2750000000        1.031361465       -0.003105613806   0.05203390025     -0.5159682534     0.05203390025     -0.5159682534     -0.007321199642   -0.01280143888    
2800000000        1.003470173       0.02649322922     0.03809259166     -0.5169964616     0.03809259166     -0.5169964616     -0.01007599829    -0.01216758363    
2850000000        0.9620770648      0.01040249632     0.02413138343     -0.5178338725     0.02413138343     -0.5178338725     -0.01018492262    -0.01228994978    
2900000000        0.9617458131      -0.03718677689    0.01007746057     -0.5181271431     0.01007746057     -0.5181271431     -0.01156719471    -0.0128316271     
2950000000        1.007443289       -0.05696083877    -0.00385306587    -0.5180942127     -0.00385306587    -0.5180942127     -0.01181185745    -0.01242947024    
3000000000        1.043743307       -0.02144065436    -0.01773927225    -0.5177246077     -0.01773927225    -0.5177246077     -0.01247109526    -0.01226978576    
3050000000        1.022760187       0.02597105273     -0.03183655177    -0.5168788756     -0.03183655177    -0.5168788756     -0.01361872167    -0.01163291774    
3100000000        0.9685502337      0.02297873685     -0.04578263817    -0.5158250369     -0.04578263817    -0.5158250369     -0.0131383907     -0.01069451175    
3150000000        0.9510613696      -0.03142427687    -0.05959227431    -0.5142661164     -0.05959227431    -0.5142661164     -0.01385035462    -0.01150918459    
3200000000        0.9979384719      -0.06930293473    -0.07340782187    -0.5123295016     -0.07340782187    -0.5123295016     -0.01453822606    -0.01064757123    
3250000000        1.051724225       -0.03876671492    -0.08702547638    -0.5100715754     -0.08702547638    -0.5100715754     -0.0155389779     -0.01052986002    
3300000000        1.043416053       0.02379574105     -0.1007012035     -0.5073580143     -0.1007012035     -0.5073580143     -0.01426614512    -0.01048713072    
3350000000        0.9798323329      0.03880153529     -0.1142562219     -0.5042756578     -0.1142562219     -0.5042756578     -0.01624138385    -0.01041229192    
3400000000        0.9427175149      -0.01706194744    -0.127848983      -0.5008987299     -0.127848983      -0.5008987299     -0.01588781601    -0.009691876095   
3450000000        0.9829281472      -0.0731080123     -0.1410593866     -0.4971770849     -0.1410593866     -0.4971770849     -0.01700873491    -0.009667004208   
3500000000        1.05044894        -0.05521274015    -0.1544168316     -0.4929964848     -0.1544168316     -0.4929964848     -0.01714733896    -0.01073555386    
3550000000        1.057653776       0.01597888187     -0.1675450329     -0.48860933       -0.1675450329     -0.48860933       -0.01707299539    -0.01016359691    
3600000000        0.9915110339      0.04821136874     -0.1806224914     -0.4837724229     -0.1806224914     -0.4837724229     -0.01845709267    -0.01029180242    
3650000000        0.9370794562      -0.004002951185   -0.1935606387     -0.4786842165     -0.1935606387     -0.4786842165     -0.01893443728    -0.009525307357   
3700000000        0.9680213382      -0.07530939131    -0.2061467239     -0.4731766654     -0.2061467239     -0.4731766654     -0.01933772902    -0.01015591213    
3750000000        1.047179839       -0.07149050389    -0.2187955716     -0.4674017085     -0.2187955716     -0.4674017085     -0.01901926203    -0.00919152666    
3800000000        1.071965532       0.005928720386    -0.2311833061     -0.4611394446     -0.2311833061     -0.4611394446     -0.02020701693    -0.009211726663   
3850000000        1.007203321       0.05797706683     -0.2433886237     -0.4546543595     -0.2433886237     -0.4546543595     -0.02002284035    -0.009263090248   
3900000000        0.9345055606      0.01540603554     -0.255347127      -0.4478611987     -0.255347127      -0.4478611987     -0.02153689931    -0.008012134574   
3950000000        0.9496891864      -0.06913596874    -0.2671511503     -0.4406978204     -0.2671511503     -0.4406978204     -0.02140694509    -0.007837429182   
4000000000        1.034689843       -0.08543005001    -0.2788468276     -0.4331564274     -0.2788468276     -0.4331564274     -0.02294194293    -0.006341271885   
4050000000        1.079783338       -0.01041302236    -0.2903350924     -0.4254325113     -0.2903350924     -0.4254325113     -0.02268422912    -0.006369526077   
4100000000        1.023372238       0.05953083782     -0.301388268      -0.4175556393     -0.301388268      -0.4175556393     -0.02186156743    -0.005962855163   
4150000000        0.9373367107      0.03194106577     -0.3124484676     -0.4093546692     -0.3124484676     -0.4093546692     -0.02360255129    -0.005581507333   
4200000000        0.9326346438      -0.0593473087     -0.32311552       -0.400605707      -0.32311552       -0.400605707      -0.02253337145    -0.005470149955   
4250000000        1.016037846       -0.09859956832    -0.3334721785     -0.3915546698     -0.3334721785     -0.3915546698     -0.02311394461    -0.004040404873   
4300000000        1.082494309       -0.03526581637    -0.3438601743     -0.3826660427     -0.3438601743     -0.3826660427     -0.02278218125    -0.004157011371   
4350000000        1.046837994       0.05056287642     -0.3538326383     -0.3730371508     -0.3538326383     -0.3730371508     -0.02433240216    -0.004152077541   
4400000000        0.9534968799      0.04893707632     -0.3634401845     -0.3634350581     -0.3634401845     -0.3634350581     -0.02283684483    -0.003267977553   
4450000000        0.921498429       -0.03819273009    -0.3729975177     -0.35347442       -0.3729975177     -0.35347442       -0.02363693955    -0.003777080289   
4500000000        0.9916585823      -0.1010203975     -0.3821660884     -0.3432770588     -0.3821660884     -0.3432770588     -0.02407827234    -0.002937372699   
4550000000        1.073943412       -0.05899206178    -0.3910131343     -0.3328037901     -0.3910131343     -0.3328037901     -0.02505991324    -0.002417370479   
4600000000        1.062819021       0.03268097456     -0.3997584659     -0.3221279668     -0.3997584659     -0.3221279668     -0.02561588837    -0.002456294856   
4650000000        0.9723284695      0.05542911777     -0.4078812827     -0.3113411915     -0.4078812827     -0.3113411915     -0.02674490677    -0.001285620371   
4700000000        0.9188398564      -0.02219234409    -0.4160626797     -0.3002524527     -0.4160626797     -0.3002524527     -0.02570993263    -0.001589836999   
4750000000        0.9738469441      -0.1019252115     -0.4238481912     -0.2889791491     -0.4238481912     -0.2889791491     -0.02623965956    -0.001040247791   
4800000000        1.068971385       -0.08055180612    -0.4312753435     -0.2775592108     -0.4312753435     -0.2775592108     -0.02628839314    0.0004862979499   
4850000000        1.082794744       0.01590212364     -0.4383561867     -0.2659560313     -0.4383561867     -0.2659560313     -0.02664949153    0.001790567577    
4900000000        0.9976552252      0.06435813459     -0.4449739673     -0.254026281      -0.4449739673     -0.254026281      -0.02685893648    0.001528337735    
4950000000        0.9225066094      0.002899604038    -0.4513687347     -0.2419244531     -0.4513687347     -0.2419244531     -0.02745670227    0.001382610555    
5000000000        0.9549290325      -0.09117105327    -0.4577856298     -0.2298903531     -0.4577856298     -0.2298903531     -0.02734923988    0.002723744674    
