#  Hz  S  RI  R  50.000000
!
!
10000000.000000000000   0.005735100793   0.012273843413   0.978999436307   -0.151249673140   0.978999436307   -0.151249673140   0.027527814983   -0.048371532542
24975000.000000000000   0.011468324264   -0.003783974802   0.907078913125   -0.404794310598   0.907078913125   -0.404794310598   -0.003315307598   -0.012146127934
39950000.000000000000   0.003143443316   -0.006413062305   0.780041055479   -0.607239769051   0.780041055479   -0.607239769051   0.002933497921   -0.021652056819
54925000.000000000000   0.000515340902   -0.011953933275   0.604597035661   -0.783071046229   0.604597035661   -0.783071046229   -0.012509817046   -0.032809841976
69900000.000000000000   -0.006810038701   -0.010493632110   0.396246990266   -0.904934051029   0.396246990266   -0.904934051029   -0.026848029642   -0.021266854362
84875000.000000000000   -0.012620445969   -0.009979691476   0.164100420055   -0.973794734419   0.164100420055   -0.973794734419   -0.032822790784   -0.021848789129
99850000.000000000000   -0.014200625963   -0.005536806915   -0.079618718705   -0.982565771935   -0.079618718705   -0.982565771935   -0.040840585831   -0.009864659177
114825000.000000000000   -0.016817352711   -0.002267071174   -0.316634626172   -0.931144872858   -0.316634626172   -0.931144872858   -0.044281030396   -0.001072577279
129800000.000000000000   -0.014213040107   0.003062901966   -0.534756484814   -0.826328908100   -0.534756484814   -0.826328908100   -0.031178295333   0.007958200912
144775000.000000000000   -0.011989099375   0.006326488980   -0.717930436067   -0.670368025391   -0.717930436067   -0.670368025391   -0.028967888508   0.012858248167
159750000.000000000000   -0.006852496029   0.007700323750   -0.858832342841   -0.473607391663   -0.858832342841   -0.473607391663   -0.017323842740   0.010549666487
174725000.000000000000   -0.002271397665   0.007864032324   -0.948675884302   -0.249303040670   -0.948675884302   -0.249303040670   -0.006399309564   0.013050266085
189700000.000000000000   0.001461324439   0.005491160122   -0.979511794844   -0.011275488197   -0.979511794844   -0.011275488197   0.001668099986   0.003096985262
204675000.000000000000   0.002151009068   0.002137791292   -0.953144838403   0.226829515926   -0.953144838403   0.226829515926   0.006865675225   -0.007763235661
219650000.000000000000   0.000530055317   -0.002027620753   -0.867428650501   0.452610159186   -0.867428650501   0.452610159186   0.001514456967   -0.016130736973
234625000.000000000000   -0.003385828321   -0.004931735007   -0.730887218779   0.649557683427   -0.730887218779   0.649557683427   -0.001462012386   -0.026976064309
249600000.000000000000   -0.008093218088   -0.006340198634   -0.549465600342   0.807698025260   -0.549465600342   0.807698025260   -0.010101875545   -0.032166576339
264575000.000000000000   -0.012766005563   -0.005235417126   -0.334983250537   0.916555040888   -0.334983250537   0.916555040888   -0.023240235115   -0.029981335901
279550000.000000000000   -0.016517864822   -0.002986768513   -0.102355896810   0.970312260122   -0.102355896810   0.970312260122   -0.029911310394   -0.027184316078
294525000.000000000000   -0.018318817052   0.001461073157   0.138123936691   0.964548132326   0.138123936691   0.964548132326   -0.038393600533   -0.018804495842
309500000.000000000000   -0.018317683672   0.006443088762   0.368576445419   0.901312540247   0.368576445419   0.901312540247   -0.039188972830   -0.009536940168
324475000.000000000000   -0.014395035032   0.010226122788   0.576633549158   0.784156026459   0.576633549158   0.784156026459   -0.034034756364   -0.001501486457
339450000.000000000000   -0.009596022334   0.012709589545   0.749148795646   0.620137794849   0.749148795646   0.620137794849   -0.026470317475   0.007896371228
354425000.000000000000   -0.004177333565   0.013216029660   0.877163220109   0.418878186815   0.877163220109   0.418878186815   -0.015927943430   0.012532493997
369400000.000000000000   0.000792820549   0.011971905833   0.952536957240   0.192124634261   0.952536957240   0.192124634261   -0.004130593707   0.013917932022
384375000.000000000000   0.004064068733   0.009148231358   0.970016586824   -0.045492119375   0.970016586824   -0.045492119375   0.007931979269   0.006999207438
399350000.000000000000   0.004450642830   0.005009159046   0.929185936072   -0.280095017202   0.929185936072   -0.280095017202   0.011377374131   -0.002624185931
414325000.000000000000   0.002771845944   0.001269220832   0.832384331323   -0.498071623245   0.832384331323   -0.498071623245   0.014117866798   -0.013128591821
429300000.000000000000   -0.001540985097   -0.001618406118   0.685804775257   -0.685670119176   0.685804775257   -0.685670119176   0.003374446885   -0.022491133063
444275000.000000000000   -0.006390315237   -0.002716430404   0.497879929241   -0.831466055361   0.497879929241   -0.831466055361   -0.009238036217   -0.026137369504
459250000.000000000000   -0.011844336855   -0.001648512124   0.280321296568   -0.926773242211   0.280321296568   -0.926773242211   -0.021129340544   -0.025474436947
474225000.000000000000   -0.016486796919   0.001056903636   0.045570676061   -0.966715026383   0.045570676061   -0.966715026383   -0.030067197020   -0.024062980608
489200000.000000000000   -0.017862168700   0.005541694394   -0.191023306473   -0.947651838629   -0.191023306473   -0.947651838629   -0.034661649885   -0.021071792330
504175000.000000000000   -0.017995256270   0.009480152586   -0.415678872527   -0.872586475956   -0.415678872527   -0.872586475956   -0.039092472896   -0.016280570714
519150000.000000000000   -0.014628787029   0.013118569876   -0.614849579890   -0.744944273029   -0.614849579890   -0.744944273029   -0.036792927059   -0.007995535960
534125000.000000000000   -0.009844531730   0.015692111083   -0.777400465230   -0.572285698490   -0.777400465230   -0.572285698490   -0.028064182461   0.001420563639
549100000.000000000000   -0.003729954866   0.016343209032   -0.892887804785   -0.365336839747   -0.892887804785   -0.365336839747   -0.016677387088   0.009230779463
564075000.000000000000   0.001625249606   0.014950554753   -0.954914143070   -0.137245919440   -0.954914143070   -0.137245919440   -0.001587668438   0.012660229265
579050000.000000000000   0.005445405737   0.012133333555   -0.959153516091   0.099179136470   -0.959153516091   0.099179136470   0.010551023171   0.010791562528
594025000.000000000000   0.006709872707   0.008738265387   -0.905964625521   0.329921755326   -0.905964625521   0.329921755326   0.016130577087   0.002468203551
609000000.000000000000   0.005545550931   0.005051365334   -0.797726458100   0.539728758550   -0.797726458100   0.539728758550   0.011540488122   -0.005559380610
623975000.000000000000   0.001785314419   0.002839708193   -0.642279256824   0.717707523757   -0.642279256824   0.717707523757   0.003646762845   -0.014029450868
638950000.000000000000   -0.003790138828   0.002529184285   -0.447651635260   0.851997865744   -0.447651635260   0.851997865744   -0.008853692034   -0.018539427236
653925000.000000000000   -0.010022481163   0.003424349124   -0.226459371100   0.935023382171   -0.226459371100   0.935023382171   -0.017581630382   -0.017892453312
668900000.000000000000   -0.015340038975   0.006188034558   0.007657063755   0.961065065332   0.007657063755   0.961065065332   -0.022942872435   -0.019770509455
683875000.000000000000   -0.018656204200   0.009867675444   0.241311951972   0.929975297319   0.241311951972   0.929975297319   -0.026472114192   -0.020853383338
698850000.000000000000   -0.019484749805   0.014394169496   0.460377904961   0.842733810292   0.460377904961   0.842733810292   -0.029791816498   -0.017953025728
713825000.000000000000   -0.016814999328   0.018235116875   0.651341807526   0.704635207793   0.651341807526   0.704635207793   -0.027399533782   -0.016384388261
728800000.000000000000   -0.012297908620   0.020817851940   0.802868017174   0.524822305791   0.802868017174   0.524822305791   -0.021728184644   -0.004110630811
743775000.000000000000   -0.005919602604   0.021354524604   0.906047569101   0.313694934986   0.906047569101   0.313694934986   -0.010519937751   0.011503355502
758750000.000000000000   0.000805080290   0.020119530397   0.954897264920   0.084087931865   0.954897264920   0.084087931865   0.005047669672   0.017597228051
773725000.000000000000   0.006619891851   0.017595648996   0.946235456354   -0.150747098994   0.946235456354   -0.150747098994   0.017273153287   0.017810200507
788700000.000000000000   0.010159911890   0.013892185287   0.880819985960   -0.376507971517   0.880819985960   -0.376507971517   0.020766083626   0.012566181333
803675000.000000000000   0.010998862485   0.010451065701   0.762470785265   -0.579173673399   0.762470785265   -0.579173673399   0.018828498377   0.007987558023
818650000.000000000000   0.009078042377   0.007813850128   0.598392954450   -0.747351345607   0.598392954450   -0.747351345607   0.012960938348   0.003055688879
833625000.000000000000   0.005179406646   0.007011423206   0.398350844181   -0.870008720750   0.398350844181   -0.870008720750   0.006107695622   -0.002457154898
848600000.000000000000   -0.000109310197   0.008446166988   0.174433253170   -0.940291395230   0.174433253170   -0.940291395230   -0.002001992559   -0.007923149901
863575000.000000000000   -0.005233966132   0.011643015889   -0.059670390039   -0.954338956886   -0.059670390039   -0.954338956886   -0.011331780051   -0.011125197888
878550000.000000000000   -0.008588098472   0.015931490259   -0.290104550549   -0.910432076604   -0.290104550549   -0.910432076604   -0.019648772801   -0.010065680205
893525000.000000000000   -0.009946807085   0.020661452152   -0.502510171644   -0.812125125647   -0.502510171644   -0.812125125647   -0.023009270110   -0.004163444059
908500000.000000000000   -0.007936741020   0.024046059664   -0.684638482825   -0.665114352015   -0.684638482825   -0.665114352015   -0.020936603208   0.005190890448
923475000.000000000000   -0.003521685192   0.025616443145   -0.825386229868   -0.477982006758   -0.825386229868   -0.477982006758   -0.014784744343   0.014329366343
938450000.000000000000   0.001651613248   0.024678655914   -0.916812780339   -0.263212318199   -0.916812780339   -0.263212318199   -0.004724781301   0.019971230875
953425000.000000000000   0.007331764763   0.020918862507   -0.953214720164   -0.032079945448   -0.953214720164   -0.032079945448   0.003991155221   0.021347943268
968400000.000000000000   0.011630163271   0.015291538435   -0.932188749265   0.200599749524   -0.932188749265   0.200599749524   0.010417402286   0.016933913119
983375000.000000000000   0.013875717502   0.008419537546   -0.854845232434   0.421386768062   -0.854845232434   0.421386768062   0.011232634241   0.011507191735
998350000.000000000000   0.013325771986   0.002464722829   -0.726435175070   0.616644923116   -0.726435175070   0.616644923116   0.008773225943   0.006504988704
1013325000.000000000000   0.009795019902   -0.002117732753   -0.554113643528   0.774532261543   -0.554113643528   0.774532261543   0.005949641041   0.004098090035
1028300000.000000000000   0.004202734050   -0.003869835517   -0.349015222339   0.885733681919   -0.349015222339   0.885733681919   0.002377706800   0.001472930038
1043275000.000000000000   -0.002336031742   -0.002292381358   -0.122720814320   0.943645458152   -0.122720814320   0.943645458152   -0.002055241699   -0.000059520682
1058250000.000000000000   -0.008172008584   0.002393144158   0.110684022667   0.944827768310   0.110684022667   0.944827768310   -0.005723425808   -0.000488209726
1073225000.000000000000   -0.012058708923   0.009035800097   0.336892703085   0.889063396491   0.336892703085   0.889063396491   -0.011437431218   0.002597556035
1088200000.000000000000   -0.013031592226   0.016449019937   0.543023434455   0.779927082114   0.543023434455   0.779927082114   -0.014805431845   0.009888457469
1103175000.000000000000   -0.010930208985   0.022920552680   0.715857178004   0.624132829458   0.715857178004   0.624132829458   -0.012418667042   0.019029414818
1118150000.000000000000   -0.006263725254   0.027221392428   0.846114089378   0.431306191968   0.846114089378   0.431306191968   -0.005572209053   0.026485327937
1133125000.000000000000   0.000024030376   0.028320808403   0.925136038545   0.212729205687   0.925136038545   0.212729205687   0.003286154803   0.029125134148
1148100000.000000000000   0.006325345238   0.026017415841   0.948829808499   -0.018762641581   0.948829808499   -0.018762641581   0.009723075905   0.026719365026
1163075000.000000000000   0.011252238671   0.020954600264   0.915589714954   -0.249302075038   0.915589714954   -0.249302075038   0.013247797739   0.021759285545
1178050000.000000000000   0.013289195857   0.014488409053   0.827151425996   -0.464392377426   0.827151425996   -0.464392377426   0.013103883999   0.016858913478
1193025000.000000000000   0.012243681991   0.008345863026   0.689052570737   -0.651568873355   0.689052570737   -0.651568873355   0.009271618705   0.012114671226
1208000000.000000000000   0.007938416320   0.003889652755   0.509591988676   -0.799242164281   0.509591988676   -0.799242164281   0.004132887730   0.009264520086
1222975000.000000000000   0.001717509388   0.002426273343   0.299677145699   -0.899067314892   0.299677145699   -0.899067314892   -0.004149124646   0.007214892474
1237950000.000000000000   -0.005062470443   0.004892843203   0.072071448423   -0.944465192755   0.072071448423   -0.944465192755   -0.015936124240   0.009165028014
1252925000.000000000000   -0.010844417211   0.010462872487   -0.159921897938   -0.933085726015   -0.159921897938   -0.933085726015   -0.024420621663   0.014793820470
1267900000.000000000000   -0.014474351240   0.018015357599   -0.381899758837   -0.865765063297   -0.381899758837   -0.865765063297   -0.028250031690   0.026397718857
1282875000.000000000000   -0.014466344115   0.025689398391   -0.580869068329   -0.746590941969   -0.580869068329   -0.746590941969   -0.024525009213   0.036728404169
1297850000.000000000000   -0.011131056816   0.032418279103   -0.744615737515   -0.582767179320   -0.744615737515   -0.582767179320   -0.017146446964   0.042130187331
1312825000.000000000000   -0.004746754960   0.036294935861   -0.863661858443   -0.384169669057   -0.863661858443   -0.384169669057   -0.006394529583   0.043418893960
1327800000.000000000000   0.003068800103   0.036360279917   -0.930996992066   -0.162483685961   -0.930996992066   -0.162483685961   0.001555810387   0.039193383489
1342775000.000000000000   0.010911790145   0.032654891875   -0.942169974563   0.068570850289   -0.942169974563   0.068570850289   0.009709190967   0.034523374996
1357750000.000000000000   0.016910914931   0.025824217941   -0.897062058726   0.295986720359   -0.897062058726   0.295986720359   0.015191927782   0.027219963565
1372725000.000000000000   0.020047885338   0.017129612289   -0.797975543689   0.505049414387   -0.797975543689   0.505049414387   0.017771695769   0.020081952177
1387700000.000000000000   0.019499780362   0.008741549903   -0.650844179121   0.684075932362   -0.650844179121   0.684075932362   0.015744335938   0.017624515294
1402675000.000000000000   0.016000148416   0.002555882105   -0.464499976269   0.821472884590   -0.464499976269   0.821472884590   0.012051664631   0.019345138933
1417650000.000000000000   0.010164421598   -0.000292846349   -0.250649968998   0.909445836448   -0.250649968998   0.909445836448   0.008700008517   0.024242300894
1432625000.000000000000   0.003190549497   0.000869560085   -0.021477841209   0.942976647996   -0.021477841209   0.942976647996   0.005428114408   0.027458060690
1447600000.000000000000   -0.002835338589   0.005754582279   0.208528554378   0.919725191242   0.208528554378   0.919725191242   -0.001685277653   0.030743374108
1462575000.000000000000   -0.006487478786   0.013496526042   0.425734897540   0.840923926412   0.425734897540   0.840923926412   -0.007401329573   0.033778952341
1477550000.000000000000   -0.007002042287   0.021923117041   0.617199258535   0.712073647556   0.617199258535   0.712073647556   -0.011989971948   0.036825354884
1492525000.000000000000   -0.004260709973   0.029357159549   0.771266170696   0.540316774349   0.771266170696   0.540316774349   -0.011778334129   0.040666950117
1507500000.000000000000   0.001112103273   0.034003582971   0.878982011476   0.336346938283   0.878982011476   0.336346938283   -0.006946588680   0.041063371736
1522475000.000000000000   0.007738803080   0.034774357667   0.934238109860   0.112756488974   0.934238109860   0.112756488974   0.001614443140   0.038095821178
1537450000.000000000000   0.014032179913   0.031506194871   0.933447969989   -0.117831503322   0.933447969989   -0.117831503322   0.010382656723   0.030280966227
1552425000.000000000000   0.018438831763   0.025003586331   0.876698172944   -0.341222439852   0.876698172944   -0.341222439852   0.016301515497   0.019958104316
1567400000.000000000000   0.019539093482   0.016839149503   0.767117569715   -0.544394363544   0.767117569715   -0.544394363544   0.015014072447   0.009072250231
1582375000.000000000000   0.017464397061   0.008911481400   0.611107120829   -0.714466644308   0.611107120829   -0.714466644308   0.010625539488   0.002482100914
1597350000.000000000000   0.012271434059   0.003215529500   0.418661930918   -0.841518113597   0.418661930918   -0.841518113597   0.002638107354   0.002626053632
1612325000.000000000000   0.005007771029   0.000781512965   0.201033875148   -0.917995677751   0.201033875148   -0.917995677751   -0.007395025117   0.006299862849
1627300000.000000000000   -0.002394163879   0.003156276309   -0.028113179460   -0.938861611299   -0.028113179460   -0.938861611299   -0.017075703465   0.013455055214
1642275000.000000000000   -0.008246474543   0.009156710006   -0.255654104682   -0.903266227631   -0.255654104682   -0.903266227631   -0.025579066091   0.023288709139
1657250000.000000000000   -0.011439586196   0.018084549197   -0.467285225313   -0.813714399662   -0.467285225313   -0.813714399662   -0.029171588507   0.034332241628
1672225000.000000000000   -0.010767360521   0.027786910592   -0.650726960213   -0.675405070139   -0.650726960213   -0.675405070139   -0.026785265768   0.043054316088
1687200000.000000000000   -0.006526886520   0.036377513043   -0.795153874778   -0.496880521227   -0.795153874778   -0.496880521227   -0.020398278740   0.048647785733
1702175000.000000000000   0.000645805749   0.041999659688   -0.891406234805   -0.288679730562   -0.891406234805   -0.288679730562   -0.009874428364   0.050073974314
1717150000.000000000000   0.009291873724   0.043531747302   -0.934831990668   -0.063342768554   -0.934831990668   -0.063342768554   0.003119478781   0.046755630892
1732125000.000000000000   0.017526678562   0.040876996349   -0.921890073925   0.165589199641   -0.921890073925   0.165589199641   0.014348497354   0.036758840082
1747100000.000000000000   0.023814962082   0.034405589641   -0.854029295036   0.385108987907   -0.854029295036   0.385108987907   0.021379922007   0.024681990107
1762075000.000000000000   0.026893384471   0.025709282770   -0.734699440319   0.581178034883   -0.734699440319   0.581178034883   0.020634775081   0.012785204107
1777050000.000000000000   0.026150640962   0.016789028077   -0.571028160573   0.742465504932   -0.571028160573   0.742465504932   0.014451694238   0.003301481099
1792025000.000000000000   0.021993592660   0.009275456345   -0.372967810709   0.859059508799   -0.372967810709   0.859059508799   0.003831635305   -0.002151213505
1807000000.000000000000   0.015574420169   0.005035220865   -0.152729657194   0.923562130328   -0.152729657194   0.923562130328   -0.008602034576   -0.002431232584
