! RsaToolbox (C) 2014 Rohde & Schwarz America
! 
! Number of points: 401
! Number of ports: 2
! Balanced ports?: No
! 
! 
# Hz S RI R 50
10000000          0.004489751907    0.001528063432    0.9819346768      -0.1667544049     
                  0.9819346768      -0.1667544049     0.005257186201    -0.0016146213     
24975000          0.006301924679    -0.003157593704   0.908797638       -0.4018467221     
                  0.908797638       -0.4018467221     0.004334986002    -0.01203867707    
39950000          0.003020115471    -0.007369738423   0.781279795       -0.610773421      
                  0.781279795       -0.610773421      -0.003026974841   -0.01957426949    
54925000          -0.000222859142   -0.01322738058    0.6073052016      -0.7820683211     
                  0.6073052016      -0.7820683211     -0.01225271119    -0.02500889221    
69900000          -0.008000043121   -0.01097707432    0.3971557911      -0.9053707418     
                  0.3971557911      -0.9053707418     -0.02327682464    -0.01791885054    
84875000          -0.01340113192    -0.01044781759    0.1639498129      -0.9738754084     
                  0.1639498129      -0.9738754084     -0.03313900732    -0.01989287978    
99850000          -0.01567808023    -0.007004313741   -0.07862206313    -0.9833605582     
                  -0.07862206313    -0.9833605582     -0.03319774281    -0.009119957971   
114825000         -0.01825891949    -0.004115579794   -0.31585287       -0.9334607678     
                  -0.31585287       -0.9334607678     -0.03905126634    -0.004963543095   
129800000         -0.0158723791     0.001111508381    -0.5333572846     -0.8274351742     
                  -0.5333572846     -0.8274351742     -0.03346850011    0.00710278582     
144775000         -0.01347159981    0.004100059851    -0.7182677897     -0.6717742301     
                  -0.7182677897     -0.6717742301     -0.02673864459    0.009246842495    
159750000         -0.008979957279   0.005392981484    -0.8597512085     -0.4760642461     
                  -0.8597512085     -0.4760642461     -0.01656535213    0.009806496283    
174725000         -0.00452672793    0.005278541737    -0.949139483      -0.2520531234     
                  -0.949139483      -0.2520531234     -0.005438795524   0.009245790872    
189700000         -0.001390697851   0.002981698312    -0.9811803848     -0.01306851467    
                  -0.9811803848     -0.01306851467    0.001907774791    0.002097430478    
204675000         -0.0003704145824  -0.000951795383   -0.9541804702     0.2262668762      
                  -0.9541804702     0.2262668762      0.004878176302    -0.007874517543   
219650000         -0.001522499186   -0.004644748003   -0.8696971918     0.4516192295      
                  -0.8696971918     0.4516192295      0.00208650006     -0.01774289343    
234625000         -0.005436511749   -0.007421715962   -0.7327461361     0.6496195424      
                  -0.7327461361     0.6496195424      -0.003903621875   -0.02562076367    
249600000         -0.01001758928    -0.008872808453   -0.5519656579     0.8081466715      
                  -0.5519656579     0.8081466715      -0.01242716509    -0.02845265923    
264575000         -0.01453169148    -0.008147019214   -0.3382107557     0.9174380534      
                  -0.3382107557     0.9174380534      -0.02209247024    -0.02714175579    
279550000         -0.01737612197    -0.005923133479   -0.1044909628     0.9714924414      
                  -0.1044909628     0.9714924414      -0.02812390507    -0.02323231363    
294525000         -0.01929062861    -0.001720171324   0.1352119444      0.9669032431      
                  0.1352119444      0.9669032431      -0.03338282719    -0.01658443951    
309500000         -0.01848401903    0.002985366284    0.3662925373      0.9043685743      
                  0.3662925373      0.9043685743      -0.0343048452     -0.008561666378   
324475000         -0.01513666157    0.006665592903    0.5752272202      0.7874540709      
                  0.5752272202      0.7874540709      -0.03030982621    -0.003118884997   
339450000         -0.01034463395    0.009008626274    0.7490886319      0.6235115824      
                  0.7490886319      0.6235115824      -0.02413369673    0.003886478886    
354425000         -0.004851730019   0.009670704823    0.8778971401      0.4222301315      
                  0.8778971401      0.4222301315      -0.01533373216    0.008165538848    
369400000         -0.0002321027553  0.00841186485     0.9537339656      0.1956665043      
                  0.9537339656      0.1956665043      -0.006358676378   0.008923155658    
384375000         0.00265435402     0.005635839601    0.9721609386      -0.04240351455    
                  0.9721609386      -0.04240351455    0.002380514125    0.004751812766    
399350000         0.00317007304     0.002162425525    0.9322158526      -0.2778164604     
                  0.9322158526      -0.2778164604     0.00794423509     -0.002966126446   
414325000         0.001119007546    -0.00136718816    0.8360482661      -0.4962487122     
                  0.8360482661      -0.4962487122     0.01019262401     -0.01190133669    
429300000         -0.003185395944   -0.003859983509   0.6896046733      -0.6844907867     
                  0.6896046733      -0.6844907867     0.001592369933    -0.01991819574    
444275000         -0.008419579138   -0.004711547227   0.5019759167      -0.8313500827     
                  0.5019759167      -0.8313500827     -0.008891828948   -0.02320705959    
459250000         -0.01403115397    -0.003377692683   0.2842648058      -0.9279927174     
                  0.2842648058      -0.9279927174     -0.02016445718    -0.02243819378    
474225000         -0.01839240203    -0.0007075522207  0.04966995741     -0.9686043068     
                  0.04966995741     -0.9686043068     -0.02818340824    -0.02295923539    
489200000         -0.02027202973    0.003428362385    -0.1874445038     -0.9511222021     
                  -0.1874445038     -0.9511222021     -0.03126518416    -0.02095899857    
504175000         -0.0204316297     0.007259777951    -0.4130494522     -0.8763844064     
                  -0.4130494522     -0.8763844064     -0.03540070959    -0.01656104986    
519150000         -0.01734715558    0.01044543529     -0.6136563554     -0.7491331385     
                  -0.6136563554     -0.7491331385     -0.03396931691    -0.0105832489     
534125000         -0.01256521509    0.01242447542     -0.7771579751     -0.5770796351     
                  -0.7771579751     -0.5770796351     -0.02611985746    -0.002581377245   
549100000         -0.006747093633   0.01302024562     -0.8937720132     -0.3704926508     
                  -0.8937720132     -0.3704926508     -0.01693856902    0.004800288896    
564075000         -0.001637208708   0.01122632308     -0.9567447692     -0.1417812424     
                  -0.9567447692     -0.1417812424     -0.004337780418   0.008849496404    
579050000         0.001886034735    0.008122315392    -0.9620900466     0.09509829311     
                  -0.9620900466     0.09509829311     0.006948275523    0.007334313152    
594025000         0.002937038803    0.004496120359    -0.9098549694     0.326275106       
                  -0.9098549694     0.326275106       0.01164938168     0.0007874888364   
609000000         0.001806243004    0.0009332991935   -0.8026592784     0.5378105998      
                  -0.8026592784     0.5378105998      0.007160519345    -0.005554024862   
623975000         -0.002163765778   -0.001249210778   -0.6473208027     0.7166189635      
                  -0.6473208027     0.7166189635      -0.00174756102    -0.01207858992    
638950000         -0.007603187337   -0.001733066865   -0.4531506953     0.852284688       
                  -0.4531506953     0.852284688       -0.01063409094    -0.01435588402    
653925000         -0.01386853375    -0.000734065688   -0.2319825209     0.9364198376      
                  -0.2319825209     0.9364198376      -0.01763112594    -0.01400291026    
668900000         -0.01906167652    0.001913574468    0.002916600507    0.9642811195      
                  0.002916600507    0.9642811195      -0.02015582035    -0.01651481816    
683875000         -0.02226602588    0.005452825193    0.2376144607      0.9340953211      
                  0.2376144607      0.9340953211      -0.02204586973    -0.01889070197    
698850000         -0.02318703635    0.009742465849    0.4575316069      0.8478138821      
                  0.4575316069      0.8478138821      -0.02391191948    -0.01904349335    
713825000         -0.02062235512    0.01331712378     0.6498765806      0.7105397013      
                  0.6498765806      0.7105397013      -0.02324188779    -0.01972897103    
728800000         -0.01623779763    0.01571751382     0.8028081121      0.530850614       
                  0.8028081121      0.530850614       -0.02060622916    -0.009597480139   
743775000         -0.00984880001    0.01597435618     0.9075043308      0.319608502       
                  0.9075043308      0.319608502       -0.01064044833    0.004244663279    
758750000         -0.003194470848   0.01465474741     0.9576663982      0.08937615731     
                  0.9576663982      0.08937615731     0.001747489869    0.01258978335     
773725000         0.002504935768    0.01217145329     0.9503331194      -0.1462161402     
                  0.9503331194      -0.1462161402     0.0112985308      0.01372912907     
788700000         0.006197466423    0.008515709514    0.8860809837      -0.3729161187     
                  0.8860809837      -0.3729161187     0.01456554375     0.01151397475     
803675000         0.007267195289    0.004958892178    0.7684485359      -0.577194257      
                  0.7684485359      -0.577194257      0.01257271413     0.009520511793    
818650000         0.005464072931    0.002678888336    0.604746775       -0.7465174311     
                  0.604746775       -0.7465174311     0.009054153825    0.007412208676    
833625000         0.001766118716    0.001915869549    0.4047353315      -0.8708089872     
                  0.4047353315      -0.8708089872     0.005416498539    0.003034823988    
848600000         -0.003255896478   0.00333548883     0.1806190321      -0.9428139879     
                  0.1806190321      -0.9428139879     0.0004192832228   -0.001952072328   
863575000         -0.008383357177   0.006399170053    -0.05419562803    -0.9581390439     
                  -0.05419562803    -0.9581390439     -0.005872730605   -0.007767598174   
878550000         -0.01179417863    0.01045979766     -0.2855129069     -0.9157561453     
                  -0.2855129069     -0.9157561453     -0.01273310313    -0.009647056703   
893525000         -0.01322736717    0.0150544264      -0.4995882132     -0.8183249791     
                  -0.4995882132     -0.8183249791     -0.01638710233    -0.006557215521   
908500000         -0.01186160264    0.01863326552     -0.6833444903     -0.6718472778     
                  -0.6833444903     -0.6718472778     -0.01671953065    -0.000477065864   
923475000         -0.007809387074   0.02009272358     -0.8258404617     -0.4852932835     
                  -0.8258404617     -0.4852932835     -0.01292091682    0.007949632954    
938450000         -0.002757536837   0.01923239374     -0.9189591849     -0.2698636201     
                  -0.9189591849     -0.2698636201     -0.005961935939   0.01357680663     
953425000         0.002508486212    0.01565045931     -0.9566642651     -0.03822279001    
                  -0.9566642651     -0.03822279001    0.0003676712001   0.015548899       
968400000         0.00660820041     0.01021504891     -0.937161031      0.1955579435      
                  -0.937161031      0.1955579435      0.00502211469     0.01363603195     
983375000         0.008539105369    0.003466189274    -0.8610424949     0.4175357053      
                  -0.8610424949     0.4175357053      0.005685706737    0.01150213062     
998350000         0.008132160079    -0.002625226055   -0.7332723561     0.6142737109      
                  -0.7332723561     0.6142737109      0.003763382687    0.009815070803    
1013325000        0.005010294916    -0.00748475777    -0.5615011812     0.7740854156      
                  -0.5615011812     0.7740854156      0.002847755235    0.008828009954    
1028300000        -0.0008752072623  -0.009251007148   -0.3563007764     0.8870488212      
                  -0.3563007764     0.8870488212      0.001768085217    0.007153426906    
1043275000        -0.007127391323   -0.007941586216   -0.1296983414     0.9469013481      
                  -0.1296983414     0.9469013481      0.001075735645    0.004965261529    
1058250000        -0.01275235765    -0.003827814756   0.1045252272      0.9496781099      
                  0.1045252272      0.9496781099      -0.0005865729185  0.003123008394    
1073225000        -0.0166583755     0.00256564483     0.3325538756      0.8953459372      
                  0.3325538756      0.8953459372      -0.004235661103   0.003629794866    
1088200000        -0.01793470967    0.009429132105    0.5399444954      0.7872455244      
                  0.5399444954      0.7872455244      -0.006824652243   0.00737017082     
1103175000        -0.01618461633    0.01568561843     0.7149543555      0.6321482918      
                  0.7149543555      0.6321482918      -0.006531307971   0.01386757127     
1118150000        -0.01185902904    0.02002882778     0.8469079023      0.4390814935      
                  0.8469079023      0.4390814935      -0.003049733208   0.01940061055     
1133125000        -0.005464420868   0.02119850754     0.9280588041      0.2198339031      
                  0.9280588041      0.2198339031      0.001398221551    0.02107978719     
1148100000        0.0005262517471   0.01906855358     0.9535029021      -0.01231318215    
                  0.9535029021      -0.01231318215    0.005054049794    0.02072523863     
1163075000        0.005438959079    0.01447794141     0.9215982532      -0.2438967017     
                  0.9215982532      -0.2438967017     0.006503620139    0.01875928763     
1178050000        0.0079195425      0.008376591937    0.8343418575      -0.4605735174     
                  0.8343418575      -0.4605735174     0.005892004934    0.01694644863     
1193025000        0.00695410771     0.002339341036    0.6969362563      -0.649619132      
                  0.6969362563      -0.649619132      0.003778348773    0.01608125608     
1208000000        0.003209415134    -0.002002379911   0.5178242369      -0.7994017137     
                  0.5178242369      -0.7994017137     0.001447984035    0.01522653894     
1222975000        -0.002760120886   -0.003557101509   0.3076537065      -0.9011569884     
                  0.3076537065      -0.9011569884     -0.003414943166   0.01426358192     
1237950000        -0.009645104119   -0.001060575933   0.07910821628     -0.9485586922     
                  0.07910821628     -0.9485586922     -0.01123101106    0.01503383748     
1252925000        -0.01534368642    0.004283912948    -0.1539352559     -0.9389462143     
                  -0.1539352559     -0.9389462143     -0.01778994053    0.01817379666     
1267900000        -0.01906999328    0.01142130048     -0.3773194486     -0.8730072099     
                  -0.3773194486     -0.8730072099     -0.02038549341    0.02619321312     
1282875000        -0.0195269707     0.01896892474     -0.5780940467     -0.7548530887     
                  -0.5780940467     -0.7548530887     -0.01755538967    0.03364269955     
1297850000        -0.01639524406    0.02550378989     -0.7439159947     -0.5913872036     
                  -0.7439159947     -0.5913872036     -0.01189550716    0.0353385192      
1312825000        -0.01045366134    0.0297115089      -0.8653286626     -0.3927391725     
                  -0.8653286626     -0.3927391725     -0.005917077006   0.03516437599     
1327800000        -0.003220001281   0.02973583613     -0.9342837898     -0.1704753123     
                  -0.9342837898     -0.1704753123     -0.0008556585724  0.03170282179     
1342775000        0.004233340537    0.02646401709     -0.9477082845     0.06196164915     
                  -0.9477082845     0.06196164915     0.003655681503    0.02878139502     
1357750000        0.01026955116     0.01970158246     -0.9038394635     0.2905778328      
                  -0.9038394635     0.2905778328      0.008021075221    0.02500934911     
1372725000        0.01335940114     0.01129347858     -0.8057944042     0.5016657533      
                  -0.8057944042     0.5016657533      0.01001178025     0.02155929121     
1387700000        0.01333706922     0.003348404814    -0.6594455181     0.6824925115      
                  -0.6594455181     0.6824925115      0.01038842087     0.02212004598     
1402675000        0.009863938847    -0.002860769127   -0.473486815      0.8221879282      
                  -0.473486815      0.8221879282      0.009625449374    0.02596445263     
1417650000        0.004152586355    -0.00618054003    -0.259258574      0.9123460151      
                  -0.259258574      0.9123460151      0.01016620712     0.0315354579      
1432625000        -0.00263623996    -0.005415982458   -0.02939867765    0.9479250548      
                  -0.02939867765    0.9479250548      0.01045363795     0.03420665472     
1447600000        -0.008655428923   -0.0009085049651  0.2020096654      0.926311367       
                  0.2020096654      0.926311367       0.005964659686    0.03360723593     
1462575000        -0.01241674005    0.006128807186    0.4211045105      0.8490606         
                  0.4211045105      0.8490606         0.0008108594796   0.0335397756      
1477550000        -0.01321999467    0.01426735945     0.6147002199      0.7211726891      
                  0.6147002199      0.7211726891      -0.005230380574   0.03284812106     
1492525000        -0.01068205482    0.02146646215     0.7712582458      0.5497242709      
                  0.7712582458      0.5497242709      -0.007173485521   0.03317051435     
1507500000        -0.005691178459   0.02607389246     0.881512575       0.3455134387      
                  0.881512575       0.3455134387      -0.005968421115   0.0320026848      
1522475000        0.0008295916027   0.02693842082     0.9389048298      0.1207874874      
                  0.9389048298      0.1207874874      -0.001411213327   0.02965825764     
1537450000        0.007093971658    0.02404069121     0.9398044152      -0.1109332542     
                  0.9398044152      -0.1109332542     0.003446238579    0.02480415385     
1552425000        0.0113521263      0.01792314352     0.8842603442      -0.3362106772     
                  0.8842603442      -0.3362106772     0.007419923636    0.01835021593     
1567400000        0.01307112267     0.009996177959    0.7758156762      -0.5410726606     
                  0.7758156762      -0.5410726606     0.00721837846     0.012200554       
1582375000        0.01091684625     0.00199678134     0.6208114963      -0.7136387967     
                  0.6208114963      -0.7136387967     0.004818733721    0.01004001496     
1597350000        0.006218800123    -0.003396069245   0.4283823261      -0.8429011224     
                  0.4283823261      -0.8429011224     0.00104331666     0.01099937858     
1612325000        -0.0007094041571  -0.005901450487   0.2103219058      -0.9216028312     
                  0.2103219058      -0.9216028312     -0.004619726557   0.01441466536     
1627300000        -0.008070271312   -0.003737660132   -0.02003504736    -0.9447677512     
                  -0.02003504736    -0.9447677512     -0.0106980869     0.01964614736     
