#  Hz  S  RI  R  50.000000
!
!
10000000.000000000000   0.004489751907   0.001528063432   0.981934676833   -0.166754404906   0.981934676833   -0.166754404906   0.005257186201   -0.001614621300
24975000.000000000000   0.006301924679   -0.003157593704   0.908797637991   -0.401846722096   0.908797637991   -0.401846722096   0.004334986002   -0.012038677073
39950000.000000000000   0.003020115471   -0.007369738423   0.781279794983   -0.610773420980   0.781279794983   -0.610773420980   -0.003026974841   -0.019574269488
54925000.000000000000   -0.000222859142   -0.013227380582   0.607305201582   -0.782068321126   0.607305201582   -0.782068321126   -0.012252711187   -0.025008892212
69900000.000000000000   -0.008000043121   -0.010977074322   0.397155791061   -0.905370741819   0.397155791061   -0.905370741819   -0.023276824643   -0.017918850537
84875000.000000000000   -0.013401131917   -0.010447817586   0.163949812885   -0.973875408371   0.163949812885   -0.973875408371   -0.033139007315   -0.019892879776
99850000.000000000000   -0.015678080226   -0.007004313741   -0.078622063127   -0.983360558179   -0.078622063127   -0.983360558179   -0.033197742812   -0.009119957971
114825000.000000000000   -0.018258919494   -0.004115579794   -0.315852869951   -0.933460767768   -0.315852869951   -0.933460767768   -0.039051266340   -0.004963543095
129800000.000000000000   -0.015872379103   0.001111508381   -0.533357284574   -0.827435174227   -0.533357284574   -0.827435174227   -0.033468500114   0.007102785820
144775000.000000000000   -0.013471599807   0.004100059851   -0.718267789658   -0.671774230085   -0.718267789658   -0.671774230085   -0.026738644588   0.009246842495
159750000.000000000000   -0.008979957279   0.005392981484   -0.859751208528   -0.476064246123   -0.859751208528   -0.476064246123   -0.016565352127   0.009806496283
174725000.000000000000   -0.004526727930   0.005278541737   -0.949139482953   -0.252053123384   -0.949139482953   -0.252053123384   -0.005438795524   0.009245790872
189700000.000000000000   -0.001390697851   0.002981698312   -0.981180384765   -0.013068514671   -0.981180384765   -0.013068514671   0.001907774791   0.002097430478
204675000.000000000000   -0.000370414582   -0.000951795383   -0.954180470170   0.226266876159   -0.954180470170   0.226266876159   0.004878176302   -0.007874517543
219650000.000000000000   -0.001522499186   -0.004644748003   -0.869697191807   0.451619229507   -0.869697191807   0.451619229507   0.002086500060   -0.017742893426
234625000.000000000000   -0.005436511749   -0.007421715962   -0.732746136068   0.649619542363   -0.732746136068   0.649619542363   -0.003903621875   -0.025620763665
249600000.000000000000   -0.010017589282   -0.008872808453   -0.551965657915   0.808146671535   -0.551965657915   0.808146671535   -0.012427165090   -0.028452659230
264575000.000000000000   -0.014531691475   -0.008147019214   -0.338210755655   0.917438053406   -0.338210755655   0.917438053406   -0.022092470244   -0.027141755795
279550000.000000000000   -0.017376121970   -0.005923133479   -0.104490962830   0.971492441389   -0.104490962830   0.971492441389   -0.028123905075   -0.023232313632
294525000.000000000000   -0.019290628609   -0.001720171324   0.135211944395   0.966903243066   0.135211944395   0.966903243066   -0.033382827185   -0.016584439511
309500000.000000000000   -0.018484019025   0.002985366284   0.366292537291   0.904368574328   0.366292537291   0.904368574328   -0.034304845199   -0.008561666378
324475000.000000000000   -0.015136661566   0.006665592903   0.575227220209   0.787454070903   0.575227220209   0.787454070903   -0.030309826214   -0.003118884997
339450000.000000000000   -0.010344633950   0.009008626274   0.749088631886   0.623511582365   0.749088631886   0.623511582365   -0.024133696731   0.003886478886
354425000.000000000000   -0.004851730019   0.009670704823   0.877897140142   0.422230131479   0.877897140142   0.422230131479   -0.015333732156   0.008165538848
369400000.000000000000   -0.000232102755   0.008411864850   0.953733965573   0.195666504341   0.953733965573   0.195666504341   -0.006358676378   0.008923155658
384375000.000000000000   0.002654354020   0.005635839601   0.972160938649   -0.042403514555   0.972160938649   -0.042403514555   0.002380514125   0.004751812766
399350000.000000000000   0.003170073040   0.002162425525   0.932215852557   -0.277816460379   0.932215852557   -0.277816460379   0.007944235090   -0.002966126446
414325000.000000000000   0.001119007546   -0.001367188160   0.836048266118   -0.496248712167   0.836048266118   -0.496248712167   0.010192624006   -0.011901336688
429300000.000000000000   -0.003185395944   -0.003859983509   0.689604673307   -0.684490786728   0.689604673307   -0.684490786728   0.001592369933   -0.019918195739
444275000.000000000000   -0.008419579138   -0.004711547227   0.501975916673   -0.831350082710   0.501975916673   -0.831350082710   -0.008891828948   -0.023207059592
459250000.000000000000   -0.014031153973   -0.003377692683   0.284264805804   -0.927992717407   0.284264805804   -0.927992717407   -0.020164457177   -0.022438193784
474225000.000000000000   -0.018392402035   -0.000707552221   0.049669957410   -0.968604306760   0.049669957410   -0.968604306760   -0.028183408238   -0.022959235389
489200000.000000000000   -0.020272029734   0.003428362385   -0.187444503780   -0.951122202095   -0.187444503780   -0.951122202095   -0.031265184161   -0.020958998568
504175000.000000000000   -0.020431629704   0.007259777951   -0.413049452236   -0.876384406360   -0.413049452236   -0.876384406360   -0.035400709589   -0.016561049862
519150000.000000000000   -0.017347155583   0.010445435285   -0.613656355447   -0.749133138485   -0.613656355447   -0.749133138485   -0.033969316906   -0.010583248898
534125000.000000000000   -0.012565215092   0.012424475416   -0.777157975077   -0.577079635061   -0.777157975077   -0.577079635061   -0.026119857455   -0.002581377245
549100000.000000000000   -0.006747093633   0.013020245625   -0.893772013249   -0.370492650777   -0.893772013249   -0.370492650777   -0.016938569017   0.004800288896
564075000.000000000000   -0.001637208708   0.011226323082   -0.956744769243   -0.141781242392   -0.956744769243   -0.141781242392   -0.004337780418   0.008849496404
579050000.000000000000   0.001886034735   0.008122315392   -0.962090046603   0.095098293106   -0.962090046603   0.095098293106   0.006948275523   0.007334313152
594025000.000000000000   0.002937038803   0.004496120359   -0.909854969403   0.326275106016   -0.909854969403   0.326275106016   0.011649381676   0.000787488836
609000000.000000000000   0.001806243004   0.000933299193   -0.802659278415   0.537810599767   -0.802659278415   0.537810599767   0.007160519345   -0.005554024862
623975000.000000000000   -0.002163765778   -0.001249210778   -0.647320802660   0.716618963481   -0.647320802660   0.716618963481   -0.001747561020   -0.012078589918
638950000.000000000000   -0.007603187337   -0.001733066865   -0.453150695337   0.852284688017   -0.453150695337   0.852284688017   -0.010634090936   -0.014355884023
653925000.000000000000   -0.013868533752   -0.000734065688   -0.231982520869   0.936419837610   -0.231982520869   0.936419837610   -0.017631125940   -0.014002910257
668900000.000000000000   -0.019061676523   0.001913574468   0.002916600507   0.964281119534   0.002916600507   0.964281119534   -0.020155820346   -0.016514818159
683875000.000000000000   -0.022266025882   0.005452825193   0.237614460733   0.934095321096   0.237614460733   0.934095321096   -0.022045869731   -0.018890701972
698850000.000000000000   -0.023187036354   0.009742465849   0.457531606850   0.847813882086   0.457531606850   0.847813882086   -0.023911919480   -0.019043493349
713825000.000000000000   -0.020622355118   0.013317123776   0.649876580612   0.710539701260   0.649876580612   0.710539701260   -0.023241887790   -0.019728971027
728800000.000000000000   -0.016237797629   0.015717513817   0.802808112137   0.530850613998   0.802808112137   0.530850613998   -0.020606229164   -0.009597480139
743775000.000000000000   -0.009848800010   0.015974356180   0.907504330834   0.319608502044   0.907504330834   0.319608502044   -0.010640448333   0.004244663279
758750000.000000000000   -0.003194470848   0.014654747413   0.957666398195   0.089376157313   0.957666398195   0.089376157313   0.001747489869   0.012589783349
773725000.000000000000   0.002504935768   0.012171453288   0.950333119380   -0.146216140188   0.950333119380   -0.146216140188   0.011298530803   0.013729129067
788700000.000000000000   0.006197466423   0.008515709514   0.886080983695   -0.372916118682   0.886080983695   -0.372916118682   0.014565543746   0.011513974748
803675000.000000000000   0.007267195289   0.004958892178   0.768448535858   -0.577194256977   0.768448535858   -0.577194256977   0.012572714134   0.009520511793
818650000.000000000000   0.005464072931   0.002678888336   0.604746775042   -0.746517431091   0.604746775042   -0.746517431091   0.009054153825   0.007412208676
833625000.000000000000   0.001766118716   0.001915869549   0.404735331451   -0.870808987193   0.404735331451   -0.870808987193   0.005416498539   0.003034823988
848600000.000000000000   -0.003255896478   0.003335488830   0.180619032121   -0.942813987866   0.180619032121   -0.942813987866   0.000419283223   -0.001952072328
863575000.000000000000   -0.008383357177   0.006399170053   -0.054195628031   -0.958139043911   -0.054195628031   -0.958139043911   -0.005872730605   -0.007767598174
878550000.000000000000   -0.011794178635   0.010459797660   -0.285512906853   -0.915756145257   -0.285512906853   -0.915756145257   -0.012733103133   -0.009647056703
893525000.000000000000   -0.013227367172   0.015054426402   -0.499588213156   -0.818324979082   -0.499588213156   -0.818324979082   -0.016387102327   -0.006557215521
908500000.000000000000   -0.011861602643   0.018633265520   -0.683344490336   -0.671847277767   -0.683344490336   -0.671847277767   -0.016719530646   -0.000477065864
923475000.000000000000   -0.007809387074   0.020092723577   -0.825840461699   -0.485293283472   -0.825840461699   -0.485293283472   -0.012920916821   0.007949632954
938450000.000000000000   -0.002757536837   0.019232393736   -0.918959184924   -0.269863620085   -0.918959184924   -0.269863620085   -0.005961935939   0.013576806632
953425000.000000000000   0.002508486212   0.015650459313   -0.956664265054   -0.038222790010   -0.956664265054   -0.038222790010   0.000367671200   0.015548898998
968400000.000000000000   0.006608200410   0.010215048911   -0.937161031007   0.195557943545   -0.937161031007   0.195557943545   0.005022114690   0.013636031949
983375000.000000000000   0.008539105369   0.003466189274   -0.861042494887   0.417535705346   -0.861042494887   0.417535705346   0.005685706737   0.011502130619
998350000.000000000000   0.008132160079   -0.002625226055   -0.733272356086   0.614273710905   -0.733272356086   0.614273710905   0.003763382687   0.009815070803
1013325000.000000000000   0.005010294916   -0.007484757770   -0.561501181193   0.774085415642   -0.561501181193   0.774085415642   0.002847755235   0.008828009954
1028300000.000000000000   -0.000875207262   -0.009251007148   -0.356300776408   0.887048821248   -0.356300776408   0.887048821248   0.001768085217   0.007153426906
1043275000.000000000000   -0.007127391323   -0.007941586216   -0.129698341447   0.946901348115   -0.129698341447   0.946901348115   0.001075735645   0.004965261529
1058250000.000000000000   -0.012752357654   -0.003827814756   0.104525227234   0.949678109894   0.104525227234   0.949678109894   -0.000586572918   0.003123008394
1073225000.000000000000   -0.016658375499   0.002565644830   0.332553875621   0.895345937207   0.332553875621   0.895345937207   -0.004235661103   0.003629794866
1088200000.000000000000   -0.017934709674   0.009429132105   0.539944495377   0.787245524428   0.539944495377   0.787245524428   -0.006824652243   0.007370170820
1103175000.000000000000   -0.016184616326   0.015685618432   0.714954355522   0.632148291770   0.714954355522   0.632148291770   -0.006531307971   0.013867571273
1118150000.000000000000   -0.011859029040   0.020028827785   0.846907902337   0.439081493506   0.846907902337   0.439081493506   -0.003049733208   0.019400610554
1133125000.000000000000   -0.005464420868   0.021198507542   0.928058804086   0.219833903137   0.928058804086   0.219833903137   0.001398221551   0.021079787186
1148100000.000000000000   0.000526251747   0.019068553579   0.953502902104   -0.012313182147   0.953502902104   -0.012313182147   0.005054049794   0.020725238634
1163075000.000000000000   0.005438959079   0.014477941413   0.921598253192   -0.243896701712   0.921598253192   -0.243896701712   0.006503620139   0.018759287630
1178050000.000000000000   0.007919542500   0.008376591937   0.834341857466   -0.460573517385   0.834341857466   -0.460573517385   0.005892004934   0.016946448634
1193025000.000000000000   0.006954107710   0.002339341036   0.696936256290   -0.649619132020   0.696936256290   -0.649619132020   0.003778348773   0.016081256084
1208000000.000000000000   0.003209415134   -0.002002379911   0.517824236910   -0.799401713745   0.517824236910   -0.799401713745   0.001447984035   0.015226538938
1222975000.000000000000   -0.002760120886   -0.003557101509   0.307653706484   -0.901156988438   0.307653706484   -0.901156988438   -0.003414943166   0.014263581923
1237950000.000000000000   -0.009645104119   -0.001060575933   0.079108216283   -0.948558692163   0.079108216283   -0.948558692163   -0.011231011063   0.015033837476
1252925000.000000000000   -0.015343686417   0.004283912948   -0.153935255901   -0.938946214261   -0.153935255901   -0.938946214261   -0.017789940531   0.018173796655
1267900000.000000000000   -0.019069993285   0.011421300480   -0.377319448581   -0.873007209935   -0.377319448581   -0.873007209935   -0.020385493413   0.026193213120
1282875000.000000000000   -0.019526970696   0.018968924740   -0.578094046735   -0.754853088740   -0.578094046735   -0.754853088740   -0.017555389666   0.033642699546
1297850000.000000000000   -0.016395244057   0.025503789887   -0.743915994695   -0.591387203580   -0.743915994695   -0.591387203580   -0.011895507162   0.035338519198
1312825000.000000000000   -0.010453661343   0.029711508901   -0.865328662643   -0.392739172496   -0.865328662643   -0.392739172496   -0.005917077006   0.035164375988
1327800000.000000000000   -0.003220001281   0.029735836133   -0.934283789838   -0.170475312322   -0.934283789838   -0.170475312322   -0.000855658572   0.031702821792
1342775000.000000000000   0.004233340537   0.026464017089   -0.947708284478   0.061961649149   -0.947708284478   0.061961649149   0.003655681503   0.028781395022
1357750000.000000000000   0.010269551159   0.019701582464   -0.903839463525   0.290577832768   -0.903839463525   0.290577832768   0.008021075221   0.025009349114
1372725000.000000000000   0.013359401143   0.011293478577   -0.805794404169   0.501665753337   -0.805794404169   0.501665753337   0.010011780248   0.021559291214
1387700000.000000000000   0.013337069217   0.003348404814   -0.659445518095   0.682492511481   -0.659445518095   0.682492511481   0.010388420869   0.022120045978
1402675000.000000000000   0.009863938847   -0.002860769127   -0.473486815037   0.822187928177   -0.473486815037   0.822187928177   0.009625449374   0.025964452631
1417650000.000000000000   0.004152586355   -0.006180540030   -0.259258574025   0.912346015149   -0.259258574025   0.912346015149   0.010166207115   0.031535457901
1432625000.000000000000   -0.002636239960   -0.005415982458   -0.029398677648   0.947925054822   -0.029398677648   0.947925054822   0.010453637949   0.034206654722
1447600000.000000000000   -0.008655428923   -0.000908504965   0.202009665373   0.926311367049   0.202009665373   0.926311367049   0.005964659686   0.033607235928
1462575000.000000000000   -0.012416740046   0.006128807186   0.421104510545   0.849060600041   0.421104510545   0.849060600041   0.000810859480   0.033539775596
1477550000.000000000000   -0.013219994674   0.014267359450   0.614700219858   0.721172689085   0.614700219858   0.721172689085   -0.005230380574   0.032848121063
1492525000.000000000000   -0.010682054824   0.021466462149   0.771258245804   0.549724270942   0.771258245804   0.549724270942   -0.007173485521   0.033170514348
1507500000.000000000000   -0.005691178459   0.026073892461   0.881512574975   0.345513438686   0.881512574975   0.345513438686   -0.005968421115   0.032002684800
1522475000.000000000000   0.000829591603   0.026938420821   0.938904829796   0.120787487413   0.938904829796   0.120787487413   -0.001411213327   0.029658257638
1537450000.000000000000   0.007093971658   0.024040691207   0.939804415169   -0.110933254243   0.939804415169   -0.110933254243   0.003446238579   0.024804153847
1552425000.000000000000   0.011352126304   0.017923143519   0.884260344218   -0.336210677183   0.884260344218   -0.336210677183   0.007419923636   0.018350215929
1567400000.000000000000   0.013071122665   0.009996177959   0.775815676181   -0.541072660576   0.775815676181   -0.541072660576   0.007218378460   0.012200553997
1582375000.000000000000   0.010916846248   0.001996781340   0.620811496259   -0.713638796702   0.620811496259   -0.713638796702   0.004818733721   0.010040014956
1597350000.000000000000   0.006218800123   -0.003396069245   0.428382326079   -0.842901122378   0.428382326079   -0.842901122378   0.001043316660   0.010999378577
1612325000.000000000000   -0.000709404157   -0.005901450487   0.210321905778   -0.921602831158   0.210321905778   -0.921602831158   -0.004619726557   0.014414665365
1627300000.000000000000   -0.008070271312   -0.003737660132   -0.020035047359   -0.944767751160   -0.020035047359   -0.944767751160   -0.010698086901   0.019646147362
1642275000.000000000000   -0.014133175091   0.002247836259   -0.249197548385   -0.911068935299   -0.249197548385   -0.911068935299   -0.016549648450   0.026094656745
1657250000.000000000000   -0.017743222873   0.010582089522   -0.463145473091   -0.822890323093   -0.463145473091   -0.822890323093   -0.019556833739   0.032106330970
1672225000.000000000000   -0.017313912117   0.020239674631   -0.649069229590   -0.685398651504   -0.649069229590   -0.685398651504   -0.019880850858   0.037717797449
1687200000.000000000000   -0.013638877779   0.028880467673   -0.795809459693   -0.506943780439   -0.795809459693   -0.506943780439   -0.016784059936   0.040383148058
1702175000.000000000000   -0.006674144220   0.034569649712   -0.894806986850   -0.298081654747   -0.894806986850   -0.298081654747   -0.010462498429   0.040860804360
1717150000.000000000000   0.001449009421   0.036347942120   -0.940261951068   -0.071649253741   -0.940261951068   -0.071649253741   -0.001632858700   0.038329535344
1732125000.000000000000   0.009735580246   0.034071397949   -0.929380603674   0.159030995825   -0.929380603674   0.159030995825   0.006649351252   0.032366295524
1747100000.000000000000   0.016296496052   0.027933811415   -0.862677301789   0.380095401503   -0.862677301789   0.380095401503   0.012170204149   0.024383620144
1762075000.000000000000   0.019609882603   0.019439150809   -0.744226272343   0.578366552354   -0.744226272343   0.578366552354   0.013092783417   0.016460613306
1777050000.000000000000   0.019169590678   0.010367210964   -0.581126026866   0.742090759146   -0.581126026866   0.742090759146   0.009250272938   0.010253625426
1792025000.000000000000   0.015367075129   0.002640172537   -0.382960234152   0.861140683761   -0.382960234152   0.861140683761   0.003144469822   0.006608212507
1807000000.000000000000   0.009038883194   -0.001820759070   -0.161934263978   0.928165081030   -0.161934263978   0.928165081030   -0.004346431450   0.006248149343
