! RsaToolbox (C) 2014 Rohde & Schwarz America
! 
! Number of points: 401
! Number of ports: 2
! Balanced ports?: No
! 
! 
# Hz S RI R 50
10000000          0.005735100793    0.01227384341     -0.9789994363     0.1512496731      
                  -0.9789994363     0.1512496731      0.02752781498     -0.04837153254    
24975000          0.01146832426     -0.003783974802   -0.9070789131     0.4047943106      
                  -0.9070789131     0.4047943106      -0.003315307598   -0.01214612793    
39950000          0.003143443316    -0.006413062305   -0.7800410555     0.6072397691      
                  -0.7800410555     0.6072397691      0.002933497921    -0.02165205682    
54925000          0.0005153409022   -0.01195393327    -0.6045970357     0.7830710462      
                  -0.6045970357     0.7830710462      -0.01250981705    -0.03280984198    
69900000          -0.006810038701   -0.01049363211    -0.3962469903     0.904934051       
                  -0.3962469903     0.904934051       -0.02684802964    -0.02126685436    
84875000          -0.01262044597    -0.009979691476   -0.1641004201     0.9737947344      
                  -0.1641004201     0.9737947344      -0.03282279078    -0.02184878913    
99850000          -0.01420062596    -0.005536806915   0.07961871871     0.9825657719      
                  0.07961871871     0.9825657719      -0.04084058583    -0.009864659177   
114825000         -0.01681735271    -0.002267071174   0.3166346262      0.9311448729      
                  0.3166346262      0.9311448729      -0.0442810304     -0.001072577279   
129800000         -0.01421304011    0.003062901966    0.5347564848      0.8263289081      
                  0.5347564848      0.8263289081      -0.03117829533    0.007958200912    
144775000         -0.01198909937    0.00632648898     0.7179304361      0.6703680254      
                  0.7179304361      0.6703680254      -0.02896788851    0.01285824817     
159750000         -0.006852496029   0.00770032375     0.8588323428      0.4736073917      
                  0.8588323428      0.4736073917      -0.01732384274    0.01054966649     
174725000         -0.002271397665   0.007864032324    0.9486758843      0.2493030407      
                  0.9486758843      0.2493030407      -0.006399309564   0.01305026608     
189700000         0.001461324439    0.005491160122    0.9795117948      0.0112754882      
                  0.9795117948      0.0112754882      0.001668099986    0.003096985262    
204675000         0.002151009068    0.002137791292    0.9531448384      -0.2268295159     
                  0.9531448384      -0.2268295159     0.006865675225    -0.007763235661   
219650000         0.0005300553172   -0.002027620753   0.8674286505      -0.4526101592     
                  0.8674286505      -0.4526101592     0.001514456967    -0.01613073697    
234625000         -0.003385828321   -0.004931735007   0.7308872188      -0.6495576834     
                  0.7308872188      -0.6495576834     -0.001462012386   -0.02697606431    
249600000         -0.008093218088   -0.006340198634   0.5494656003      -0.8076980253     
                  0.5494656003      -0.8076980253     -0.01010187554    -0.03216657634    
264575000         -0.01276600556    -0.005235417126   0.3349832505      -0.9165550409     
                  0.3349832505      -0.9165550409     -0.02324023512    -0.0299813359     
279550000         -0.01651786482    -0.002986768513   0.1023558968      -0.9703122601     
                  0.1023558968      -0.9703122601     -0.02991131039    -0.02718431608    
294525000         -0.01831881705    0.001461073157    -0.1381239367     -0.9645481323     
                  -0.1381239367     -0.9645481323     -0.03839360053    -0.01880449584    
309500000         -0.01831768367    0.006443088762    -0.3685764454     -0.9013125402     
                  -0.3685764454     -0.9013125402     -0.03918897283    -0.009536940168   
324475000         -0.01439503503    0.01022612279     -0.5766335492     -0.7841560265     
                  -0.5766335492     -0.7841560265     -0.03403475636    -0.001501486457   
339450000         -0.009596022334   0.01270958955     -0.7491487956     -0.6201377948     
                  -0.7491487956     -0.6201377948     -0.02647031747    0.007896371228    
354425000         -0.004177333565   0.01321602966     -0.8771632201     -0.4188781868     
                  -0.8771632201     -0.4188781868     -0.01592794343    0.012532494       
369400000         0.0007928205489   0.01197190583     -0.9525369572     -0.1921246343     
                  -0.9525369572     -0.1921246343     -0.004130593707   0.01391793202     
384375000         0.004064068733    0.009148231358    -0.9700165868     0.04549211937     
                  -0.9700165868     0.04549211937     0.007931979269    0.006999207438    
399350000         0.00445064283     0.005009159046    -0.9291859361     0.2800950172      
                  -0.9291859361     0.2800950172      0.01137737413     -0.002624185931   
414325000         0.002771845944    0.001269220832    -0.8323843313     0.4980716232      
                  -0.8323843313     0.4980716232      0.0141178668      -0.01312859182    
429300000         -0.001540985097   -0.001618406118   -0.6858047753     0.6856701192      
                  -0.6858047753     0.6856701192      0.003374446885    -0.02249113306    
444275000         -0.006390315237   -0.002716430404   -0.4978799292     0.8314660554      
                  -0.4978799292     0.8314660554      -0.009238036217   -0.0261373695     
459250000         -0.01184433685    -0.001648512124   -0.2803212966     0.9267732422      
                  -0.2803212966     0.9267732422      -0.02112934054    -0.02547443695    
474225000         -0.01648679692    0.001056903636    -0.04557067606    0.9667150264      
                  -0.04557067606    0.9667150264      -0.03006719702    -0.02406298061    
489200000         -0.0178621687     0.005541694394    0.1910233065      0.9476518386      
                  0.1910233065      0.9476518386      -0.03466164988    -0.02107179233    
504175000         -0.01799525627    0.009480152586    0.4156788725      0.872586476       
                  0.4156788725      0.872586476       -0.0390924729     -0.01628057071    
519150000         -0.01462878703    0.01311856988     0.6148495799      0.744944273       
                  0.6148495799      0.744944273       -0.03679292706    -0.00799553596    
534125000         -0.00984453173    0.01569211108     0.7774004652      0.5722856985      
                  0.7774004652      0.5722856985      -0.02806418246    0.001420563639    
549100000         -0.003729954866   0.01634320903     0.8928878048      0.3653368397      
                  0.8928878048      0.3653368397      -0.01667738709    0.009230779463    
564075000         0.001625249606    0.01495055475     0.9549141431      0.1372459194      
                  0.9549141431      0.1372459194      -0.001587668438   0.01266022927     
579050000         0.005445405737    0.01213333356     0.9591535161      -0.09917913647    
                  0.9591535161      -0.09917913647    0.01055102317     0.01079156253     
594025000         0.006709872707    0.008738265387    0.9059646255      -0.3299217553     
                  0.9059646255      -0.3299217553     0.01613057709     0.002468203551    
609000000         0.005545550931    0.005051365334    0.7977264581      -0.5397287586     
                  0.7977264581      -0.5397287586     0.01154048812     -0.00555938061    
623975000         0.001785314419    0.002839708193    0.6422792568      -0.7177075238     
                  0.6422792568      -0.7177075238     0.003646762845    -0.01402945087    
638950000         -0.003790138828   0.002529184285    0.4476516353      -0.8519978657     
                  0.4476516353      -0.8519978657     -0.008853692034   -0.01853942724    
653925000         -0.01002248116    0.003424349124    0.2264593711      -0.9350233822     
                  0.2264593711      -0.9350233822     -0.01758163038    -0.01789245331    
668900000         -0.01534003898    0.006188034558    -0.007657063755   -0.9610650653     
                  -0.007657063755   -0.9610650653     -0.02294287244    -0.01977050946    
683875000         -0.0186562042     0.009867675444    -0.241311952      -0.9299752973     
                  -0.241311952      -0.9299752973     -0.02647211419    -0.02085338334    
698850000         -0.0194847498     0.0143941695      -0.460377905      -0.8427338103     
                  -0.460377905      -0.8427338103     -0.0297918165     -0.01795302573    
713825000         -0.01681499933    0.01823511687     -0.6513418075     -0.7046352078     
                  -0.6513418075     -0.7046352078     -0.02739953378    -0.01638438826    
728800000         -0.01229790862    0.02081785194     -0.8028680172     -0.5248223058     
                  -0.8028680172     -0.5248223058     -0.02172818464    -0.004110630811   
743775000         -0.005919602604   0.0213545246      -0.9060475691     -0.313694935      
                  -0.9060475691     -0.313694935      -0.01051993775    0.0115033555      
758750000         0.00080508029     0.0201195304      -0.9548972649     -0.08408793187    
                  -0.9548972649     -0.08408793187    0.005047669672    0.01759722805     
773725000         0.006619891851    0.017595649       -0.9462354564     0.150747099       
                  -0.9462354564     0.150747099       0.01727315329     0.01781020051     
788700000         0.01015991189     0.01389218529     -0.880819986      0.3765079715      
                  -0.880819986      0.3765079715      0.02076608363     0.01256618133     
803675000         0.01099886249     0.0104510657      -0.7624707853     0.5791736734      
                  -0.7624707853     0.5791736734      0.01882849838     0.007987558023    
818650000         0.009078042377    0.007813850128    -0.5983929545     0.7473513456      
                  -0.5983929545     0.7473513456      0.01296093835     0.003055688879    
833625000         0.005179406646    0.007011423206    -0.3983508442     0.8700087208      
                  -0.3983508442     0.8700087208      0.006107695622    -0.002457154898   
848600000         -0.0001093101966  0.008446166988    -0.1744332532     0.9402913952      
                  -0.1744332532     0.9402913952      -0.002001992559   -0.007923149901   
863575000         -0.005233966132   0.01164301589     0.05967039004     0.9543389569      
                  0.05967039004     0.9543389569      -0.01133178005    -0.01112519789    
878550000         -0.008588098472   0.01593149026     0.2901045505      0.9104320766      
                  0.2901045505      0.9104320766      -0.0196487728     -0.0100656802     
893525000         -0.009946807085   0.02066145215     0.5025101716      0.8121251256      
                  0.5025101716      0.8121251256      -0.02300927011    -0.004163444059   
908500000         -0.00793674102    0.02404605966     0.6846384828      0.665114352       
                  0.6846384828      0.665114352       -0.02093660321    0.005190890448    
923475000         -0.003521685192   0.02561644315     0.8253862299      0.4779820068      
                  0.8253862299      0.4779820068      -0.01478474434    0.01432936634     
938450000         0.001651613248    0.02467865591     0.9168127803      0.2632123182      
                  0.9168127803      0.2632123182      -0.004724781301   0.01997123087     
953425000         0.007331764763    0.02091886251     0.9532147202      0.03207994545     
                  0.9532147202      0.03207994545     0.003991155221    0.02134794327     
968400000         0.01163016327     0.01529153843     0.9321887493      -0.2005997495     
                  0.9321887493      -0.2005997495     0.01041740229     0.01693391312     
983375000         0.0138757175      0.008419537546    0.8548452324      -0.4213867681     
                  0.8548452324      -0.4213867681     0.01123263424     0.01150719174     
998350000         0.01332577199     0.002464722829    0.7264351751      -0.6166449231     
                  0.7264351751      -0.6166449231     0.008773225943    0.006504988704    
1013325000        0.009795019902    -0.002117732753   0.5541136435      -0.7745322615     
                  0.5541136435      -0.7745322615     0.005949641041    0.004098090035    
1028300000        0.00420273405     -0.003869835517   0.3490152223      -0.8857336819     
                  0.3490152223      -0.8857336819     0.0023777068      0.001472930038    
1043275000        -0.002336031742   -0.002292381358   0.1227208143      -0.9436454582     
                  0.1227208143      -0.9436454582     -0.002055241699   -5.952068176e-05  
1058250000        -0.008172008584   0.002393144158    -0.1106840227     -0.9448277683     
                  -0.1106840227     -0.9448277683     -0.005723425808   -0.0004882097257  
1073225000        -0.01205870892    0.009035800097    -0.3368927031     -0.8890633965     
                  -0.3368927031     -0.8890633965     -0.01143743122    0.002597556035    
1088200000        -0.01303159223    0.01644901994     -0.5430234345     -0.7799270821     
                  -0.5430234345     -0.7799270821     -0.01480543184    0.009888457469    
1103175000        -0.01093020899    0.02292055268     -0.715857178      -0.6241328295     
                  -0.715857178      -0.6241328295     -0.01241866704    0.01902941482     
1118150000        -0.006263725254   0.02722139243     -0.8461140894     -0.431306192      
                  -0.8461140894     -0.431306192      -0.005572209053   0.02648532794     
1133125000        2.403037554e-05   0.0283208084      -0.9251360385     -0.2127292057     
                  -0.9251360385     -0.2127292057     0.003286154803    0.02912513415     
1148100000        0.006325345238    0.02601741584     -0.9488298085     0.01876264158     
                  -0.9488298085     0.01876264158     0.009723075905    0.02671936503     
1163075000        0.01125223867     0.02095460026     -0.915589715      0.249302075       
                  -0.915589715      0.249302075       0.01324779774     0.02175928554     
1178050000        0.01328919586     0.01448840905     -0.827151426      0.4643923774      
                  -0.827151426      0.4643923774      0.013103884       0.01685891348     
1193025000        0.01224368199     0.008345863026    -0.6890525707     0.6515688734      
                  -0.6890525707     0.6515688734      0.009271618705    0.01211467123     
1208000000        0.00793841632     0.003889652755    -0.5095919887     0.7992421643      
                  -0.5095919887     0.7992421643      0.00413288773     0.009264520086    
1222975000        0.001717509388    0.002426273343    -0.2996771457     0.8990673149      
                  -0.2996771457     0.8990673149      -0.004149124646   0.007214892474    
1237950000        -0.005062470443   0.004892843203    -0.07207144842    0.9444651928      
                  -0.07207144842    0.9444651928      -0.01593612424    0.009165028014    
1252925000        -0.01084441721    0.01046287249     0.1599218979      0.933085726       
                  0.1599218979      0.933085726       -0.02442062166    0.01479382047     
1267900000        -0.01447435124    0.0180153576      0.3818997588      0.8657650633      
                  0.3818997588      0.8657650633      -0.02825003169    0.02639771886     
1282875000        -0.01446634411    0.02568939839     0.5808690683      0.746590942       
                  0.5808690683      0.746590942       -0.02452500921    0.03672840417     
1297850000        -0.01113105682    0.0324182791      0.7446157375      0.5827671793      
                  0.7446157375      0.5827671793      -0.01714644696    0.04213018733     
1312825000        -0.00474675496    0.03629493586     0.8636618584      0.3841696691      
                  0.8636618584      0.3841696691      -0.006394529583   0.04341889396     
1327800000        0.003068800103    0.03636027992     0.9309969921      0.162483686       
                  0.9309969921      0.162483686       0.001555810387    0.03919338349     
1342775000        0.01091179015     0.03265489188     0.9421699746      -0.06857085029    
                  0.9421699746      -0.06857085029    0.009709190967    0.034523375       
1357750000        0.01691091493     0.02582421794     0.8970620587      -0.2959867204     
                  0.8970620587      -0.2959867204     0.01519192778     0.02721996356     
1372725000        0.02004788534     0.01712961229     0.7979755437      -0.5050494144     
                  0.7979755437      -0.5050494144     0.01777169577     0.02008195218     
1387700000        0.01949978036     0.008741549903    0.6508441791      -0.6840759324     
                  0.6508441791      -0.6840759324     0.01574433594     0.01762451529     
1402675000        0.01600014842     0.002555882105    0.4644999763      -0.8214728846     
                  0.4644999763      -0.8214728846     0.01205166463     0.01934513893     
1417650000        0.0101644216      -0.0002928463492  0.250649969       -0.9094458364     
                  0.250649969       -0.9094458364     0.008700008517    0.02424230089     
1432625000        0.003190549497    0.0008695600851   0.02147784121     -0.942976648      
                  0.02147784121     -0.942976648      0.005428114408    0.02745806069     
1447600000        -0.002835338589   0.005754582279    -0.2085285544     -0.9197251912     
                  -0.2085285544     -0.9197251912     -0.001685277653   0.03074337411     
1462575000        -0.006487478786   0.01349652604     -0.4257348975     -0.8409239264     
                  -0.4257348975     -0.8409239264     -0.007401329573   0.03377895234     
1477550000        -0.007002042287   0.02192311704     -0.6171992585     -0.7120736476     
                  -0.6171992585     -0.7120736476     -0.01198997195    0.03682535488     
1492525000        -0.004260709973   0.02935715955     -0.7712661707     -0.5403167743     
                  -0.7712661707     -0.5403167743     -0.01177833413    0.04066695012     
1507500000        0.001112103273    0.03400358297     -0.8789820115     -0.3363469383     
                  -0.8789820115     -0.3363469383     -0.00694658868    0.04106337174     
1522475000        0.00773880308     0.03477435767     -0.9342381099     -0.112756489      
                  -0.9342381099     -0.112756489      0.00161444314     0.03809582118     
1537450000        0.01403217991     0.03150619487     -0.93344797       0.1178315033      
                  -0.93344797       0.1178315033      0.01038265672     0.03028096623     
1552425000        0.01843883176     0.02500358633     -0.8766981729     0.3412224399      
                  -0.8766981729     0.3412224399      0.0163015155      0.01995810432     
1567400000        0.01953909348     0.0168391495      -0.7671175697     0.5443943635      
                  -0.7671175697     0.5443943635      0.01501407245     0.009072250231    
1582375000        0.01746439706     0.0089114814      -0.6111071208     0.7144666443      
                  -0.6111071208     0.7144666443      0.01062553949     0.002482100914    
1597350000        0.01227143406     0.0032155295      -0.4186619309     0.8415181136      
                  -0.4186619309     0.8415181136      0.002638107354    0.002626053632    
1612325000        0.005007771029    0.0007815129652   -0.2010338751     0.9179956778      
                  -0.2010338751     0.9179956778      -0.007395025117   0.006299862849    
1627300000        -0.002394163879   0.003156276309    0.02811317946     0.9388616113      
                  0.02811317946     0.9388616113      -0.01707570346    0.01345505521     
