#  HZ   S   RI   R     50.00 
! Rohde & Schwarz Vector Network Analyzer 
! Rohde-Schwarz,ZNB20-4Port,1311601064101718,2.70
! Created: UTC 10/12/2016, 3:31:59 AM
! freq[Hz]                re:S11                  im:S11                  re:S21                  im:S21                  re:S12                  im:S12                  re:S22                  im:S22
 5.000000000000000E8    -3.062845232128238E-3    1.978273473900283E-3    6.428584658878622E-1   -2.988600673386239E-1    6.414446986807240E-1   -2.943636531098717E-1    5.260464473154848E-3   -4.578072587666980E-3
 5.500000000000000E8    -4.191949813120330E-3   -1.587939206163281E-3    6.296183606119080E-1   -3.226550001481469E-1    6.270157752153955E-1   -3.191892244335572E-1    4.251521436472023E-3   -5.739258383127222E-3
 6.000000000000000E8     1.384804118204144E-3   -5.838469206261287E-3    6.143941101755708E-1   -3.514610840519347E-1    6.135905998276808E-1   -3.460424284548320E-1    3.568689367398863E-3    3.751474383728123E-3
 6.500000000000000E8     7.106199755644792E-3   -1.171090964765584E-2    5.959018596302006E-1   -3.776650442284821E-1    5.971602039023016E-1   -3.690964498382466E-1    5.232211355529228E-3    1.549326498598354E-3
 7.000000000000000E8     7.709885226659753E-3   -5.104445142343235E-3    5.828737762317627E-1   -4.009913735297171E-1    5.828907369013474E-1   -3.951948576887823E-1    4.578127303359991E-3   -1.532414113783808E-3
 7.500000000000000E8     6.369996824988284E-3    2.732498997635996E-3    5.645964832225425E-1   -4.275693511537930E-1    5.655042272178518E-1   -4.203422840322186E-1    1.163877550272998E-3   -1.790176833798049E-3
 8.000000000000000E8     5.657496770066280E-3    1.281150727791513E-3    5.448725332001444E-1   -4.488991086180464E-1    5.464427437314646E-1   -4.420833950569850E-1    7.849222887260692E-3   -5.332075281659309E-3
 8.500000000000000E8     3.462777832693678E-3    2.679257860190080E-3    5.242598729417970E-1   -4.726495161767835E-1    5.267850328779640E-1   -4.652755561439645E-1    1.199786144087608E-2   -5.181516255811025E-3
 9.000000000000000E8    -4.921548243981069E-4   -5.961992038339761E-4    5.049941512562193E-1   -4.934800324142509E-1    5.086775291975682E-1   -4.862823455533227E-1    7.307235471076369E-3   -2.255528712023393E-3
 9.500000000000000E8     3.010215370089792E-3   -4.583502497372811E-3    4.841640103836092E-1   -5.158288337359450E-1    4.867334650073224E-1   -5.100161691243512E-1    9.596465191860037E-3    2.485834688280847E-3
 1.000000000000000E9    -6.097474745042440E-4   -8.929575774080422E-3    4.629825765194472E-1   -5.320129588028160E-1    4.609895356007523E-1   -5.311424650026921E-1    7.162687521291093E-3   -1.710063043544530E-3
 1.050000000000000E9     9.076536826329012E-3   -8.552825668581583E-3    4.364731967336361E-1   -5.499972646280418E-1    4.355856096270430E-1   -5.469819577504514E-1    1.116620516595752E-2   -1.298765518594846E-2
 1.100000000000000E9     1.006659129971976E-2   -5.772553514341611E-3    4.125602077604468E-1   -5.698427705765882E-1    4.109445982980494E-1   -5.651564550753198E-1    1.002018582257348E-2   -1.025810254700565E-2
 1.150000000000000E9     1.584356038537686E-2   -9.290783912521677E-4    3.872631308203507E-1   -5.853101007003713E-1    3.889792668637787E-1   -5.807715587000990E-1    1.510580190572499E-2   -1.403734968079506E-2
 1.200000000000000E9     4.553120432986380E-3    2.433178159568932E-3    3.592350834364060E-1   -5.988129420710388E-1    3.631009072824418E-1   -5.927650818351820E-1    9.976673005180183E-3   -1.334878147165069E-2
 1.250000000000000E9     1.005937022412157E-2   -3.984006389880186E-3    3.343283442957706E-1   -6.100717671466873E-1    3.371026629035573E-1   -6.061683358593468E-1    1.867671659403710E-3   -6.725836068753660E-3
 1.300000000000000E9     1.771037389220003E-3   -5.591728271462752E-4    3.113698422268683E-1   -6.220912131666232E-1    3.130188488610730E-1   -6.187407284282015E-1    1.019793474725919E-2   -7.518660742193165E-3
 1.350000000000000E9     9.225826292163564E-3   -4.109190892946316E-3    2.864250710851067E-1   -6.351785752471654E-1    2.877601426393510E-1   -6.319561255750663E-1    1.149072088981080E-2   -1.325587829950263E-2
 1.400000000000000E9     4.798179648039217E-3   -2.298544731873384E-3    2.606755259747105E-1   -6.456003931935745E-1    2.615045334805911E-1   -6.421344365442354E-1    6.599494573826557E-3   -1.152918363144611E-2
 1.450000000000000E9     1.343007098519426E-2    4.222916584376429E-3    2.316919134919221E-1   -6.563701500821855E-1    2.368437009295963E-1   -6.507654192968406E-1    1.554189476351469E-2   -9.828405501054774E-3
 1.500000000000000E9     6.490051350516148E-3    7.256941592418235E-4    2.077998748970411E-1   -6.655119422329421E-1    2.120351474263637E-1   -6.607671019803716E-1    1.282163672239516E-2   -1.456943936046483E-2
 1.550000000000000E9     6.723854902146250E-3    3.382843506595241E-3    1.817890410309112E-1   -6.739878693304356E-1    1.855184095582156E-1   -6.697314270074396E-1    4.149310750946642E-3   -2.495186338353498E-2
 1.600000000000000E9     3.202757918051639E-3    3.241936598643698E-3    1.520535372140789E-1   -6.809964770009472E-1    1.538914782545416E-1   -6.774925834629004E-1    3.048314273326164E-3   -1.052331669486940E-2
 1.650000000000000E9     7.541464356054479E-3    3.299579344170307E-3    1.223611253826098E-1   -6.865393695618609E-1    1.273862568001288E-1   -6.829565211107490E-1    1.012909632010465E-2   -1.166735124020142E-2
 1.700000000000000E9     4.029125047835876E-3    1.764376770254945E-3    9.174722440107147E-2   -6.906889853654725E-1    1.014380405655811E-1   -6.861794181315867E-1    9.524806043575144E-3   -1.526913778921383E-2
 1.750000000000000E9    -7.324015055231257E-4    1.417457228184121E-3    6.172336583822024E-2   -6.947903291937049E-1    7.543454486806824E-2   -6.894711719845691E-1    9.260321856466167E-3   -1.105666217964401E-2
 1.800000000000000E9    -8.066263576357313E-4   -5.781558263280562E-4    3.411905385365134E-2   -6.969270447912710E-1    4.301695207958298E-2   -6.939170680728745E-1    1.065632057026404E-2   -1.238683233704463E-2
 1.850000000000000E9     2.552274913381905E-3   -1.728730578646150E-3    5.757797297670267E-3   -6.986645556567231E-1    1.510983192545272E-2   -6.941826950087527E-1    2.445857918927519E-2   -2.829523689216911E-2
 1.900000000000000E9     5.360293213160998E-3   -4.260139761885263E-3   -1.920967002985512E-2   -6.965421017016915E-1   -1.258382007959226E-2   -6.939392725099162E-1    1.075759486260200E-2   -2.053434690196589E-2
 1.950000000000000E9     3.227298102166085E-3   -5.998477870937519E-3   -4.916293377583914E-2   -6.939449082078995E-1   -4.167057970040518E-2   -6.938326226218772E-1    1.022869779832879E-2   -1.756086911340699E-2
 2.000000000000000E9     5.035835841294700E-3   -3.287840359410019E-3   -8.110690751456580E-2   -6.921245593816631E-1   -7.198878758724796E-2   -6.921944771454471E-1    9.189158361065840E-3   -1.694239050923397E-2
 2.050000000000000E9     3.568338943154267E-3   -3.856987433911475E-4   -1.133562485108201E-1   -6.905300584930593E-1   -9.767582706115111E-2   -6.889274513750630E-1   -3.886265554425447E-3   -2.711891472953562E-2
 2.100000000000000E9     4.139288959919475E-3    1.537800753880363E-3   -1.410717440037003E-1   -6.834037451733788E-1   -1.237833902723675E-1   -6.848152832216073E-1    9.885378507084791E-3   -2.163145673535945E-2
 2.150000000000000E9    -2.930805128472411E-3   -1.500615539740152E-3   -1.667202686581097E-1   -6.785934472209561E-1   -1.541399992654959E-1   -6.790135980276676E-1    1.472981621928553E-2   -2.486751237163647E-2
 2.200000000000000E9    -4.022337309664323E-3   -6.557602191854181E-3   -1.915774777732655E-1   -6.727475873560697E-1   -1.848423454701437E-1   -6.724883638991999E-1    1.242740869060662E-2   -2.430190762586861E-2
 2.250000000000000E9    -1.848072074149283E-3   -1.172829889911206E-2   -2.204893828955865E-1   -6.639186920037346E-1   -2.135262268860406E-1   -6.636002229999963E-1    1.003570099190876E-2   -1.771903231847756E-2
 2.300000000000000E9     1.099356085625609E-2   -1.403451655071235E-2   -2.464727848604266E-1   -6.535419034596076E-1   -2.384367287994239E-1   -6.537104547884949E-1    7.018965445414728E-3   -2.158662492709451E-2
 2.350000000000000E9     1.197889941759831E-2   -6.857949386034949E-3   -2.732415293128182E-1   -6.420463628534949E-1   -2.693284331575064E-1   -6.415395330614063E-1    1.562991712325278E-2   -4.608596803524142E-2
 2.400000000000000E9     1.128414332300802E-2    1.103821681748336E-3   -2.908664417176649E-1   -6.337424433836277E-1   -3.053592100644810E-1   -6.238960041059284E-1    4.324440802988300E-3   -2.532923295484333E-2
 2.450000000000000E9    -1.388571254967531E-3    4.998895400758208E-3   -3.112901794015663E-1   -6.253036760222002E-1   -3.312024906430716E-1   -6.116076853023927E-1    8.831157343819087E-3   -1.971125391148180E-2
 2.500000000000000E9    -6.170484994037807E-4   -5.282772576022526E-3   -3.299228108760882E-1   -6.148679363621896E-1   -3.540152067191245E-1   -5.966647540253778E-1    1.267560056248000E-2   -2.510993504444206E-2
 2.550000000000000E9     1.334766333502269E-4   -7.095003000531055E-3   -3.606881098228921E-1   -5.977076324780826E-1   -3.851106304849288E-1   -5.747668127062297E-1    8.824116929870136E-3   -1.265295113298109E-2
 2.600000000000000E9     8.819915828463521E-3   -1.143212792963053E-2   -3.833592520631149E-1   -5.824300819257572E-1   -4.107868714958609E-1   -5.560817234122853E-1    8.113439872236146E-3   -2.542344860865634E-2
 2.650000000000000E9     4.927788163890858E-3   -3.431947490816563E-3   -4.162897869125101E-1   -5.599238583150676E-1   -4.317108862064356E-1   -5.395484899583773E-1    5.725907600546785E-3   -1.252499060678997E-2
 2.700000000000000E9     6.947009485488104E-3   -6.237275463063543E-3   -4.463281231685155E-1   -5.357713015070608E-1   -4.508038490329821E-1   -5.231593384444633E-1    9.328876395666706E-3   -2.566817466429739E-2
 2.750000000000000E9    -1.068154637060059E-3   -8.195206898038764E-5   -4.738793025235206E-1   -5.103707296327543E-1   -4.665523537565876E-1   -5.088542365592215E-1    5.796560903170607E-3   -1.755838836870287E-2
 2.800000000000000E9     6.394304333378873E-3   -1.031581344059967E-2   -4.980925389366981E-1   -4.857020413338382E-1   -4.819879288889520E-1   -4.945274629370707E-1    9.720198815482429E-3   -2.671827104214761E-2
 2.850000000000000E9     3.263376854278188E-3   -7.922937351942066E-4   -5.176818590749068E-1   -4.633234870348737E-1   -5.026010676624673E-1   -4.747214663958176E-1   -1.044605832182383E-5   -6.420771248784471E-2
 2.900000000000000E9     5.546024402615668E-3   -8.047444283900430E-3   -5.365427654521630E-1   -4.410566097688453E-1   -5.233385152948409E-1   -4.501022543229509E-1    1.186025395823187E-2   -3.091426866386055E-2
 2.950000000000000E9    -4.452430516205029E-3    4.148737605822723E-3   -5.533073146430076E-1   -4.187717230235775E-1   -5.424986242090143E-1   -4.276170479709028E-1    8.088283349381494E-3   -2.201013232241017E-2
 3.000000000000000E9     1.571523303456171E-3   -1.191427307348212E-2   -5.686842778891638E-1   -3.962087709421886E-1   -5.599616258738384E-1   -4.029772462748364E-1    1.172531600980481E-2   -3.314672319780437E-2
 3.050000000000000E9    -2.936755671565847E-3   -2.198258679723543E-3   -5.894280594670883E-1   -3.639590462368935E-1   -5.725991523037616E-1   -3.879442267875853E-1    5.385708966793176E-3   -2.507211225077169E-2
 3.100000000000000E9    -1.038656687208193E-3   -1.379187084433579E-2   -6.036475052751635E-1   -3.357978336922451E-1   -5.887855802925056E-1   -3.625690476942965E-1    1.046715131844631E-2   -3.463635672590386E-2
 3.150000000000000E9    -3.487320643291514E-3   -3.863668980111813E-3   -6.155197578145356E-1   -3.149052792919687E-1   -6.041397266528159E-1   -3.358486366501583E-1    5.219392912371039E-2   -6.822863427653270E-2
 3.200000000000000E9    -1.069746572987512E-3   -1.672583116772258E-2   -6.266510902165443E-1   -2.922124238521543E-1   -6.182142286534375E-1   -3.089571058195322E-1    1.092043586284963E-2   -3.603067429020077E-2
 3.250000000000000E9    -3.386310812326886E-3   -3.767131487156416E-3   -6.382215792016130E-1   -2.676660087615937E-1   -6.291654224431480E-1   -2.830382622750211E-1    6.120632756727481E-3   -2.775610212247943E-2
 3.300000000000000E9    -2.736657961118116E-3   -1.440451279185824E-2   -6.485409749726300E-1   -2.388891596443161E-1   -6.406865921481163E-1   -2.554172401880338E-1    9.331228460918137E-3   -4.005605196686264E-2
 3.350000000000000E9    -7.733459253185958E-3   -2.520553761600677E-3   -6.590364186591098E-1   -2.092715285826290E-1   -6.502793720704465E-1   -2.287705878852975E-1    4.390148245737892E-3   -2.767554839086834E-2
 3.400000000000000E9    -1.020584482684055E-2   -1.768042082846343E-2   -6.645608443981541E-1   -1.849264107052747E-1   -6.583294831491645E-1   -1.970883924130038E-1    1.254032014270277E-2   -4.390961652370617E-2
 3.450000000000000E9    -1.176239903750975E-2   -1.032708528422410E-2   -6.731237136950274E-1   -1.565295414410693E-1   -6.671490155322125E-1   -1.689585197724224E-1    6.602135971719370E-3   -3.176490703383932E-2
 3.500000000000000E9    -8.863229403459606E-3   -2.397947417785942E-2   -6.778067342578513E-1   -1.269271238599151E-1   -6.723414277867911E-1   -1.392364088725031E-1    1.107067005282280E-2   -4.399579784616371E-2
 3.550000000000000E9    -8.467918048270087E-3   -8.634009375501094E-3   -6.838592289812270E-1   -9.986598387770514E-2   -6.761530899735986E-1   -1.062803303592055E-1    8.493478627894353E-3   -3.591618639113853E-2
 3.600000000000000E9    -9.663995671590278E-3   -2.008603703143068E-2   -6.865647193644663E-1   -7.092546469863410E-2   -6.808862234460092E-1   -7.851031844287536E-2    1.592115459731559E-2   -4.951601801175826E-2
 3.650000000000000E9    -1.240597914195526E-2   -7.035584749842297E-3   -6.885166222820567E-1   -4.138079778192053E-2   -6.853320338378832E-1   -5.186521542502602E-2    8.935205664959495E-3   -3.731530824919606E-2
 3.700000000000000E9    -1.699962531068947E-2   -2.131187413028166E-2   -6.894449356877445E-1   -1.144921677416698E-2   -6.863465355255575E-1   -2.027970252976059E-2    1.315163234999075E-2   -5.329234761022522E-2
 3.750000000000000E9    -1.609978814263960E-2   -1.073990995800852E-2   -6.900688706236464E-1    1.672421703834012E-2   -6.869676343208987E-1    9.933377506334128E-3    8.529214581006368E-3   -4.626012318056217E-2
 3.800000000000000E9    -1.977884135710981E-2   -1.999246408033486E-2   -6.866142403562439E-1    4.772838245568307E-2   -6.842631396283506E-1    3.932496938798035E-2    1.083574579523446E-2   -6.125314115002459E-2
 3.850000000000000E9    -2.186712799379953E-2   -9.537659148523774E-3   -6.833737954408828E-1    7.972065119963956E-2   -6.812791734572525E-1    6.800733980461897E-2    8.773407978566390E-3   -5.520404208914571E-2
 3.900000000000000E9    -2.746647045774797E-2   -2.249260016681244E-2   -6.782219644707188E-1    1.083716993094582E-1   -6.753399191214573E-1    9.992850703562944E-2    1.191105952397940E-2   -6.811425027812691E-2
 3.950000000000000E9    -2.292167427300956E-2   -1.264789602373801E-2   -6.722618391684633E-1    1.361566083034137E-1   -6.705383245404835E-1    1.305032067254597E-1    7.014709224772313E-3   -5.624213743917824E-2
 4.000000000000000E9    -2.605823780736056E-2   -1.979916994193430E-2   -6.659850136729859E-1    1.649665187797026E-1   -6.648781870968836E-1    1.595608702035287E-1    8.113041619160599E-3   -7.501867666670714E-2
 4.050000000000000E9    -2.642542868333931E-2   -7.865028147019648E-3   -6.545836258014967E-1    1.998269543806253E-1   -6.582775061586746E-1    1.853633948728750E-1    7.952025638376780E-3   -7.011084574092595E-2
 4.100000000000000E9    -3.517676985794381E-2   -1.349979417372878E-2   -6.464444220404337E-1    2.264441159576616E-1   -6.512094127149429E-1    2.132534073736659E-1    8.850913696432899E-3   -8.141392073414816E-2
 4.150000000000000E9    -3.428208530031288E-2   -5.045176522376248E-3   -6.343137312200655E-1    2.587066992828210E-1   -6.403456065627317E-1    2.404737634950679E-1    2.572056924302582E-3   -6.805808765965951E-2
 4.200000000000000E9    -4.039702520203830E-2   -1.378703044888673E-2   -6.227689642437975E-1    2.855283263570560E-1   -6.285971414172058E-1    2.647912566782100E-1    1.917820410721596E-3   -8.644687589900267E-2
 4.250000000000000E9    -3.640474868176134E-2   -3.952815402161976E-3   -6.086291458479065E-1    3.109347749695289E-1   -6.161806042039575E-1    2.910327712455011E-1   -2.832057935590493E-3   -8.130424752717637E-2
 4.300000000000000E9    -4.434938807643950E-2   -6.361192513903456E-3   -5.936645113847867E-1    3.355176602251208E-1   -6.006854044656550E-1    3.165559449037821E-1   -1.824862988298391E-3   -9.638843013091861E-2
 4.350000000000000E9    -4.365087624380869E-2    4.062772099200607E-3   -5.777373011272287E-1    3.625088085159685E-1   -5.853064093466156E-1    3.423522792450574E-1   -3.391035658487199E-3   -9.214210167752526E-2
 4.400000000000000E9    -5.396168643375571E-2   -1.272702452566572E-3   -5.620136303632759E-1    3.830902865849251E-1   -5.677008330251158E-1    3.678689281076270E-1   -6.125020994439042E-3   -1.042898627922650E-1
 4.450000000000000E9    -4.836382111501154E-2    3.789919926124347E-3   -5.434349192079924E-1    4.074919280209461E-1   -5.509986648326173E-1    3.919389337729113E-1   -1.455573525124654E-2   -9.823875510969699E-2
 4.500000000000000E9    -5.318002146193011E-2    4.794752872513325E-3   -5.204010633195438E-1    4.310747617204847E-1   -5.282575922607022E-1    4.151408895049426E-1   -1.517901388235147E-2   -1.144877399985874E-1
 4.550000000000000E9    -6.425074113314776E-2    1.233135411784653E-2   -4.955312065165283E-1    4.550665294821017E-1   -5.089496741060329E-1    4.388615139538860E-1   -2.774763846700942E-2   -1.093204131578640E-1
 4.600000000000000E9    -5.997857342095592E-2    1.935533692299598E-2   -4.742969836518904E-1    4.761185903654437E-1   -4.866612144512617E-1    4.590541809531094E-1   -2.143327133351631E-2   -1.237965476249189E-1
 4.650000000000000E9    -5.650149312554385E-2    3.940579035181338E-2   -4.547901861318031E-1    4.945639253885476E-1   -4.621376535757334E-1    4.797646696434849E-1   -2.918918617869068E-2   -1.247054015563181E-1
 4.700000000000000E9    -6.549702737799071E-2    2.622091249677618E-2   -4.313671782512346E-1    5.099629653125991E-1   -4.369065590565722E-1    5.004294770404894E-1   -3.422571743943795E-2   -1.372429918549642E-1
 4.750000000000000E9    -6.449285506979019E-2    3.282568345651453E-2   -4.054935811473689E-1    5.278622538875882E-1   -4.097128477779316E-1    5.201864457874037E-1   -4.010315870969191E-2   -1.356330513404912E-1
 4.800000000000000E9    -6.409750801044102E-2    3.710111056394799E-2   -3.820815254427363E-1    5.413835432191901E-1   -3.850143238531698E-1    5.346426280627006E-1   -4.495999195998894E-2   -1.467313114518681E-1
 4.850000000000000E9    -6.428703939126436E-2    4.588728740976338E-2   -3.521142942920137E-1    5.571059953414926E-1   -3.549694864287573E-1    5.503012782273414E-1   -5.673082622822845E-2   -1.494017253813039E-1
 4.900000000000000E9    -6.282138688946086E-2    5.307922611130164E-2   -3.259158507221998E-1    5.684609182627214E-1   -3.262709446635248E-1    5.632558996299795E-1   -6.848546914413728E-2   -1.608225354643143E-1
 4.950000000000000E9    -6.561305513253841E-2    6.699870488012594E-2   -2.912193695296977E-1    5.813531560728197E-1   -2.984882011153043E-1    5.731513408387641E-1   -8.591942243750439E-2   -1.644989396393618E-1
 5.000000000000000E9    -5.926936513819198E-2    7.376567738985131E-2   -2.610190286529107E-1    5.909377241899622E-1   -2.685943824248676E-1    5.824887094906862E-1   -8.829944485448406E-2   -1.741869472519319E-1
