#  HZ   S   RI   R     50.00 
! Rohde & Schwarz Vector Network Analyzer 
! Rohde-Schwarz,ZNB20-4Port,1311601064101718,2.70
! Created: UTC 10/12/2016, 3:30:56 AM
! freq[Hz]                re:S11                  im:S11                  re:S21                  im:S21                  re:S12                  im:S12                  re:S22                  im:S22
 5.000000000000000E8    -4.588756281624536E-3    3.932857988437764E-3    4.555508935553364E-1   -2.132061543744969E-1    4.547910456225390E-1   -2.101511534115750E-1    4.892850573804891E-3   -2.855028532872153E-3
 5.500000000000000E8    -6.990167262504326E-3    4.578991139306508E-4    4.463974054934713E-1   -2.304163814873151E-1    4.441684781693017E-1   -2.281039333901324E-1    2.565525852754986E-3   -5.506746782870281E-3
 6.000000000000000E8    -1.844313552645298E-3   -3.311373371811044E-3    4.354859104608371E-1   -2.509225131867092E-1    4.348848130045788E-1   -2.471321945177432E-1    1.992368205120462E-3    2.568592153148282E-3
 6.500000000000000E8     3.488273732127698E-3   -8.618444651929045E-3    4.221306471851171E-1   -2.691439956385817E-1    4.230394035060487E-1   -2.640556746190284E-1    2.852328672025013E-3    1.259520456836136E-3
 7.000000000000000E8     4.923459848977995E-3   -3.406217610572974E-3    4.127300125276278E-1   -2.859787120609042E-1    4.123720320547928E-1   -2.822659339128928E-1    1.602068694041017E-3   -2.316828866678585E-3
 7.500000000000000E8     5.291284955076241E-3    2.634829678640331E-3    3.994084529400184E-1   -3.048758202428366E-1    3.999422735762309E-1   -3.002190708387244E-1   -1.859654634039976E-3   -1.864321312115149E-3
 8.000000000000000E8     4.066218614935075E-3    3.460889333766747E-3    3.856131815934070E-1   -3.208381883811505E-1    3.862822190812479E-1   -3.152333826103284E-1    4.475928084702958E-3   -4.124029311505573E-3
 8.500000000000000E8    -1.272350623251293E-4    4.774300780153675E-3    3.707018284781932E-1   -3.371448485495131E-1    3.722981613246407E-1   -3.320891211808943E-1    7.553753182369350E-3   -4.445728644289744E-3
 9.000000000000000E8    -3.053143849475928E-3    2.598138686799665E-3    3.566474057786207E-1   -3.515021801826562E-1    3.590522091910775E-1   -3.465128146867691E-1    4.187070610027133E-3   -2.203237462304013E-3
 9.500000000000000E8    -2.057723049854148E-3   -1.612160890548768E-3    3.415444921604427E-1   -3.678682410707104E-1    3.437041558240649E-1   -3.639699660076278E-1    4.271865334482626E-3    2.099780780395012E-3
 1.000000000000000E9    -3.676139467031553E-3   -6.565899492204275E-3    3.262443526053335E-1   -3.794752945082833E-1    3.252563504695583E-1   -3.793109467671237E-1    3.461272888624482E-3   -1.881695974423834E-3
 1.050000000000000E9     4.689606380052589E-3   -6.899470736546537E-3    3.069253306050526E-1   -3.927910331259779E-1    3.066012320550637E-1   -3.898362488584853E-1    4.276040798632714E-3   -1.092851464551790E-2
 1.100000000000000E9     7.204358501495679E-3   -5.016014796306598E-3    2.906333536937305E-1   -4.065909198172892E-1    2.898265422612089E-1   -4.028175211621456E-1    3.538075515119008E-3   -6.893347970528978E-3
 1.150000000000000E9     1.065369401736334E-2    5.960121426876646E-4    2.721088571335672E-1   -4.174360413851773E-1    2.728122413664968E-1   -4.143159604621019E-1    8.802822296383716E-3   -8.046632189064266E-3
 1.200000000000000E9     4.086248769605188E-3    4.499156893036658E-3    2.526705051710655E-1   -4.263022875970086E-1    2.547346273155817E-1   -4.229693786582967E-1    6.413789218113524E-3   -8.967608374406777E-3
 1.250000000000000E9     6.225993741120492E-3   -3.173344744151724E-3    2.341468875411649E-1   -4.352280786140902E-1    2.358616361275020E-1   -4.324510352386732E-1   -3.280353696525597E-3   -3.805550337306583E-3
 1.300000000000000E9    -1.379525393639483E-3    5.085818214070424E-4    2.175461389710728E-1   -4.433045277718383E-1    2.186108140916751E-1   -4.412354239441210E-1    6.604557230762468E-3   -3.489258297982434E-3
 1.350000000000000E9     3.590562767326510E-3   -2.211906367392454E-3    1.997170913955543E-1   -4.527586725366694E-1    2.003781527813854E-1   -4.497705946286842E-1    7.307170764919322E-3   -7.451364502149139E-3
 1.400000000000000E9     1.820759333744914E-3   -2.869554708785449E-3    1.809638731730837E-1   -4.601554430931079E-1    1.816532135607790E-1   -4.573998521689951E-1    3.473341768633272E-3   -7.519017522217513E-3
 1.450000000000000E9     7.919710690833673E-3    3.039055728067302E-3    1.603616599403394E-1   -4.669380661308344E-1    1.641481352528357E-1   -4.638882082312065E-1    9.662838329654668E-3   -5.830632913796168E-3
 1.500000000000000E9     4.434911811172948E-3   -2.367812879471611E-4    1.427073178570601E-1   -4.743522633680238E-1    1.462296582709581E-1   -4.711373586053771E-1    9.208549820947815E-3   -8.676078558163328E-3
 1.550000000000000E9     5.370256923547158E-3    3.907449011098940E-3    1.240485759614412E-1   -4.792458177187495E-1    1.261473688203102E-1   -4.767101078531187E-1    2.806637783535494E-3   -1.937353486856093E-2
 1.600000000000000E9     2.798875626305453E-3    2.129218563137502E-3    1.033782528967159E-1   -4.841004609204438E-1    1.046477635296264E-1   -4.812970976312155E-1    2.090198834867503E-3   -6.562034515631174E-3
 1.650000000000000E9     4.453118973650581E-3    4.831467954453661E-3    8.150752708144254E-2   -4.877606945630871E-1    8.537722904447148E-2   -4.858847505331749E-1    6.884972032368876E-3   -7.655151345805802E-3
 1.700000000000000E9     7.916062503395341E-4    2.946735698137177E-3    6.025509563738189E-2   -4.910345557948024E-1    6.732500783700803E-2   -4.875226811536185E-1    6.286907048593873E-3   -1.074890729926674E-2
 1.750000000000000E9    -3.383976691743830E-3    3.525760729784796E-3    3.826759564077363E-2   -4.931084439130618E-1    4.864566153855261E-2   -4.896396925664928E-1    5.228097098320509E-3   -6.577231609448491E-3
 1.800000000000000E9    -2.040729526154573E-3   -1.579794828155348E-3    1.850126424760935E-2   -4.948202333401486E-1    2.491904652938110E-2   -4.928140339505437E-1    7.315179744481604E-3   -7.712660135413346E-3
 1.850000000000000E9     3.382930057238842E-4   -9.639572267011315E-4   -1.163099450669803E-3   -4.960121777547691E-1    5.072656424131964E-3   -4.927525789582882E-1    2.067959746397886E-2   -2.170116497113978E-2
 1.900000000000000E9     2.485461634719681E-3   -4.192440274588856E-3   -1.926863384533321E-2   -4.932601471620313E-1   -1.436244866163250E-2   -4.927953032694089E-1    7.583529272505524E-3   -1.242253901613709E-2
 1.950000000000000E9     1.666677902735287E-3   -2.810997495516093E-3   -4.095324283342627E-2   -4.921217409029923E-1   -3.589561921942428E-2   -4.916066962584255E-1    6.890597580193785E-3   -8.536892708591547E-3
 2.000000000000000E9     3.467588069494662E-3   -2.628164584311371E-3   -6.344949997499050E-2   -4.909497845652213E-1   -5.769547033158352E-2   -4.908269025503240E-1    6.267496775399947E-3   -1.026846804505069E-2
 2.050000000000000E9     3.264424328687671E-3    2.671858280666257E-3   -8.632697572593708E-2   -4.883274048324267E-1   -7.531400617034989E-2   -4.880813048610782E-1   -6.935739308161936E-3   -2.053422148041808E-2
 2.100000000000000E9     2.001267707399173E-3    3.421357470104190E-3   -1.056864664485198E-1   -4.835077021272359E-1   -9.428987874735913E-2   -4.846786476041440E-1    6.507949113337103E-3   -1.424307327278578E-2
 2.150000000000000E9    -4.407553990865145E-3    3.317310733602771E-3   -1.246201410290634E-1   -4.793701575033582E-1   -1.155070367645526E-1   -4.799732460071799E-1    1.202151382372425E-2   -1.469979169268897E-2
 2.200000000000000E9    -7.424147674589517E-3   -3.689781075441219E-3   -1.425778406767768E-1   -4.752370909257619E-1   -1.379752955812287E-1   -4.747464963733596E-1    9.841602666082350E-3   -1.492561895380369E-2
 2.250000000000000E9    -4.499185584102061E-3   -6.976319616339269E-3   -1.624237355329735E-1   -4.689613865902949E-1   -1.581122798528483E-1   -4.686807345726600E-1    7.775123699598330E-3   -8.080956063187653E-3
 2.300000000000000E9     6.624077041758382E-3   -1.218263678894047E-2   -1.813144961322939E-1   -4.607989982402896E-1   -1.760600436334487E-1   -4.611187575711739E-1    6.115953044066303E-3   -1.288597095204910E-2
 2.350000000000000E9     1.033496501078801E-2   -2.880566236405572E-3   -2.007282099993659E-1   -4.519988081403108E-1   -1.976166427010479E-1   -4.515953429226874E-1    1.647679318246786E-2   -3.730086831149303E-2
 2.400000000000000E9     8.335657413465198E-3    3.665773070311089E-3   -2.126313711507626E-1   -4.458871381912085E-1   -2.230205082234092E-1   -4.393141310589107E-1    5.770017484007179E-3   -1.712177065450567E-2
 2.450000000000000E9    -2.021081794202208E-3    8.682327425196703E-3   -2.276386562480444E-1   -4.395909617015504E-1   -2.404567922103267E-1   -4.295872086930964E-1    9.937352399640324E-3   -1.069813324341793E-2
 2.500000000000000E9    -5.756028993457995E-3   -1.308819585030492E-3   -2.409526898903128E-1   -4.320302158971795E-1   -2.574073588519834E-1   -4.195483015818330E-1    1.187234785528443E-2   -1.551398922766775E-2
 2.550000000000000E9    -1.338792974376550E-3   -1.618354149999903E-3   -2.626354326076248E-1   -4.186575204063942E-1   -2.799854445951037E-1   -4.031792082996096E-1    8.732884544172466E-3   -4.047108799088702E-3
 2.600000000000000E9     3.943958664673269E-3   -6.132709565706412E-3   -2.786335367944982E-1   -4.082735260143794E-1   -2.978987152174252E-1   -3.898662513485769E-1    8.719653341885261E-3   -1.742044163280643E-2
 2.650000000000000E9     2.445634399694009E-3    1.586608883294091E-3   -3.012824232390397E-1   -3.910023701006861E-1   -3.115823333429539E-1   -3.774890472591985E-1    8.151342397496167E-3   -5.302819746381787E-3
 2.700000000000000E9     1.024235490879334E-3   -1.696870537882495E-3   -3.233045903834504E-1   -3.739060256859459E-1   -3.254874464248992E-1   -3.652129094645633E-1    1.050886527037178E-2   -1.740351745443108E-2
 2.750000000000000E9    -3.091084250752705E-3    3.510579341329532E-3   -3.422111916487786E-1   -3.562949123176875E-1   -3.371130940876036E-1   -3.548494978967556E-1    7.037861733213996E-3   -9.483695619264522E-3
 2.800000000000000E9     1.847764790838921E-3   -4.540057655963735E-3   -3.584242531691207E-1   -3.384194304345509E-1   -3.483440315822112E-1   -3.438887320452496E-1    9.286627907648462E-3   -1.845756701549200E-2
 2.850000000000000E9     2.595985821583068E-3    4.207563233859750E-3   -3.721186192142032E-1   -3.215705957805013E-1   -3.622233521706843E-1   -3.295852025245635E-1    8.180567045719496E-4   -5.773413546204567E-2
 2.900000000000000E9     2.124279822854648E-3   -7.372936986020737E-4   -3.853891235975536E-1   -3.053128093760214E-1   -3.766074619665107E-1   -3.116368531368355E-1    1.293298744544484E-2   -2.349134661325063E-2
 2.950000000000000E9    -3.923596621135513E-3    8.886400497509250E-3   -3.975271834771367E-1   -2.897113353987730E-1   -3.894796808368254E-1   -2.953791882843077E-1    1.215902168558284E-2   -1.495810642819972E-2
 3.000000000000000E9    -2.880780678926594E-3   -1.445833034644046E-3   -4.079031676025521E-1   -2.725776489671875E-1   -4.017954587796702E-1   -2.782710161849791E-1    1.348117817268965E-2   -2.334842546851893E-2
 3.050000000000000E9    -5.890277039885497E-3    6.491615888174963E-3   -4.217489188660198E-1   -2.497825884019708E-1   -4.101078664274067E-1   -2.670215480710554E-1    8.183365532037912E-3   -1.669418747747604E-2
 3.100000000000000E9    -5.123107202658237E-3   -4.574329985372465E-3   -4.316457543569223E-1   -2.290871613000147E-1   -4.218326847675712E-1   -2.480939221996595E-1    1.193888644886974E-2   -2.689813310314712E-2
 3.150000000000000E9    -5.140190631500525E-3    1.666601798770764E-3   -4.392912395478134E-1   -2.143136857901583E-1   -4.318909954366298E-1   -2.284534635549421E-1    5.689733179462185E-2   -6.178104927985413E-2
 3.200000000000000E9    -2.475650884101872E-3   -6.802818467165846E-3   -4.474936426639097E-1   -1.983807718104927E-1   -4.414065129706607E-1   -2.089656901905085E-1    1.463757363286895E-2   -2.880390150069821E-2
 3.250000000000000E9    -2.862140538950080E-3    4.875363407287535E-3   -4.541363657658540E-1   -1.800812698960244E-1   -4.488789045080211E-1   -1.905608018189838E-1    1.054674797659644E-2   -2.078630323192984E-2
 3.300000000000000E9    -3.360277512906836E-3   -1.446917354317623E-3   -4.619368026849514E-1   -1.592203361493844E-1   -4.566379582837139E-1   -1.712626196481442E-1    1.279722695421068E-2   -3.145859188975342E-2
 3.350000000000000E9    -7.292651671906317E-3    8.652375799775869E-3   -4.680404043718509E-1   -1.379175333611442E-1   -4.628645892310231E-1   -1.520083100767943E-1    8.185842308702800E-3   -2.195591849773335E-2
 3.400000000000000E9    -1.036000204171271E-2   -3.849137485700146E-3   -4.718634767732031E-1   -1.211733455545021E-1   -4.678004933956401E-1   -1.297494382654190E-1    1.468209637083710E-2   -3.804675002231150E-2
 3.450000000000000E9    -1.101238695881581E-2    1.171505634774644E-3   -4.773657231987002E-1   -1.012684959538046E-1   -4.730197642570560E-1   -1.096029243564879E-1    1.030591194743579E-2   -2.725854225619891E-2
 3.500000000000000E9    -7.226676667723676E-3   -9.398346037034284E-3   -4.807900293985368E-1   -8.017624051763519E-2   -4.763757162726794E-1   -8.878687253052132E-2    1.437030022271392E-2   -3.862188000875068E-2
 3.550000000000000E9    -5.786150763923435E-3    3.261008416004067E-3   -4.832696058958063E-1   -6.105303211648067E-2   -4.784955952365365E-1   -6.569473251555803E-2    1.123797556530204E-2   -3.212527572163329E-2
 3.600000000000000E9    -5.901491956394025E-3   -4.514063399456283E-3   -4.853205727536039E-1   -4.017027864372787E-2   -4.811874894407262E-1   -4.566669858589368E-2    1.547561582441286E-2   -4.358568085073388E-2
 3.650000000000000E9    -8.196773945626856E-3    6.269784263823186E-3   -4.859611517594130E-1   -1.911236152232063E-2   -4.834974350019347E-1   -2.654159425470468E-2    8.063783350781823E-3   -3.355794998670787E-2
 3.700000000000000E9    -9.151127739849937E-3   -4.640761730044314E-3   -4.861658467813890E-1    2.075192820347395E-3   -4.843171353099978E-1   -3.958071851306482E-3    1.347789634818125E-2   -4.820757598928174E-2
 3.750000000000000E9    -9.662836662410588E-3    4.505177900879176E-3   -4.858221767721072E-1    2.140533852156127E-2   -4.831947497400244E-1    1.714575511664795E-2    8.331133301157156E-3   -4.249020532266749E-2
 3.800000000000000E9    -1.094455672761990E-2   -1.683532847027363E-3   -4.826933139019141E-1    4.314523036862332E-2   -4.804733218299934E-1    3.744043184944575E-2    1.119398054796734E-2   -5.486730354516670E-2
 3.850000000000000E9    -1.421625327823986E-2    6.820937744500537E-3   -4.793935453162733E-1    6.554579246597653E-2   -4.778465768544777E-1    5.772439152699905E-2    7.021739500097810E-3   -4.961812286756279E-2
 3.900000000000000E9    -1.608844378413709E-2   -5.527349754479140E-3   -4.747885697456765E-1    8.608883569216329E-2   -4.734934931203071E-1    7.965761073310849E-2    9.373249129746714E-3   -6.093232829006029E-2
 3.950000000000000E9    -1.198566714917991E-2    1.466551037637829E-3   -4.707762780619481E-1    1.048107520599895E-1   -4.690445285220236E-1    1.013533637567929E-1    3.391074559060053E-3   -5.111519798345454E-2
 4.000000000000000E9    -1.022125403968942E-2   -3.728405398844521E-3   -4.654282700206058E-1    1.240384493020664E-1   -4.644020278461699E-1    1.211370441301633E-1    6.224971032840448E-3   -6.871562340539604E-2
 4.050000000000000E9    -1.101834351531944E-2    8.851687242384537E-3   -4.565864016824088E-1    1.483565863731216E-1   -4.600991121221328E-1    1.391388413559445E-1    5.218099797745804E-3   -6.352455363860068E-2
 4.100000000000000E9    -1.534867877775014E-2    3.549712134536070E-3   -4.504122037129053E-1    1.666535918630236E-1   -4.541832693872359E-1    1.579041559485164E-1    5.599430417317228E-3   -7.254351870513925E-2
 4.150000000000000E9    -1.677464609241065E-2    1.126610189055348E-2   -4.421453173315055E-1    1.882407624965878E-1   -4.459682282860174E-1    1.763169458236496E-1   -3.747531596586563E-3   -5.942512146422976E-2
 4.200000000000000E9    -1.838226043707015E-2    7.988066546400809E-4   -4.330583988274658E-1    2.065347317089483E-1   -4.368453196355462E-1    1.931081420034911E-1   -5.242591318300325E-3   -7.616231122808939E-2
 4.250000000000000E9    -1.536803496862445E-2    1.017471857714167E-2   -4.233327543278977E-1    2.241116945832226E-1   -4.280862000556615E-1    2.110563388071206E-1   -1.046217994999637E-2   -7.210580416384682E-2
 4.300000000000000E9    -1.832505233835504E-2    6.754167600088062E-3   -4.127463189864294E-1    2.402802655477740E-1   -4.172895213687760E-1    2.278502826709576E-1   -7.893816101066299E-3   -8.539266729717437E-2
 4.350000000000000E9    -1.971525719237219E-2    1.668469949328741E-2   -4.015684619705840E-1    2.578884998462768E-1   -4.068801100267997E-1    2.450953627022550E-1   -1.282201998203098E-2   -7.957135027585828E-2
 4.400000000000000E9    -2.375984595094628E-2    7.594334217242539E-3   -3.906039831570808E-1    2.725450265622764E-1   -3.941886037192937E-1    2.625696704236130E-1   -1.440957057201829E-2   -8.881267192510577E-2
 4.450000000000000E9    -1.978369678800566E-2    1.214257354943911E-2   -3.775067649870260E-1    2.881507698781542E-1   -3.829746855960612E-1    2.782109582570365E-1   -2.649787275336225E-2   -8.020990382542223E-2
 4.500000000000000E9    -1.964270366238933E-2    8.934092378177737E-3   -3.624266976513361E-1    3.040974224912708E-1   -3.677252809954819E-1    2.937368516423207E-1   -2.548242671721595E-2   -9.712949632354515E-2
 4.550000000000000E9    -2.386277599262403E-2    1.844551194800674E-2   -3.454954898714720E-1    3.197484482441257E-1   -3.543165305691163E-1    3.093037113020987E-1   -3.409870519542477E-2   -9.087866403429679E-2
 4.600000000000000E9    -2.201277844988198E-2    1.829260061643760E-2   -3.317247196869702E-1    3.337952271677982E-1   -3.397520922038140E-1    3.223291031576478E-1   -2.995946223407760E-2   -1.004113476137597E-1
 4.650000000000000E9    -2.186764910251505E-2    3.217677761812736E-2   -3.181534559296171E-1    3.461133553579581E-1   -3.241880005106994E-1    3.365315102814368E-1   -3.966329214293591E-2   -9.496647013374150E-2
 4.700000000000000E9    -2.539054302060541E-2    1.727453300203300E-2   -3.031621400023551E-1    3.563099973587109E-1   -3.068925544339671E-1    3.503031568997690E-1   -4.298823043718325E-2   -1.052618529790206E-1
 4.750000000000000E9    -2.382778324399049E-2    2.271532481841878E-2   -2.872022214225815E-1    3.682669072865805E-1   -2.896008740868625E-1    3.630256081865553E-1   -5.134144954326995E-2   -1.005780749813209E-1
 4.800000000000000E9    -2.114942140240901E-2    1.994137517967414E-2   -2.725318115067154E-1    3.776359377126018E-1   -2.742022565558032E-1    3.729220962827871E-1   -5.119628921175540E-2   -1.103043065267251E-1
 4.850000000000000E9    -2.181433118987169E-2    2.790597176294120E-2   -2.540870361513796E-1    3.883277430072062E-1   -2.560933480411222E-1    3.837200398110197E-1   -6.113803453248615E-2   -1.059285046148216E-1
 4.900000000000000E9    -1.894067771023400E-2    2.541161359298250E-2   -2.376610737988106E-1    3.969387254948364E-1   -2.379558215849571E-1    3.935355802978874E-1   -6.744978433622825E-2   -1.128983080018332E-1
 4.950000000000000E9    -2.287597218143418E-2    3.494991190122705E-2   -2.164463168319898E-1    4.066252302488539E-1   -2.207796277071645E-1    4.008318087142394E-1   -8.230243525541545E-2   -1.091480214370195E-1
 5.000000000000000E9    -1.806750605506391E-2    3.109956013016676E-2   -1.977380536791048E-1    4.140431755992882E-1   -2.029778543262029E-1    4.083202661595489E-1   -8.043613880496026E-2   -1.176682121393308E-1
