! RsaToolbox (C) 2014 Rohde & Schwarz America
! 
! Number of points: 101
! Number of ports: 2
! Balanced ports?: No
! 
! 
# Hz S RI R 50
450000000         -0.01065944175    0.01517104427     0.7546175702      0.6341031308      
                  0.7546175702      0.6341031308      -0.0228090413     0.0103548927      
451000000         -0.01037333729    0.01528208096     0.7624247991      0.624684978       
                  0.7624247991      0.624684978       -0.02232896974    0.01046455        
452000000         -0.01009761264    0.01532878099     0.7700906247      0.6151828315      
                  0.7700906247      0.6151828315      -0.02207497754    0.01074752217     
453000000         -0.009814974897   0.01536164601     0.7776495406      0.6055977166      
                  0.7776495406      0.6055977166      -0.0217839243     0.01097973844     
454000000         -0.009575931605   0.01544703411     0.7850882787      0.5959066748      
                  0.7850882787      0.5959066748      -0.0212475906     0.01122366184     
455000000         -0.009287792221   0.01547359572     0.7924197111      0.5861445354      
                  0.7924197111      0.5861445354      -0.02093316782    0.01141907216     
456000000         -0.008936082763   0.01550274501     0.7995707727      0.5762501727      
                  0.7995707727      0.5762501727      -0.02056889886    0.01148139778     
457000000         -0.008618071347   0.01554262294     0.8066441952      0.5663002372      
                  0.8066441952      0.5663002372      -0.02010393998    0.01176787302     
458000000         -0.008303796631   0.0155324788      0.8135829437      0.556257977       
                  0.8135829437      0.556257977       -0.01990630153    0.01197262682     
459000000         -0.008092957802   0.0155269668      0.8204259867      0.5461064679      
                  0.8204259867      0.5461064679      -0.01949597026    0.01211646123     
460000000         -0.007716880707   0.01548128985     0.8271240014      0.535892905       
                  0.8271240014      0.535892905       -0.01914207915    0.01237611108     
461000000         -0.007457865485   0.01552912711     0.8336630315      0.5255580501      
                  0.8336630315      0.5255580501      -0.01865131768    0.01246177036     
462000000         -0.007113129399   0.01552964224     0.8401469033      0.5152217034      
                  0.8401469033      0.5152217034      -0.018202987      0.01264517961     
463000000         -0.006862469406   0.01551507473     0.8464335292      0.5047514387      
                  0.8464335292      0.5047514387      -0.01790424495    0.01268365738     
464000000         -0.006543021307   0.01544841927     0.8526574365      0.4942362027      
                  0.8526574365      0.4942362027      -0.01752041344    0.01260240739     
465000000         -0.006281122898   0.01547033785     0.8586796942      0.483576262       
                  0.8586796942      0.483576262       -0.01715799921    0.01294067067     
466000000         -0.005922038355   0.01545410693     0.8645648683      0.4729072295      
                  0.8645648683      0.4729072295      -0.01679578268    0.01310648205     
467000000         -0.005644634976   0.01536263617     0.8703466286      0.462165157       
                  0.8703466286      0.462165157       -0.01641523916    0.01302404502     
468000000         -0.005357402771   0.01529380546     0.876034506       0.4513470606      
                  0.876034506       0.4513470606      -0.01603719415    0.0130629364      
469000000         -0.005060447165   0.01528479052     0.8815373651      0.4404077535      
                  0.8815373651      0.4404077535      -0.01567079607    0.01334929576     
470000000         -0.004764146198   0.01521673784     0.8869548404      0.4294558766      
                  0.8869548404      0.4294558766      -0.01519744076    0.01325892001     
471000000         -0.004510511218   0.01512765317     0.8921730628      0.4184206979      
                  0.8921730628      0.4184206979      -0.01474928413    0.01341396562     
472000000         -0.004183470077   0.01508269546     0.8972646904      0.40734134        
                  0.8972646904      0.40734134        -0.01428991517    0.01345552739     
473000000         -0.003912320204   0.01496791887     0.902252569       0.3961772494      
                  0.902252569       0.3961772494      -0.01393338441    0.01361057516     
474000000         -0.003635941565   0.01487205612     0.9070848095      0.3849753195      
                  0.9070848095      0.3849753195      -0.01351442212    0.01353604166     
475000000         -0.003370180118   0.01480554786     0.91173288        0.3737084978      
                  0.91173288        0.3737084978      -0.01310401345    0.01361638593     
476000000         -0.003118065638   0.01464636152     0.9163119013      0.3623659901      
                  0.9163119013      0.3623659901      -0.01270461158    0.0137241912      
477000000         -0.002865308963   0.01452850722     0.9207263435      0.3509886543      
                  0.9207263435      0.3509886543      -0.01228293462    0.01356715319     
478000000         -0.002556021598   0.01446436028     0.9249638007      0.3395816296      
                  0.9249638007      0.3395816296      -0.01177055438    0.01372600155     
479000000         -0.00227670808    0.01428082762     0.9291121251      0.328040923       
                  0.9291121251      0.328040923       -0.01133913616    0.01371254593     
480000000         -0.002025035011   0.0141577912      0.9331070232      0.316493121       
                  0.9331070232      0.316493121       -0.01100114302    0.01372138976     
481000000         -0.001787426331   0.01407745726     0.9369396754      0.304912566       
                  0.9369396754      0.304912566       -0.01055331793    0.01377242256     
482000000         -0.001492084566   0.0139624868      0.940639962       0.2932922626      
                  0.940639962       0.2932922626      -0.01014336785    0.01382660513     
483000000         -0.001302977162   0.01377549672     0.944141891       0.281598433       
                  0.944141891       0.281598433       -0.009846625016   0.01368553841     
484000000         -0.0009890743146  0.01362060533     0.9475777858      0.269880991       
                  0.9475777858      0.269880991       -0.009346317799   0.01367127341     
485000000         -0.0007303005177  0.01347885022     0.9508702798      0.2580945388      
                  0.9508702798      0.2580945388      -0.008998539254   0.01357066433     
486000000         -0.0005461522294  0.01335889678     0.9539314018      0.2462822725      
                  0.9539314018      0.2462822725      -0.00857435011    0.01360490823     
487000000         -0.0003038685975  0.01310939093     0.9569650074      0.2344171399      
                  0.9569650074      0.2344171399      -0.008281747699   0.01334788504     
488000000         -5.998285616e-05  0.01297129494     0.9597239948      0.2225815927      
                  0.9597239948      0.2225815927      -0.007778504301   0.01349008224     
489000000         0.0001747085262   0.01284741591     0.9624055473      0.2106661318      
                  0.9624055473      0.2106661318      -0.007239928042   0.01340469163     
490000000         0.0003881334838   0.01262906355     0.9649400258      0.1986945355      
                  0.9649400258      0.1986945355      -0.007027739646   0.01323707042     
491000000         0.0005906783641   0.0124606488      0.9673237278      0.1867308486      
                  0.9673237278      0.1867308486      -0.006750353025   0.01313446999     
492000000         0.000864129288    0.01227063523     0.969553123       0.1747361819      
                  0.969553123       0.1747361819      -0.006140093823   0.01306160704     
493000000         0.001041893399    0.01208018581     0.9716341536      0.1626889404      
                  0.9716341536      0.1626889404      -0.005852146864   0.01289618754     
494000000         0.001234111282    0.01185490098     0.9735448968      0.1506278537      
                  0.9735448968      0.1506278537      -0.005518778535   0.0128342143      
495000000         0.001467734218    0.01166589818     0.9753396887      0.1385847446      
                  0.9753396887      0.1385847446      -0.005059555675   0.01268458686     
496000000         0.001617863677    0.01146242737     0.976976007       0.1264404292      
                  0.976976007       0.1264404292      -0.004888557135   0.01253242046     
497000000         0.001863362957    0.0112202424      0.9784910434      0.1143765385      
                  0.9784910434      0.1143765385      -0.004255880736   0.01232665811     
498000000         0.001985230606    0.01101409664     0.9797834348      0.1021627694      
                  0.9797834348      0.1021627694      -0.004072794211   0.0122387425      
499000000         0.002190035504    0.01082761734     0.9809780388      0.09008643494     
                  0.9809780388      0.09008643494     -0.003695712715   0.0120795744      
500000000         0.002343239739    0.01057576809     0.981992524       0.07787746766     
                  0.981992524       0.07787746766     -0.003336970396   0.0118573186      
501000000         0.002514176604    0.01030524707     0.9828872589      0.0657004112      
                  0.9828872589      0.0657004112      -0.002997720558   0.0115452586      
502000000         0.002732426223    0.01009285516     0.9836058503      0.05348018601     
                  0.9836058503      0.05348018601     -0.002643054643   0.01153979424     
503000000         0.002869680915    0.009863634269    0.9841922135      0.04132371535     
                  0.9841922135      0.04132371535     -0.002262842535   0.01124338939     
504000000         0.002976635747    0.009580302177    0.984607433       0.02910919336     
                  0.984607433       0.02910919336     -0.002046498743   0.01104334796     
505000000         0.003109096371    0.009292535507    0.9849026052      0.01685937187     
                  0.9849026052      0.01685937187     -0.001739610767   0.01077077784     
506000000         0.003271433795    0.009112446902    0.9850259905      0.004648660894    
                  0.9850259905      0.004648660894    -0.00136782346    0.01069999782     
507000000         0.003385464412    0.008884841708    0.9849944363      -0.007541664337   
                  0.9849944363      -0.007541664337   -0.001005211987   0.01056373256     
508000000         0.003562616218    0.008595316687    0.9847976109      -0.01972826858    
                  0.9847976109      -0.01972826858    -0.0006576273768  0.01023185882     
509000000         0.003712724217    0.008330747238    0.9844673862      -0.03192802339    
                  0.9844673862      -0.03192802339    -0.000261735547   0.009915329419    
510000000         0.003780383122    0.008065042842    0.9839959364      -0.04415683428    
                  0.9839959364      -0.04415683428    -9.629329345e-05  0.009729772438    
511000000         0.003870158177    0.007858834132    0.9833576214      -0.05635824776    
                  0.9833576214      -0.05635824776    0.0001258375283   0.009545101507    
512000000         0.003950242482    0.007587712909    0.9825761067      -0.06856610092    
                  0.9825761067      -0.06856610092    0.0003966963926   0.009255961253    
513000000         0.004044022751    0.007351899601    0.9816187073      -0.08073693956    
                  0.9816187073      -0.08073693956    0.000639932422    0.009113608156    
514000000         0.004192541977    0.007027481629    0.9805443437      -0.0928618833     
                  0.9805443437      -0.0928618833     0.001025783951    0.008650921461    
515000000         0.00423933368     0.006761595834    0.9792944042      -0.1050312286     
                  0.9792944042      -0.1050312286     0.001224517998    0.008507148324    
516000000         0.004315363967    0.006474795963    0.9779214639      -0.1171784161     
                  0.9779214639      -0.1171784161     0.001412516247    0.008218516791    
517000000         0.004388815798    0.006220206773    0.9763360125      -0.1293025358     
                  0.9763360125      -0.1293025358     0.001797840955    0.007926420995    
518000000         0.004456483449    0.006006181062    0.974706097       -0.1413986505     
                  0.974706097       -0.1413986505     0.001959844067    0.007628826805    
519000000         0.004489692546    0.005653940945    0.9728156072      -0.1534329715     
                  0.9728156072      -0.1534329715     0.002197542329    0.007284740276    
520000000         0.004566179089    0.005361885473    0.9708485031      -0.1655053066     
                  0.9708485031      -0.1655053066     0.002378687217    0.006892323105    
521000000         0.004572512604    0.005082025817    0.9687293584      -0.1775217603     
                  0.9687293584      -0.1775217603     0.002620241224    0.006608277012    
522000000         0.004634906673    0.004870714647    0.9664429139      -0.1895276198     
                  0.9664429139      -0.1895276198     0.002853027317    0.006402449695    
523000000         0.004605852857    0.004579131646    0.9639657149      -0.2014912136     
                  0.9639657149      -0.2014912136     0.003070927017    0.006057476359    
524000000         0.004652314198    0.00433547164     0.9614125371      -0.2134039195     
                  0.9614125371      -0.2134039195     0.003303872636    0.005731281319    
525000000         0.004707618761    0.004019721208    0.9586903384      -0.2253222532     
                  0.9586903384      -0.2253222532     0.00346471532     0.005415889235    
526000000         0.004733856344    0.003767173247    0.9558431951      -0.2371953615     
                  0.9558431951      -0.2371953615     0.003668060177    0.005079701603    
527000000         0.004696169802    0.003496746676    0.9527989337      -0.2490413899     
                  0.9527989337      -0.2490413899     0.00388614932     0.00483309434     
528000000         0.004672635525    0.003228737669    0.9496277508      -0.2607817027     
                  0.9496277508      -0.2607817027     0.003977229604    0.004526467559    
529000000         0.00468196313     0.002894773914    0.946281519       -0.2725514249     
                  0.946281519       -0.2725514249     0.00414520625     0.004159679148    
530000000         0.004679330577    0.002685843564    0.9428070778      -0.2842467519     
                  0.9428070778      -0.2842467519     0.004297363018    0.003784999992    
531000000         0.004650108427    0.002367307791    0.9392289827      -0.2959399554     
                  0.9392289827      -0.2959399554     0.00440883221     0.003453198959    
532000000         0.004618672904    0.002117027572    0.935447989       -0.3074962176     
                  0.935447989       -0.3074962176     0.004612687486    0.003087163216    
533000000         0.004584368176    0.001859296528    0.9315357428      -0.3190755413     
                  0.9315357428      -0.3190755413     0.00485669348     0.002817015355    
534000000         0.00454478695     0.001584286461    0.9275220569      -0.3305984532     
                  0.9275220569      -0.3305984532     0.005062595758    0.002483094595    
535000000         0.004497210748    0.001285173671    0.9233351677      -0.342078109      
                  0.9233351677      -0.342078109      0.004944332837    0.002050572554    
536000000         0.004453196804    0.001061292209    0.9190027973      -0.3535054665     
                  0.9190027973      -0.3535054665     0.005089138872    0.001769772628    
537000000         0.004396947496    0.0008424714854   0.9145568205      -0.3648806729     
                  0.9145568205      -0.3648806729     0.005212871395    0.001272597875    
538000000         0.004318954847    0.0005002191779   0.9099546925      -0.3761598681     
                  0.9099546925      -0.3761598681     0.005359209532    0.0008832569114   
539000000         0.004256188832    0.0003085897049   0.9051933724      -0.387414766      
                  0.9051933724      -0.387414766      0.005351438775    0.0005838995646   
540000000         0.004168521419    7.756210184e-05   0.9003192599      -0.3986585981     
                  0.9003192599      -0.3986585981     0.005378479359    0.0001169733748   
541000000         0.004098978345    -0.0002154126278  0.8952989181      -0.4097366468     
                  0.8952989181      -0.4097366468     0.005438664025    -0.0001251069988  
542000000         0.003996643678    -0.0004530915624  0.8901352634      -0.4207870415     
                  0.8901352634      -0.4207870415     0.005595699555    -0.0004690585334  
543000000         0.003836167096    -0.0007006485869  0.8848590683      -0.4317970798     
                  0.8848590683      -0.4317970798     0.005544479295    -0.0009391185555  
544000000         0.003746070363    -0.0009707294469  0.8793922856      -0.4426814988     
                  0.8793922856      -0.4426814988     0.005647765959    -0.001406191935   
545000000         0.003597525404    -0.001147179077   0.8738478232      -0.453627654      
                  0.8738478232      -0.453627654      0.005517879016    -0.001446259252   
546000000         0.003512148455    -0.001398696131   0.8681471793      -0.4643685446     
                  0.8681471793      -0.4643685446     0.005666862967    -0.001827270169   
547000000         0.003375189669    -0.001687460435   0.8622912365      -0.4750742236     
                  0.8622912365      -0.4750742236     0.005651426956    -0.002354268294   
548000000         0.003253512676    -0.001856715384   0.8563328701      -0.4857046813     
                  0.8563328701      -0.4857046813     0.005785079641    -0.00254159695    
549000000         0.003063517283    -0.002099520738   0.8502299001      -0.4962871053     
                  0.8502299001      -0.4962871053     0.005607079793    -0.002956137259   
550000000         0.002953519977    -0.002357801176   0.8440082057      -0.5067713763     
                  0.8440082057      -0.5067713763     0.005659681059    -0.003331922287   
