! RsaToolbox (C) 2014 Rohde & Schwarz America
! 
! Number of points: 101
! Number of ports: 2
! Balanced ports?: No
! 
! 
# Hz S RI R 50
450000000         -0.01191108987    0.005324660278    0.7255296065      0.6643193481      
                  0.7255296065      0.6643193481      -0.01270963691    0.008299293647    
451000000         -0.01173023377    0.005524506341    0.7336036558      0.6553400817      
                  0.7336036558      0.6553400817      -0.01253909959    0.008487348652    
452000000         -0.01156605588    0.005656970046    0.7415944372      0.6462248324      
                  0.7415944372      0.6462248324      -0.01244797035    0.008655549658    
453000000         -0.0113739809     0.005925490273    0.7494303342      0.6370134096      
                  0.7494303342      0.6370134096      -0.01228121539    0.008757482683    
454000000         -0.01115674154    0.006081954492    0.7572384947      0.6277584365      
                  0.7572384947      0.6277584365      -0.01212104128    0.008784192891    
455000000         -0.01090834631    0.006248479242    0.7648965297      0.6184161874      
                  0.7648965297      0.6184161874      -0.01195815747    0.008825754202    
456000000         -0.01069850851    0.006362152402    0.7723994756      0.608944616       
                  0.7723994756      0.608944616       -0.01178950376    0.009023007396    
457000000         -0.01046023285    0.006550564022    0.7798007894      0.5993707761      
                  0.7798007894      0.5993707761      -0.01148849856    0.009129920885    
458000000         -0.01019961642    0.006652042835    0.7871398734      0.5897367006      
                  0.7871398734      0.5897367006      -0.01137654769    0.009187853988    
459000000         -0.009971916027   0.006780423013    0.7943323262      0.5800262357      
                  0.7943323262      0.5800262357      -0.01141011327    0.009434341427    
460000000         -0.009665376663   0.006877916822    0.8013960993      0.5701658955      
                  0.8013960993      0.5701658955      -0.01133108206    0.009432309105    
461000000         -0.00946724888    0.007014871682    0.8083388934      0.5602654896      
                  0.8083388934      0.5602654896      -0.01105309949    0.009458662788    
462000000         -0.009206762601   0.007174535792    0.8151530821      0.5503005009      
                  0.8151530821      0.5503005009      -0.01101438387    0.009663630311    
463000000         -0.00897805147    0.007284837562    0.8218211451      0.5401976759      
                  0.8218211451      0.5401976759      -0.01079795909    0.00969197038     
464000000         -0.008713209661   0.007433425884    0.8283754251      0.5300693527      
                  0.8283754251      0.5300693527      -0.01072825736    0.009800663562    
465000000         -0.008407255536   0.007512116141    0.8348044726      0.5198404283      
                  0.8348044726      0.5198404283      -0.01049369184    0.009962858878    
466000000         -0.008156775682   0.007630280991    0.8411719405      0.5095109549      
                  0.8411719405      0.5095109549      -0.01031041412    0.009980949794    
467000000         -0.007894250413   0.007757434118    0.8473558071      0.4990779379      
                  0.8473558071      0.4990779379      -0.01027794315    0.009986147777    
468000000         -0.007589372954   0.007821586593    0.8534075097      0.4886466745      
                  0.8534075097      0.4886466745      -0.01013196955    0.01006060985     
469000000         -0.007368334984   0.007891793314    0.8592964342      0.4781054308      
                  0.8592964342      0.4781054308      -0.009942899829   0.01024627134     
470000000         -0.00707080038    0.008005505249    0.8651354523      0.4674891777      
                  0.8651354523      0.4674891777      -0.00984467917    0.01025834014     
471000000         -0.006845507353   0.00804823877     0.8708063075      0.4568175375      
                  0.8708063075      0.4568175375      -0.009656098618   0.01029358113     
472000000         -0.006560809672   0.008082491984    0.8763283409      0.4460520698      
                  0.8763283409      0.4460520698      -0.009583955842   0.01029491616     
473000000         -0.006309390167   0.00814937208     0.8817306364      0.4352551772      
                  0.8817306364      0.4352551772      -0.009366470681   0.01045730787     
474000000         -0.00600954378    0.008183817855    0.8870145185      0.4243269023      
                  0.8870145185      0.4243269023      -0.0091095669     0.0103978522      
475000000         -0.005682698744   0.008252563877    0.8921482829      0.4134261959      
                  0.8921482829      0.4134261959      -0.008886710421   0.01034718881     
476000000         -0.00541891902    0.008256021611    0.8971936674      0.4024028253      
                  0.8971936674      0.4024028253      -0.008700634182   0.01038559076     
477000000         -0.005196184681   0.008334543593    0.9020061397      0.3912782278      
                  0.9020061397      0.3912782278      -0.00871767842    0.01055179752     
478000000         -0.004855747968   0.008323220799    0.906749906       0.3802459647      
                  0.906749906       0.3802459647      -0.008475144814   0.01043031668     
479000000         -0.004614241687   0.008318821181    0.911366446       0.3690048766      
                  0.911366446       0.3690048766      -0.008374139134   0.01043688364     
480000000         -0.00434566866    0.008336461434    0.9158482464      0.3578067837      
                  0.9158482464      0.3578067837      -0.008209334606   0.01048755683     
481000000         -0.004062919512   0.00833437723     0.9201683888      0.3464591014      
                  0.9201683888      0.3464591014      -0.008106431475   0.01056174392     
482000000         -0.003779304953   0.008353461487    0.924322256       0.3350996349      
                  0.924322256       0.3350996349      -0.007881838083   0.01050837203     
483000000         -0.003497462975   0.008320172902    0.9283437631      0.3237149888      
                  0.9283437631      0.3237149888      -0.007745244287   0.01053600457     
484000000         -0.00323938334    0.008337843826    0.9322775297      0.3122790895      
                  0.9322775297      0.3122790895      -0.007503981673   0.01061171166     
485000000         -0.002915417789   0.008248370462    0.9360122319      0.3007889941      
                  0.9360122319      0.3007889941      -0.007264582879   0.01042455484     
486000000         -0.002641580547   0.008242396322    0.9396095393      0.2892202246      
                  0.9396095393      0.2892202246      -0.007168005516   0.01056626107     
487000000         -0.002394360867   0.008227577416    0.9430731047      0.2776529345      
                  0.9430731047      0.2776529345      -0.007123176928   0.01062816059     
488000000         -0.002106736668   0.008186653703    0.9464237303      0.2660216796      
                  0.9464237303      0.2660216796      -0.006939738496   0.01046027548     
489000000         -0.001817644938   0.00809250746     0.9495746041      0.2543464981      
                  0.9495746041      0.2543464981      -0.006711848536   0.01061490286     
490000000         -0.001618091687   0.008008417131    0.9526700218      0.2426903804      
                  0.9526700218      0.2426903804      -0.006737627558   0.01043471586     
491000000         -0.001271283615   0.008006301186    0.955532666       0.2309663086      
                  0.955532666       0.2309663086      -0.006445298685   0.01045315024     
492000000         -0.001013252645   0.007905131611    0.9582917377      0.2191527319      
                  0.9582917377      0.2191527319      -0.006275563493   0.01039132703     
493000000         -0.0007577981764  0.007853921083    0.9609145077      0.2073474664      
                  0.9609145077      0.2073474664      -0.006134300498   0.01032766028     
494000000         -0.0005366493373  0.007703291081    0.9634030255      0.195522767       
                  0.9634030255      0.195522767       -0.006054202876   0.01021948547     
495000000         -0.0002806002376  0.007655600053    0.9656880679      0.1836999095      
                  0.9656880679      0.1836999095      -0.005732106367   0.01036580365     
496000000         -3.765229505e-06  0.007564289884    0.9678619996      0.1717575162      
                  0.9678619996      0.1717575162      -0.005671155827   0.01023786926     
497000000         0.0002682366104   0.007441967098    0.9698869131      0.1599067402      
                  0.9698869131      0.1599067402      -0.005282139213   0.01014013456     
498000000         0.0004822558278   0.007325341376    0.97177642        0.1479497414      
                  0.97177642        0.1479497414      -0.005439487583   0.0101088666      
499000000         0.0007762173908   0.007208670678    0.9735112314      0.1359909524      
                  0.9735112314      0.1359909524      -0.005151366008   0.009975682081    
500000000         0.001000080757    0.007061676614    0.9750856835      0.1240017892      
                  0.9750856835      0.1240017892      -0.005085422872   0.01002242705     
501000000         0.001246079925    0.006972325318    0.9765196253      0.1119938878      
                  0.9765196253      0.1119938878      -0.004870722539   0.009990223818    
502000000         0.001472597073    0.006832144176    0.977793907       0.09995450528     
                  0.977793907       0.09995450528     -0.004784909118   0.009888928742    
503000000         0.001671069211    0.006725936151    0.9789837092      0.08793725198     
                  0.9789837092      0.08793725198     -0.004595260606   0.00988821853     
504000000         0.001944078114    0.006559486943    0.9799453676      0.07589257703     
                  0.9799453676      0.07589257703     -0.004426564127   0.009775096061    
505000000         0.002177148602    0.006382198913    0.9808057204      0.06384560819     
                  0.9808057204      0.06384560819     -0.004198449396   0.00964188059     
506000000         0.002390628618    0.006222561692    0.981500852       0.05182367022     
                  0.981500852       0.05182367022     -0.003985167385   0.009608474417    
507000000         0.002624589757    0.006050875841    0.9820553312      0.03972714436     
                  0.9820553312      0.03972714436     -0.00385806241    0.009522903441    
508000000         0.002837043192    0.005930055603    0.9824241594      0.0276376194      
                  0.9824241594      0.0276376194      -0.003775173943   0.009531696794    
509000000         0.003035715045    0.005771574781    0.9827229152      0.01554404208     
                  0.9827229152      0.01554404208     -0.003676128972   0.009417425842    
510000000         0.003179631286    0.005545196351    0.9828126487      0.003426170291    
                  0.9828126487      0.003426170291    -0.003551276628   0.009324044688    
511000000         0.003395613968    0.005386228634    0.9827642442      -0.008655019487   
                  0.9827642442      -0.008655019487   -0.003445748529   0.009232446074    
512000000         0.003580806442    0.005188208435    0.9825212433      -0.02074070085    
                  0.9825212433      -0.02074070085    -0.003325844089   0.009133914618    
513000000         0.003801439338    0.005024017524    0.9822266943      -0.03280239448    
                  0.9822266943      -0.03280239448    -0.00317017469    0.009046417141    
514000000         0.003964575198    0.004807728415    0.981728509       -0.04490782388    
                  0.981728509       -0.04490782388    -0.003069714891   0.008983682757    
515000000         0.004165833601    0.004547034577    0.9811099396      -0.05695957977    
                  0.9811099396      -0.05695957977    -0.002809816826   0.008696448027    
516000000         0.004317654473    0.004350418461    0.9802765188      -0.06901090398    
                  0.9802765188      -0.06901090398    -0.002717508126   0.008751484275    
517000000         0.004506590753    0.004186544259    0.9793248362      -0.08103424437    
                  0.9793248362      -0.08103424437    -0.002580195222   0.008672695475    
518000000         0.00466094372     0.003912802365    0.9782646783      -0.0931385842     
                  0.9782646783      -0.0931385842     -0.002538324498   0.008455676521    
519000000         0.004829420547    0.003787003193    0.9769878805      -0.1051249555     
                  0.9769878805      -0.1051249555     -0.002282406402   0.008593061737    
520000000         0.004963961713    0.003458426051    0.9756511363      -0.1171413668     
                  0.9756511363      -0.1171413668     -0.002246886203   0.0082581288      
521000000         0.00510347426     0.003268663894    0.974125911       -0.1291091111     
                  0.974125911       -0.1291091111     -0.002080975601   0.008090858621    
522000000         0.005207743239    0.003078918499    0.9724382808      -0.1410593838     
                  0.9724382808      -0.1410593838     -0.002082287789   0.008109922135    
523000000         0.005352713248    0.002787890044    0.9706347231      -0.1529978421     
                  0.9706347231      -0.1529978421     -0.001828846194   0.007889709823    
524000000         0.005479315268    0.002549338391    0.9686500217      -0.1649401869     
                  0.9686500217      -0.1649401869     -0.001742198732   0.007847530991    
525000000         0.005650059617    0.002342999644    0.9665533622      -0.1768113277     
                  0.9665533622      -0.1768113277     -0.001513581753   0.007771108046    
526000000         0.005707508613    0.002132926264    0.9642755094      -0.1887287779     
                  0.9642755094      -0.1887287779     -0.001541787029   0.007690606793    
527000000         0.005769751384    0.001803683295    0.9618939823      -0.2005669906     
                  0.9618939823      -0.2005669906     -0.001477368017   0.007368495357    
528000000         0.005931881935    0.001692305417    0.9592744445      -0.2124077999     
                  0.9592744445      -0.2124077999     -0.001377527288   0.0075931407      
529000000         0.006028863419    0.001326303356    0.9566327568      -0.224148144      
                  0.9566327568      -0.224148144      -0.001192964519   0.007198803119    
530000000         0.006125433748    0.001136386501    0.9537724508      -0.2358864085     
                  0.9537724508      -0.2358864085     -0.001134509002   0.007279012434    
531000000         0.006174181165    0.0008629514993   0.9507943866      -0.2475802699     
                  0.9507943866      -0.2475802699     -0.001021361499   0.007126240794    
532000000         0.006250567014    0.0005896257028   0.9477056222      -0.2592677775     
                  0.9477056222      -0.2592677775     -0.0009021725083  0.006983620963    
533000000         0.006319229385    0.0003546800146   0.9443899571      -0.27090926       
                  0.9443899571      -0.27090926       -0.0008376040496  0.006860882832    
534000000         0.006357146119    2.891247792e-05   0.9409929934      -0.2824860558     
                  0.9409929934      -0.2824860558     -0.0008539465664  0.006641272571    
535000000         0.006428715619    -0.0002648614112  0.9374352424      -0.2940375521     
                  0.9374352424      -0.2940375521     -0.0006005368122  0.006426363057    
536000000         0.006473382992    -0.0004224778505  0.9337149661      -0.3055458011     
                  0.9337149661      -0.3055458011     -0.0006645279478  0.006522463725    
537000000         0.00653115079     -0.0006767402848  0.9298736772      -0.3169838718     
                  0.9298736772      -0.3169838718     -0.0005841589418  0.006421930144    
538000000         0.006508440616    -0.001023209553   0.9258968481      -0.3283593333     
                  0.9258968481      -0.3283593333     -0.0004999239017  0.006188248898    
539000000         0.006588730932    -0.001216580034   0.9217687028      -0.3397260883     
                  0.9217687028      -0.3397260883     -0.0003599174589  0.00615033527     
540000000         0.006575928119    -0.001586802206   0.9175254819      -0.3510523303     
                  0.9175254819      -0.3510523303     -0.0003538827326  0.005962082609    
541000000         0.006574484809    -0.001842152032   0.9131348011      -0.3622864617     
                  0.9131348011      -0.3622864617     -0.0002443833178  0.005841411119    
542000000         0.006581662969    -0.00205531151    0.9085549134      -0.3734784092     
                  0.9085549134      -0.3734784092     -0.0002569215457  0.005694560333    
543000000         0.006543044865    -0.002305035656   0.903930559       -0.3846187833     
                  0.903930559       -0.3846187833     -0.0001775153776  0.005489386865    
544000000         0.006541091464    -0.002600466262   0.8991116741      -0.3956817471     
                  0.8991116741      -0.3956817471     -5.16055075e-05   0.005390066438    
545000000         0.006531538591    -0.002842361669   0.8941374349      -0.4066935688     
                  0.8941374349      -0.4066935688     -9.101094652e-06  0.005199791126    
546000000         0.006516089499    -0.003105301733   0.889082183       -0.4176924663     
                  0.889082183       -0.4176924663     3.60070097e-05    0.005043595558    
547000000         0.006424678736    -0.003383446821   0.8838622423      -0.4285975399     
                  0.8838622423      -0.4285975399     4.170838871e-05   0.004868091264    
548000000         0.00641422295     -0.00368534274    0.8785103689      -0.4393906994     
                  0.8785103689      -0.4393906994     8.596450218e-05   0.004709745733    
549000000         0.006382444494    -0.003979593714   0.8730354485      -0.4501364679     
                  0.8730354485      -0.4501364679     3.79767355e-05    0.00463028969     
550000000         0.006277180495    -0.004182830672   0.8674460701      -0.4608886989     
                  0.8674460701      -0.4608886989     0.0001895882789   0.00434230063     
