! RsaToolbox (C) 2014 Rohde & Schwarz America
! 
! Number of points: 101
! Number of ports: 2
! Balanced ports?: No
! 
! 
# Hz S RI R 50
150000000         -0.02008628737    0.0007395608191   -0.2878338517     -0.9474135359     
                  -0.2878338517     -0.9474135359     -0.03291967695    -0.0004733156846  
151000000         -0.02002764145    0.0009996079664   -0.299518564      -0.9437014971     
                  -0.299518564      -0.9437014971     -0.03278722645    -0.0001350349203  
152000000         -0.01996178431    0.001327075255    -0.3111794441     -0.9399103325     
                  -0.3111794441     -0.9399103325     -0.03279745644    0.0002673675737   
153000000         -0.01983642835    0.001588540806    -0.3228511722     -0.935914797      
                  -0.3228511722     -0.935914797      -0.03269944474    0.0005961550763   
154000000         -0.01970409838    0.001919606092    -0.3344046433     -0.9318777186     
                  -0.3344046433     -0.9318777186     -0.03251898144    0.00107350153     
155000000         -0.01963732147    0.002211649155    -0.3459426989     -0.9275905325     
                  -0.3459426989     -0.9275905325     -0.0324770216     0.001471579111    
156000000         -0.01949539956    0.002491053435    -0.3574121548     -0.9232084684     
                  -0.3574121548     -0.9232084684     -0.03221641052    0.001912184372    
157000000         -0.01938793989    0.002786229064    -0.3688594069     -0.9186538802     
                  -0.3688594069     -0.9186538802     -0.0321243395     0.002216203758    
158000000         -0.01925952777    0.003037121166    -0.380224681      -0.9139667316     
                  -0.380224681      -0.9139667316     -0.03206897858    0.002538042288    
159000000         -0.01906576512    0.003342742668    -0.3915228786     -0.909176842      
                  -0.3915228786     -0.909176842      -0.03175350041    0.003128221696    
160000000         -0.01897124826    0.003576726708    -0.4028197349     -0.9041886937     
                  -0.4028197349     -0.9041886937     -0.03168047857    0.003370573314    
161000000         -0.01887598862    0.003844010744    -0.41395765       -0.8991074919     
                  -0.41395765       -0.8991074919     -0.03149681       0.003663987465    
162000000         -0.01871533407    0.004105598985    -0.4251050404     -0.8938551327     
                  -0.4251050404     -0.8938551327     -0.03137156244    0.003982333868    
163000000         -0.01858221275    0.004318647392    -0.4362219711     -0.8884513676     
                  -0.4362219711     -0.8884513676     -0.03117059184    0.004367133843    
164000000         -0.01843635676    0.004563754415    -0.4471874225     -0.8829092891     
                  -0.4471874225     -0.8829092891     -0.03090900697    0.004667611035    
165000000         -0.01825650145    0.004883414466    -0.4581620382     -0.8772887987     
                  -0.4581620382     -0.8772887987     -0.03101393778    0.005187955395    
166000000         -0.01807241176    0.005113705477    -0.4689972484     -0.8715134552     
                  -0.4689972484     -0.8715134552     -0.0307606052     0.005465179263    
167000000         -0.0179731977     0.005359870331    -0.4797423035     -0.8655883247     
                  -0.4797423035     -0.8655883247     -0.03066326097    0.005650300992    
168000000         -0.01782076534    0.005607213688    -0.4904352123     -0.859582503      
                  -0.4904352123     -0.859582503      -0.03037572669    0.00586326912     
169000000         -0.01760551582    0.005815515195    -0.5010592781     -0.8533635192     
                  -0.5010592781     -0.8533635192     -0.03017524826    0.006388113651    
170000000         -0.01740944924    0.00603586444     -0.5115543669     -0.8470977183     
                  -0.5115543669     -0.8470977183     -0.0300366075     0.00661451237     
171000000         -0.01724429024    0.006276578862    -0.521992608      -0.8407051466     
                  -0.521992608      -0.8407051466     -0.02970342709    0.006905742871    
172000000         -0.01699843589    0.00647014855     -0.532341827      -0.8341547186     
                  -0.532341827      -0.8341547186     -0.02950114704    0.007328987212    
173000000         -0.01678016358    0.006727597437    -0.5426359354     -0.8274834377     
                  -0.5426359354     -0.8274834377     -0.029275155      0.007655887873    
174000000         -0.01661910609    0.006966544685    -0.5527873519     -0.8207128391     
                  -0.5527873519     -0.8207128391     -0.02898759797    0.007831331999    
175000000         -0.0163502774     0.007175590619    -0.5628655137     -0.8137959927     
                  -0.5628655137     -0.8137959927     -0.0286810178     0.008172059116    
176000000         -0.01615288723    0.007341174328    -0.5728987214     -0.8068098651     
                  -0.5728987214     -0.8068098651     -0.02839377929    0.008463841912    
177000000         -0.01590795665    0.007566723284    -0.5828176434     -0.7995995718     
                  -0.5828176434     -0.7995995718     -0.02809266925    0.008729525654    
178000000         -0.01569579351    0.00774499409     -0.5926284951     -0.7923158983     
                  -0.5926284951     -0.7923158983     -0.02768740845    0.009188178708    
179000000         -0.0154269945     0.007975301375    -0.602371266      -0.7849116959     
                  -0.602371266      -0.7849116959     -0.02765792954    0.009393693973    
180000000         -0.01521284898    0.008096338945    -0.6120100593     -0.7773905861     
                  -0.6120100593     -0.7773905861     -0.02706567691    0.009622068209    
181000000         -0.01498956125    0.008216946101    -0.6215796595     -0.7697615045     
                  -0.6215796595     -0.7697615045     -0.02671870922    0.009761099728    
182000000         -0.01470351406    0.008471598108    -0.6310919141     -0.7619788555     
                  -0.6310919141     -0.7619788555     -0.02651650996    0.01005818856     
183000000         -0.01441109581    0.008607519579    -0.6404465153     -0.7540383813     
                  -0.6404465153     -0.7540383813     -0.02619554866    0.01040569172     
184000000         -0.01421055772    0.008752065653    -0.6497144657     -0.7460302877     
                  -0.6497144657     -0.7460302877     -0.02578284544    0.01069735065     
185000000         -0.01395002866    0.008927433197    -0.6589622256     -0.7378650727     
                  -0.6589622256     -0.7378650727     -0.02555363777    0.01091310914     
186000000         -0.01368842805    0.009032664216    -0.6680409039     -0.7296347749     
                  -0.6680409039     -0.7296347749     -0.02515167604    0.01114906539     
187000000         -0.01337989916    0.009162046363    -0.6770236907     -0.7212719469     
                  -0.6770236907     -0.7212719469     -0.02476102185    0.01138074232     
188000000         -0.01314684023    0.009337564379    -0.6859128877     -0.7128349976     
                  -0.6859128877     -0.7128349976     -0.02451950879    0.0116510977      
189000000         -0.01290960295    0.00941465354     -0.6946717995     -0.7042372658     
                  -0.6946717995     -0.7042372658     -0.02415417141    0.01182247891     
190000000         -0.01256695534    0.00953776095     -0.7033115973     -0.6955683527     
                  -0.7033115973     -0.6955683527     -0.02387626722    0.01211111603     
191000000         -0.0123051181     0.00966632952     -0.711849733      -0.6867770493     
                  -0.711849733      -0.6867770493     -0.02341718775    0.01216418684     
192000000         -0.01200016692    0.009714085975    -0.7202772264     -0.6778476952     
                  -0.7202772264     -0.6778476952     -0.02303892572    0.01262683223     
193000000         -0.0117597283     0.009838326256    -0.7286408653     -0.6688633566     
                  -0.7286408653     -0.6688633566     -0.02277202525    0.01250114593     
194000000         -0.01146328004    0.009871517798    -0.7368368742     -0.659743035      
                  -0.7368368742     -0.659743035      -0.02221454338    0.01280350414     
195000000         -0.01119818264    0.01004331746     -0.7449458394     -0.6505907311     
                  -0.7449458394     -0.6505907311     -0.02190204801    0.01288621846     
196000000         -0.01088431082    0.01008446754     -0.7529375755     -0.6412979598     
                  -0.7529375755     -0.6412979598     -0.02144536278    0.01306227797     
197000000         -0.01060363893    0.01008005821     -0.7607637465     -0.6318538414     
                  -0.7607637465     -0.6318538414     -0.0211280907     0.0132218865      
198000000         -0.01035348417    0.0102401811      -0.768571158      -0.6223723182     
                  -0.768571158      -0.6223723182     -0.02062095276    0.01316143826     
199000000         -0.01001678299    0.01017808237     -0.7762107476     -0.6127121236     
                  -0.7762107476     -0.6127121236     -0.02034963013    0.01343320437     
200000000         -0.009685858732   0.01030512222     -0.7837723128     -0.6029265118     
                  -0.7837723128     -0.6029265118     -0.01984283727    0.01347208638     
201000000         -0.009348262606   0.01033481032     -0.7911884372     -0.5930759713     
                  -0.7911884372     -0.5930759713     -0.01941381393    0.01363322376     
202000000         -0.009073151657   0.01031235431     -0.7985003613     -0.5831225614     
                  -0.7985003613     -0.5831225614     -0.01906136759    0.01366346845     
203000000         -0.008762412014   0.01034725025     -0.8057238315     -0.5730220974     
                  -0.8057238315     -0.5730220974     -0.01871732381    0.01368955194     
204000000         -0.008501080428   0.01034493748     -0.8128014964     -0.5629045453     
                  -0.8128014964     -0.5629045453     -0.01812086239    0.01381219012     
205000000         -0.008202944468   0.01035301843     -0.8196961459     -0.5527302005     
                  -0.8196961459     -0.5527302005     -0.01786592925    0.01389233962     
206000000         -0.007906936594   0.01031988361     -0.8265109865     -0.5424545377     
                  -0.8265109865     -0.5424545377     -0.01745881766    0.01387637027     
207000000         -0.007575542412   0.01032966656     -0.8331469036     -0.5321565066     
                  -0.8331469036     -0.5321565066     -0.0169140736     0.01394300115     
208000000         -0.00730149999    0.01032224353     -0.8396653664     -0.5216975144     
                  -0.8396653664     -0.5216975144     -0.01642353881    0.01400954462     
209000000         -0.006989928534   0.01031789914     -0.8461068331     -0.5112686833     
                  -0.8461068331     -0.5112686833     -0.0161028423     0.01413858905     
210000000         -0.006716525216   0.01033197043     -0.8523710702     -0.5007334352     
                  -0.8523710702     -0.5007334352     -0.01568803771    0.01411281281     
211000000         -0.006427170866   0.01024965039     -0.8585304996     -0.4901483103     
                  -0.8585304996     -0.4901483103     -0.01519759       0.01414512496     
212000000         -0.006155264512   0.0103043859      -0.8645224004     -0.4794951499     
                  -0.8645224004     -0.4794951499     -0.01477034542    0.01418269545     
213000000         -0.005965304597   0.01026028636     -0.8703453011     -0.4688152606     
                  -0.8703453011     -0.4688152606     -0.0141607925     0.01423152696     
214000000         -0.005673787056   0.01017366544     -0.8760385435     -0.4580502253     
                  -0.8760385435     -0.4580502253     -0.01377118273    0.01414911211     
215000000         -0.005420491494   0.0101284602      -0.881704583      -0.4471631839     
                  -0.881704583      -0.4471631839     -0.0132478471     0.01421994603     
216000000         -0.005115463266   0.01007743111     -0.8871371202     -0.4362392426     
                  -0.8871371202     -0.4362392426     -0.01291804545    0.01417877592     
217000000         -0.004853544908   0.01001558033     -0.8924745765     -0.4252925766     
                  -0.8924745765     -0.4252925766     -0.01227129543    0.0141753365      
218000000         -0.004571400188   0.009926966514    -0.897659691      -0.4141419169     
                  -0.897659691      -0.4141419169     -0.0120032845     0.01391228481     
219000000         -0.0043714216     0.009850018178    -0.9026498711     -0.402985697      
                  -0.9026498711     -0.402985697      -0.01144437182    0.01396610908     
220000000         -0.004042873748   0.009767975317    -0.9075693867     -0.3918007375     
                  -0.9075693867     -0.3918007375     -0.01102818671    0.01385631782     
221000000         -0.003790685457   0.009681294442    -0.9123486069     -0.3805315205     
                  -0.9123486069     -0.3805315205     -0.01063531238    0.01377305266     
222000000         -0.003588378792   0.009582791772    -0.9169424444     -0.3692123253     
                  -0.9169424444     -0.3692123253     -0.01008802607    0.01359471734     
223000000         -0.003316847285   0.009456220063    -0.9214510252     -0.3578683691     
                  -0.9214510252     -0.3578683691     -0.009702025436   0.0135102908      
224000000         -0.003021653053   0.009374780062    -0.9258183112     -0.3463943559     
                  -0.9258183112     -0.3463943559     -0.009253087059   0.01329492296     
225000000         -0.002788360436   0.009213396516    -0.9300550094     -0.3348759195     
                  -0.9300550094     -0.3348759195     -0.008946503913   0.01324489784     
226000000         -0.002556214353   0.009119676634    -0.9341059564     -0.323324408      
                  -0.9341059564     -0.323324408      -0.008368005788   0.01299588713     
227000000         -0.002332523014   0.00896082722     -0.938056402      -0.3116927113     
                  -0.938056402      -0.3116927113     -0.008021769528   0.01287038444     
228000000         -0.002110764022   0.008880357808    -0.9417812552     -0.3001155882     
                  -0.9417812552     -0.3001155882     -0.007531309822   0.01277566903     
229000000         -0.001925106898   0.008730286616    -0.9454069412     -0.2883911274     
                  -0.9454069412     -0.2883911274     -0.007187615381   0.01268329546     
230000000         -0.001633149553   0.008527118346    -0.9489057587     -0.2766389484     
                  -0.9489057587     -0.2766389484     -0.006886150525   0.01245972713     
231000000         -0.001397895287   0.00841031527     -0.9522355905     -0.2648852483     
                  -0.9522355905     -0.2648852483     -0.006289017985   0.01213569194     
232000000         -0.001172540773   0.008240377597    -0.955453705      -0.2530638893     
                  -0.955453705      -0.2530638893     -0.005909287624   0.0118933659      
233000000         -0.0009694704077  0.008075886187    -0.9585055502     -0.2412106565     
                  -0.9585055502     -0.2412106565     -0.00554223324    0.01167423812     
234000000         -0.0008049796621  0.00790934174     -0.961403666      -0.2293110536     
                  -0.961403666      -0.2293110536     -0.005100709274   0.01150344929     
235000000         -0.0005815201276  0.007713040589    -0.964155335      -0.2173672405     
                  -0.964155335      -0.2173672405     -0.004641424148   0.0112412173      
236000000         -0.0003928026243  0.007548396053    -0.9667729316     -0.20544823       
                  -0.9667729316     -0.20544823       -0.00429012456    0.01088761335     
237000000         -0.0001928913218  0.007375382869    -0.969220958      -0.193476915      
                  -0.969220958      -0.193476915      -0.003834378804   0.01059815542     
238000000         -5.848573011e-06  0.007130001071    -0.9715525676     -0.1814418394     
                  -0.9715525676     -0.1814418394     -0.003577375213   0.01029705555     
239000000         0.0001699952572   0.006961267503    -0.9736914059     -0.1693824821     
                  -0.9736914059     -0.1693824821     -0.003180633548   0.01007720401     
240000000         0.0003686887673   0.006748978013    -0.9757383565     -0.157249931      
                  -0.9757383565     -0.157249931      -0.002962670604   0.009786618244    
241000000         0.0004838122636   0.006577286907    -0.9776014931     -0.1451757944     
                  -0.9776014931     -0.1451757944     -0.00249649459    0.009498220445    
242000000         0.000652413777    0.006329804768    -0.9792609218     -0.1330138298     
                  -0.9792609218     -0.1330138298     -0.002212732447   0.009225243708    
243000000         0.0008464522138   0.006138144152    -0.9809083974     -0.1208515079     
                  -0.9809083974     -0.1208515079     -0.001903288323   0.008784344832    
244000000         0.001008848683    0.005946191039    -0.9822936312     -0.1087170629     
                  -0.9822936312     -0.1087170629     -0.001503921958   0.008433051796    
245000000         0.001151285709    0.005735311403    -0.9835776956     -0.09649711358    
                  -0.9835776956     -0.09649711358    -0.001262697827   0.0081744346      
246000000         0.001274019766    0.00546955241     -0.9846636661     -0.08426532826    
                  -0.9846636661     -0.08426532826    -0.001008025346   0.007893360304    
247000000         0.001432186408    0.005271335941    -0.9856237993     -0.07203300247    
                  -0.9856237993     -0.07203300247    -0.0006514756574  0.007450728541    
248000000         0.001574861681    0.005052769037    -0.9864049122     -0.05981556932    
                  -0.9864049122     -0.05981556932    -0.0002936383602  0.007101251572    
249000000         0.001678469198    0.004797178878    -0.9870769983     -0.04757899809    
                  -0.9870769983     -0.04757899809    -0.0002031701097  0.006781151781    
250000000         0.00173949106     0.004557551876    -0.9875450537     -0.03526800207    
                  -0.9875450537     -0.03526800207    6.956877033e-05   0.00660585234     
