! RsaToolbox (C) 2014 Rohde & Schwarz America
! 
! Number of points: 101
! Number of ports: 2
! Balanced ports?: No
! 
! 
# Hz S RI R 50
150000000         -0.009759941452   -0.004069759821   -0.2737372775     -0.9518383945     
                  -0.2737372775     -0.9518383945     -0.01579752009    -0.0009466453632  
151000000         -0.009880233721   -0.003886616121   -0.2854385136     -0.9483643629     
                  -0.2854385136     -0.9483643629     -0.01577748649    -0.0008611077954  
152000000         -0.009879876428   -0.003752582991   -0.2970802243     -0.944755031      
                  -0.2970802243     -0.944755031      -0.0155977278     -0.0006376847079  
153000000         -0.009992914959   -0.00354031727    -0.3087019053     -0.9409611259     
                  -0.3087019053     -0.9409611259     -0.01560173195    -0.0003469369289  
154000000         -0.01003572191    -0.00337144588    -0.3202183056     -0.9370077239     
                  -0.3202183056     -0.9370077239     -0.01569175624    -0.0002909243093  
155000000         -0.01012981106    -0.003221670907   -0.3317809159     -0.9329794965     
                  -0.3317809159     -0.9329794965     -0.01570954524    -0.0001837486247  
156000000         -0.0101376162     -0.003074106668   -0.343195905      -0.928778015      
                  -0.343195905      -0.928778015      -0.01523689582    0.0001855856808   
157000000         -0.01015551246    -0.002858941029   -0.3546242523     -0.9244567456     
                  -0.3546242523     -0.9244567456     -0.0154194781     0.0002231207145   
158000000         -0.01021446242    -0.002655569629   -0.3659619172     -0.919957619      
                  -0.3659619172     -0.919957619      -0.01516607686    0.0003458288272   
159000000         -0.01028206666    -0.002504685773   -0.3773403851     -0.9153134548     
                  -0.3773403851     -0.9153134548     -0.01509868113    0.000511795551    
160000000         -0.01025102388    -0.002364712745   -0.3885671911     -0.9104743269     
                  -0.3885671911     -0.9104743269     -0.0150748756     0.000769450901    
161000000         -0.01027558382    -0.002160993233   -0.3997951772     -0.9056250401     
                  -0.3997951772     -0.9056250401     -0.01515295485    0.0009838153442   
162000000         -0.01023320494    -0.001964597942   -0.4109637859     -0.9005886788     
                  -0.4109637859     -0.9005886788     -0.01491745174    0.001171573926    
163000000         -0.01024028586    -0.001793863471   -0.4220160035     -0.8953833281     
                  -0.4220160035     -0.8953833281     -0.01485966819    0.001439988306    
164000000         -0.01017098726    -0.00160840309    -0.4330244538     -0.8901043246     
                  -0.4330244538     -0.8901043246     -0.01481019557    0.001598836742    
165000000         -0.01014360685    -0.001504028367   -0.4439740401     -0.8846534739     
                  -0.4439740401     -0.8846534739     -0.01463269258    0.001946387276    
166000000         -0.01014649696    -0.00131374832    -0.4548062585     -0.8790392748     
                  -0.4548062585     -0.8790392748     -0.01455097841    0.002172535729    
167000000         -0.01010723472    -0.001094102072   -0.465598043      -0.8733753731     
                  -0.465598043      -0.8733753731     -0.01444078666    0.002505366523    
168000000         -0.01009834158    -0.000873682145   -0.4763237952     -0.8675723802     
                  -0.4763237952     -0.8675723802     -0.01433276438    0.002635989047    
169000000         -0.01000976552    -0.0006641631299  -0.4869673767     -0.8616357328     
                  -0.4869673767     -0.8616357328     -0.01425929534    0.002925311924    
170000000         -0.009988115584   -0.0004679295368  -0.4974487555     -0.85554447       
                  -0.4974487555     -0.85554447       -0.01417173025    0.003159484326    
171000000         -0.009959869992   -0.0003022811941  -0.5078841187     -0.849387544      
                  -0.5078841187     -0.849387544      -0.01404568847    0.003189525369    
172000000         -0.00995123577    -6.201535282e-05  -0.5182475686     -0.8431013695     
                  -0.5182475686     -0.8431013695     -0.01412797242    0.003429645448    
173000000         -0.00982281125    5.753376987e-05   -0.528517041      -0.8366745344     
                  -0.528517041      -0.8366745344     -0.01383091243    0.003673596998    
174000000         -0.009800235476   0.0003488744261   -0.5387089947     -0.8301628266     
                  -0.5387089947     -0.8301628266     -0.01377814975    0.003922984674    
175000000         -0.009748803383   0.0004597648818   -0.548815427      -0.8234970385     
                  -0.548815427      -0.8234970385     -0.01360810819    0.004129141349    
176000000         -0.009686363149   0.0006393246206   -0.5588552681     -0.8166961273     
                  -0.5588552681     -0.8166961273     -0.01357739862    0.004259935474    
177000000         -0.009650549382   0.0008330980116   -0.5688056362     -0.809754489      
                  -0.5688056362     -0.809754489      -0.01352399999    0.004305595685    
178000000         -0.009573907777   0.001012498996    -0.5786831687     -0.8027287693     
                  -0.5786831687     -0.8027287693     -0.01329860014    0.004630602076    
179000000         -0.009517753145   0.001253022789    -0.588430898      -0.7955354837     
                  -0.588430898      -0.7955354837     -0.01318425633    0.004549038202    
180000000         -0.009455328733   0.001422725462    -0.598133436      -0.7882514714     
                  -0.598133436      -0.7882514714     -0.01300603899    0.004917471811    
181000000         -0.00935094212    0.001631931028    -0.6077737482     -0.7808425769     
                  -0.6077737482     -0.7808425769     -0.01288150923    0.004948363486    
182000000         -0.009260422949   0.001729413952    -0.6172965952     -0.7732619135     
                  -0.6172965952     -0.7732619135     -0.01286324042    0.005178475481    
183000000         -0.009148189396   0.001995054532    -0.6266753676     -0.7656170669     
                  -0.6266753676     -0.7656170669     -0.01266415953    0.005301450777    
184000000         -0.009127014233   0.002143449141    -0.6359878903     -0.7578732614     
                  -0.6359878903     -0.7578732614     -0.01253160957    0.005497027605    
185000000         -0.008974301502   0.002308126496    -0.6452629213     -0.7500161637     
                  -0.6452629213     -0.7500161637     -0.01225544854    0.005710312757    
186000000         -0.008889800657   0.002510259294    -0.6543789487     -0.7420212004     
                  -0.6543789487     -0.7420212004     -0.01209208114    0.005680938524    
187000000         -0.008797775856   0.002702304822    -0.663454201      -0.7338843233     
                  -0.663454201      -0.7338843233     -0.01199239586    0.005934009764    
188000000         -0.008644883493   0.00285269157     -0.6724096233     -0.7256680958     
                  -0.6724096233     -0.7256680958     -0.01175382902    0.006170419949    
189000000         -0.008541758115   0.003000691883    -0.6812641031     -0.7173563939     
                  -0.6812641031     -0.7173563939     -0.01171639527    0.006133077174    
190000000         -0.008450072901   0.003207495152    -0.6900123176     -0.7088920701     
                  -0.6900123176     -0.7088920701     -0.01147534166    0.006115889108    
191000000         -0.008258566287   0.003350701862    -0.6986401841     -0.7003324313     
                  -0.6986401841     -0.7003324313     -0.01132993823    0.006320139501    
192000000         -0.008090959126   0.003513834622    -0.7072465438     -0.6916088775     
                  -0.7072465438     -0.6916088775     -0.01072323707    0.006536067881    
193000000         -0.007973634429   0.003617341148    -0.7156175025     -0.6828876299     
                  -0.7156175025     -0.6828876299     -0.01078446385    0.006725557589    
194000000         -0.007789235052   0.00374377849     -0.7239768789     -0.6739254296     
                  -0.7239768789     -0.6739254296     -0.01089752864    0.006750558155    
195000000         -0.007668926583   0.003894138377    -0.7322614848     -0.6648892723     
                  -0.7322614848     -0.6648892723     -0.01061917222    0.00675874066     
196000000         -0.007412937382   0.003993710086    -0.7404535849     -0.6556646222     
                  -0.7404535849     -0.6556646222     -0.01043956336    0.006847956712    
197000000         -0.007215204024   0.004179735151    -0.7485368275     -0.6463036694     
                  -0.7485368275     -0.6463036694     -0.01036844193    0.007025977589    
198000000         -0.007027424044   0.004261661156    -0.7564750434     -0.6368841307     
                  -0.7564750434     -0.6368841307     -0.009976119072   0.006916492984    
199000000         -0.006803892915   0.004353101564    -0.7642951884     -0.6273701338     
                  -0.7642951884     -0.6273701338     -0.009965130684   0.007070843622    
200000000         -0.006654712898   0.004575586994    -0.7720572886     -0.6177774166     
                  -0.7720572886     -0.6177774166     -0.009696557498   0.007021426566    
201000000         -0.006399153522   0.00463343629     -0.7796002478     -0.6079968862     
                  -0.7796002478     -0.6079968862     -0.009790788078   0.007263969698    
202000000         -0.006170381161   0.004761042175    -0.7870909142     -0.5982451002     
                  -0.7870909142     -0.5982451002     -0.00947193511    0.007277565615    
203000000         -0.006003597227   0.004882967577    -0.7944366529     -0.5883551848     
                  -0.7944366529     -0.5883551848     -0.009478958715   0.007381600669    
204000000         -0.005798264652   0.004995655352    -0.8015990546     -0.5784687761     
                  -0.8015990546     -0.5784687761     -0.009204826385   0.007497187181    
205000000         -0.005617322028   0.005096805956    -0.8086718602     -0.5685435458     
                  -0.8086718602     -0.5685435458     -0.008984819545   0.00759796847     
206000000         -0.005403820471   0.005218382666    -0.8155946068     -0.5584969369     
                  -0.8155946068     -0.5584969369     -0.008908531831   0.007668798576    
207000000         -0.005161841401   0.005346443415    -0.8224160528     -0.5483871532     
                  -0.8224160528     -0.5483871532     -0.008628811028   0.007831768088    
208000000         -0.004986013106   0.005481408993    -0.8290433119     -0.5382337221     
                  -0.8290433119     -0.5382337221     -0.008547817904   0.007777624736    
209000000         -0.00481606788    0.005548620325    -0.8355752081     -0.5280502443     
                  -0.8355752081     -0.5280502443     -0.008253254745   0.007944397028    
210000000         -0.004602233001   0.005660123718    -0.8419773959     -0.5177353781     
                  -0.8419773959     -0.5177353781     -0.008142786002   0.007977757334    
211000000         -0.004436781654   0.005743053993    -0.8482541068     -0.5074076683     
                  -0.8482541068     -0.5074076683     -0.007893511249   0.007922268447    
212000000         -0.004219137956   0.005833436411    -0.8543818617     -0.4970202611     
                  -0.8543818617     -0.4970202611     -0.007508427132   0.008137138469    
213000000         -0.004084471074   0.005865346509    -0.8603961396     -0.4865573368     
                  -0.8603961396     -0.4865573368     -0.007378485211   0.008134849324    
214000000         -0.003881002246   0.005921746106    -0.8662965632     -0.4760346994     
                  -0.8662965632     -0.4760346994     -0.00723288531    0.008138168062    
215000000         -0.00373603954    0.005972711257    -0.8720239398     -0.4653774328     
                  -0.8720239398     -0.4653774328     -0.007047920779   0.008262044364    
216000000         -0.003494509975   0.006077648953    -0.8776148099     -0.4547072263     
                  -0.8776148099     -0.4547072263     -0.006691089641   0.008089790016    
217000000         -0.00335294349    0.006105032546    -0.8831084587     -0.4439251047     
                  -0.8831084587     -0.4439251047     -0.006589631504   0.008209469879    
218000000         -0.003134804973   0.006157215916    -0.8884573386     -0.4330546579     
                  -0.8884573386     -0.4330546579     -0.006352593777   0.008331853109    
219000000         -0.002906466936   0.00617906769     -0.8937105744     -0.4221797614     
                  -0.8937105744     -0.4221797614     -0.006182243447   0.008259680992    
220000000         -0.00273572769    0.00623155729     -0.898777859      -0.4111972485     
                  -0.898777859      -0.4111972485     -0.005805683378   0.008136036925    
221000000         -0.002564726111   0.006227999337    -0.9037244838     -0.4001257058     
                  -0.9037244838     -0.4001257058     -0.005767389292   0.008358791952    
222000000         -0.002318123534   0.006278068559    -0.9085512932     -0.389039792      
                  -0.9085512932     -0.389039792      -0.005398880035   0.008247668187    
223000000         -0.002120984466   0.006314239607    -0.9132035871     -0.3778427007     
                  -0.9132035871     -0.3778427007     -0.005252974091   0.008230557747    
224000000         -0.001926557059   0.006312627097    -0.9177761772     -0.366616403      
                  -0.9177761772     -0.366616403      -0.005079832261   0.008158459429    
225000000         -0.001676408695   0.006319825052    -0.9222112516     -0.3553081335     
                  -0.9222112516     -0.3553081335     -0.00491910081    0.008035486656    
226000000         -0.00153253641    0.006314275562    -0.9264850224     -0.3439364507     
                  -0.9264850224     -0.3439364507     -0.004747123719   0.008048508904    
227000000         -0.001278067622   0.00636339367     -0.9305955539     -0.3324976222     
                  -0.9305955539     -0.3324976222     -0.004492865321   0.008095363927    
228000000         -0.0009646885304  0.006307627909    -0.934598674      -0.3210973668     
                  -0.934598674      -0.3210973668     -0.00434037484    0.007751513823    
229000000         -0.0008084579607  0.00625547263     -0.9384534952     -0.3095455605     
                  -0.9384534952     -0.3095455605     -0.004252319749   0.007939337785    
230000000         -0.0005966966358  0.006296874594    -0.942159737      -0.2979627848     
                  -0.942159737      -0.2979627848     -0.004020783815   0.007801329348    
231000000         -0.0003663028785  0.006257441861    -0.9457304042     -0.2863525084     
                  -0.9457304042     -0.2863525084     -0.003905609465   0.007749645758    
232000000         -0.0001527715651  0.006289418871    -0.9491474341     -0.2746920856     
                  -0.9491474341     -0.2746920856     -0.003634076619   0.007749173225    
233000000         0.0001301097809   0.006243640614    -0.9524608431     -0.2629416473     
                  -0.9524608431     -0.2629416473     -0.003571477656   0.007611549416    
234000000         0.0002997802965   0.006205205901    -0.9555956238     -0.2511995165     
                  -0.9555956238     -0.2511995165     -0.00334797318    0.007576357612    
235000000         0.0005659086561   0.006156333646    -0.9585921139     -0.2394085343     
                  -0.9585921139     -0.2394085343     -0.003234654417   0.00745392719     
236000000         0.0007541643226   0.006120368644    -0.9614342019     -0.2276459802     
                  -0.9614342019     -0.2276459802     -0.003073475159   0.00743153364     
237000000         0.000990112132    0.006055939102    -0.9641750027     -0.2157381534     
                  -0.9641750027     -0.2157381534     -0.002991938584   0.007235995536    
238000000         0.001206405305    0.006012355341    -0.9667137849     -0.2038871193     
                  -0.9667137849     -0.2038871193     -0.002806352986   0.007254261453    
239000000         0.001423589851    0.005927397297    -0.9691167989     -0.1920116233     
                  -0.9691167989     -0.1920116233     -0.002644753186   0.007082557296    
240000000         0.001635794183    0.005879187515    -0.9713731333     -0.1799882991     
                  -0.9713731333     -0.1799882991     -0.002545485207   0.007042383609    
241000000         0.001829080247    0.005792041504    -0.9734747044     -0.1680027532     
                  -0.9734747044     -0.1680027532     -0.002278917453   0.007088216548    
242000000         0.002086678559    0.005730079557    -0.9754805204     -0.156039226      
                  -0.9754805204     -0.156039226      -0.002111480532   0.006789743532    
243000000         0.002246651749    0.005633126074    -0.9772891997     -0.1440285083     
                  -0.9772891997     -0.1440285083     -0.001996619187   0.006824837934    
244000000         0.002463955763    0.005513307603    -0.978974521      -0.1320100062     
                  -0.978974521      -0.1320100062     -0.001890445037   0.006674284233    
245000000         0.002649612826    0.005473505494    -0.9804884532     -0.1199026976     
                  -0.9804884532     -0.1199026976     -0.001747234949   0.006702160573    
246000000         0.002889440707    0.005329478162    -0.9819417956     -0.1078497873     
                  -0.9819417956     -0.1078497873     -0.001805442665   0.006436584984    
247000000         0.003105534697    0.005249188659    -0.9831170361     -0.09578781174    
                  -0.9831170361     -0.09578781174    -0.001387163883   0.006267892422    
248000000         0.003325358354    0.005170840646    -0.9842184621     -0.08367724061    
                  -0.9842184621     -0.08367724061    -0.001260152688   0.006107326312    
249000000         0.003474247394    0.00501530009     -0.9851334064     -0.07153650057    
                  -0.9851334064     -0.07153650057    -0.001185863174   0.006082191573    
250000000         0.003668720073    0.004891065318    -0.985972625      -0.0594302146     
                  -0.985972625      -0.0594302146     -0.001078358933   0.0058882403      
