! RsaToolbox (C) 2015 Rohde & Schwarz America
! 
! Number of points: 201
! Number of ports: 2
! Balanced ports?: No
! 
! 
# Hz S RI R 50
10000000          0.01236035211     -0.006399233315   0.5148830097      -0.0006560144211  0.5148830097      -0.0006560144211  -0.02550440311    0.006330245666    
209950000         0.008284571377    -0.001923971629   0.5066491534      -0.05223770571    0.5066491534      -0.05223770571    -0.004290899921   -0.0006517454644  
409900000         0.007836387469    -0.003327386635   0.4992079787      -0.1020906006     0.4992079787      -0.1020906006     -0.003957431758   -0.0009465654014  
609850000         0.007167926355    -0.005002470516   0.487321359       -0.1507073175     0.487321359       -0.1507073175     -0.003201123247   -0.002150923146   
809800000         0.006277623257    -0.006483729288   0.4709009628      -0.1980618312     0.4709009628      -0.1980618312     -0.004274311582   -0.003311763327   
1009750000        0.005212292903    -0.008070632631   0.4494503753      -0.2436167485     0.4494503753      -0.2436167485     -0.003907777315   -0.005223718611   
1209700000        0.003994259014    -0.009700345725   0.4238666936      -0.2864203844     0.4238666936      -0.2864203844     -0.004862162312   -0.006270703665   
1409650000        0.002431199216    -0.01148259028    0.3940613896      -0.326570743      0.3940613896      -0.326570743      -0.005316951132   -0.00930679751    
1609600000        0.0008063406712   -0.01295216482    0.3592985552      -0.3616634155     0.3592985552      -0.3616634155     -0.006304437412   -0.009922686417   
1809550000        -0.00121522833    -0.0144565062     0.3218310253      -0.3948707754     0.3218310253      -0.3948707754     -0.008938870913   -0.01051226471    
2009500000        -0.003425017744   -0.01503936497    0.2812445415      -0.4239931794     0.2812445415      -0.4239931794     -0.009851517605   -0.01237602919    
2209450000        -0.005639616291   -0.01509950176    0.2383701027      -0.4484280601     0.2383701027      -0.4484280601     -0.01286829161    -0.01091528943    
2409400000        -0.007611004612   -0.01492494797    0.1932677688      -0.468957737      0.1932677688      -0.468957737      -0.01367248852    -0.01144788382    
2609350000        -0.00949100499    -0.01426311664    0.1464736587      -0.4856070254     0.1464736587      -0.4856070254     -0.01472508751    -0.01060955159    
2809300000        -0.01117090009    -0.01340483401    0.09823871871     -0.4970610516     0.09823871871     -0.4970610516     -0.01644438845    -0.009382259559   
3009250000        -0.01263180245    -0.01217910217    0.04970660821     -0.5040562713     0.04970660821     -0.5040562713     -0.0184633602     -0.007588121428   
3209200000        -0.0140685445     -0.01101689319    0.0003254318206   -0.5063382117     0.0003254318206   -0.5063382117     -0.01940000646    -0.007242810435   
3409150000        -0.01567803976    -0.009556328246   -0.04906576241    -0.5038343669     -0.04906576241    -0.5038343669     -0.02086614759    -0.005718323102   
3609100000        -0.01706270968    -0.008081766343   -0.09775674704    -0.4967346498     -0.09775674704    -0.4967346498     -0.02115440406    -0.004221345497   
3809050000        -0.01855882399    -0.006698368873   -0.1455802558     -0.4849060747     -0.1455802558     -0.4849060747     -0.02144605711    -0.002130861579   
4009000000        -0.01994827835    -0.005249518679   -0.192171636      -0.4682297707     -0.192171636      -0.4682297707     -0.02192369917    0.0004613011024   
4208950000        -0.02134561987    -0.003785645231   -0.2365016139     -0.4475330982     -0.2365016139     -0.4475330982     -0.02281227603    0.001348354772    
4408900000        -0.02242311117    -0.002088596009   -0.2787899473     -0.4218475881     -0.2787899473     -0.4218475881     -0.02129987672    0.003865365113    
4608850000        -0.02309605091    -0.0003567400779  -0.3180108044     -0.3921525819     -0.3180108044     -0.3921525819     -0.02152120672    0.004901570435    
4808800000        -0.02334120372    0.001746661047    -0.354581906      -0.3590244429     -0.354581906      -0.3590244429     -0.02072831768    0.007265372643    
5008750000        -0.02319600565    0.003787925771    -0.3875458445     -0.3226093311     -0.3875458445     -0.3226093311     -0.02020986268    0.008673645486    
5208700000        -0.0227332841     0.005926556641    -0.4170192143     -0.2832870378     -0.4170192143     -0.2832870378     -0.01915566658    0.01010583155     
5408650000        -0.02191492143    0.008129970481    -0.4424587066     -0.2413906617     -0.4424587066     -0.2413906617     -0.0170412585     0.01265154003     
5608600000        -0.02079139351    0.01025552628     -0.4636292204     -0.1970219665     -0.4636292204     -0.1970219665     -0.01636219243    0.01486143092     
5808550000        -0.01965520703    0.01218894469     -0.4804571066     -0.1511888951     -0.4804571066     -0.1511888951     -0.01420930682    0.01696737144     
6008500000        -0.01825240941    0.01421792208     -0.4928225306     -0.1036909124     -0.4928225306     -0.1036909124     -0.01352458871    0.01881954476     
6208450000        -0.0167598953     0.01584963492     -0.500215628      -0.05545747174    -0.500215628      -0.05545747174    -0.01147053981    0.02053705051     
6408400000        -0.01502189512    0.01747605916     -0.503268413      -0.006426599466   -0.503268413      -0.006426599466   -0.00958196241    0.02136998526     
6608350000        -0.0134054782     0.01881284605     -0.501244927      0.04265824437     -0.501244927      0.04265824437     -0.006922118576   0.02214632139     
6808300000        -0.01187281599    0.01974119275     -0.4945810817     0.09141802819     -0.4945810817     0.09141802819     -0.00483173921    0.02309866759     
7008250000        -0.01001899225    0.0202521784      -0.4831102596     0.1389348443      -0.4831102596     0.1389348443      -0.001541520038   0.02453552521     
7208200000        -0.008065032858   0.02043408696     -0.4671947436     0.1849951628      -0.4671947436     0.1849951628      0.000968682213    0.02574048224     
7408150000        -0.006246597413   0.02055984281     -0.4468649258     0.2296479616      -0.4468649258     0.2296479616      0.00310883219     0.02687525656     
7608100000        -0.004050983648   0.02038239738     -0.422134991      0.2718066206      -0.422134991      0.2718066206      0.005532541638    0.02683166706     
7808050000        -0.001821256051   0.02007490629     -0.3937118894     0.3116967676      -0.3937118894     0.3116967676      0.008707819632    0.02762758773     
8008000000        0.0005139083171   0.01985858446     -0.3610177473     0.3482727228      -0.3610177473     0.3482727228      0.01109865609     0.02679766475     
8207950000        0.002803224599    0.01948174617     -0.3254973987     0.3816730556      -0.3254973987     0.3816730556      0.0130305449      0.02658575702     
8407900000        0.00545306704     0.01899229603     -0.2867723423     0.4115297591      -0.2867723423     0.4115297591      0.01589876166     0.025739866       
8607850000        0.007845255827    0.01850481344     -0.2454713549     0.437349167       -0.2454713549     0.437349167       0.01895486234     0.02466273503     
8807800000        0.01001061852     0.01799999494     -0.2014294229     0.4591064321      -0.2014294229     0.4591064321      0.02182673824     0.02478475463     
9007750000        0.01210820029     0.01710010605     -0.1555979568     0.4764227742      -0.1555979568     0.4764227742      0.0237217115      0.02373394693     
9207700000        0.01389458111     0.01607431119     -0.1084018002     0.4892657703      -0.1084018002     0.4892657703      0.02573689027     0.02246562849     
9407650000        0.01551204579     0.01476676191     -0.06052012641    0.4972701407      -0.06052012641    0.4972701407      0.02720709691     0.02110093417     
9607600000        0.01684557142     0.01278880267     -0.01157204116    0.5006676199      -0.01157204116    0.5006676199      0.02877316846     0.01910836484     
9807550000        0.01818770944     0.01037615183     0.03748580039     0.4990976604      0.03748580039     0.4990976604      0.03081994078     0.01761614369     
1.00075e+10       0.01919380955     0.0076708171      0.08600414708     0.4931673706      0.08600414708     0.4931673706      0.03243354273     0.01476188412     
1.020745e+10      0.01989889892     0.004872983424    0.1336553363      0.4823337775      0.1336553363      0.4823337775      0.03373468315     0.01377256258     
1.04074e+10       0.02057537594     0.002200893245    0.1796372408      0.466820153       0.1796372408      0.466820153       0.03413087142     0.01246951321     
1.060735e+10      0.02114503031     -0.0007426773989  0.2240107037      0.4473447223      0.2240107037      0.4473447223      0.0350869477      0.01003969395     
1.08073e+10       0.02157863658     -0.003642044867   0.2663190074      0.4235159547      0.2663190074      0.4235159547      0.03501657093     0.008135984031    
1.100725e+10      0.02189817331     -0.006639570021   0.3063099758      0.3957568297      0.3063099758      0.3957568297      0.03403291577     0.005395349572    
1.12072e+10       0.02202988524     -0.009670605113   0.3436308497      0.3640382722      0.3436308497      0.3640382722      0.03469946704     0.002714243518    
1.140715e+10      0.02193418651     -0.01228637547    0.3772414732      0.3288626614      0.3772414732      0.3288626614      0.0335953054      9.413901157e-05   
1.16071e+10       0.02154212502     -0.01423198721    0.4075958295      0.2904492381      0.4075958295      0.2904492381      0.03305733356     -0.001589268528   
1.180705e+10      0.02110601827     -0.0161208429     0.4329681717      0.2492723824      0.4329681717      0.2492723824      0.03187027428     -0.002932140867   
1.2007e+10        0.01982454786     -0.01814206591    0.4552764422      0.2062224212      0.4552764422      0.2062224212      0.02957569806     -0.004904811047   
1.220695e+10      0.01827592725     -0.01979587601    0.4733209695      0.1607883455      0.4733209695      0.1607883455      0.0278617605      -0.007504718442   
1.24069e+10       0.01671523958     -0.02175764784    0.4865623893      0.1138072791      0.4865623893      0.1138072791      0.02538218602     -0.01025953179    
1.260685e+10      0.01485371755     -0.0237165884     0.4953954776      0.06569669654     0.4953954776      0.06569669654     0.02382615062     -0.01315462014    
1.28068e+10       0.01265501151     -0.02559911815    0.4992102564      0.01724436087     0.4992102564      0.01724436087     0.02104476913     -0.01533718307    
1.300675e+10      0.01045423288     -0.02764694228    0.4983727741      -0.03143456224    0.4983727741      -0.03143456224    0.01884020646     -0.01718896364    
1.32067e+10       0.00798491821     -0.02997646517    0.4929513274      -0.07959771688    0.4929513274      -0.07959771688    0.01612580949     -0.01862212546    
1.340665e+10      0.005243869157    -0.03214209782    0.4831527923      -0.1269750395     0.4831527923      -0.1269750395     0.01267218166     -0.0203243942     
1.36066e+10       0.002708853035    -0.03416198102    0.4680948519      -0.1736665279     0.4680948519      -0.1736665279     0.009094374568    -0.02162207377    
1.380655e+10      0.0002235425137   -0.03584941835    0.4489015969      -0.2184905733     0.4489015969      -0.2184905733     0.004525594842    -0.02198628602    
1.40065e+10       -0.002595285033   -0.03717621762    0.4254188681      -0.2612199651     0.4254188681      -0.2612199651     0.001362523992    -0.02399273989    
1.420645e+10      -0.005476578309   -0.03814662647    0.3978089293      -0.3013393348     0.3978089293      -0.3013393348     -0.002003104563   -0.02477355064    
1.44064e+10       -0.008455063194   -0.03883697177    0.36664754        -0.3384444927     0.36664754        -0.3384444927     -0.005084303984   -0.02588922609    
1.460635e+10      -0.0113813141     -0.03896296151    0.3315155551      -0.3723535362     0.3315155551      -0.3723535362     -0.007510371561   -0.02562319965    
1.48063e+10       -0.01466529146    -0.03904339357    0.2937201166      -0.4026059884     0.2937201166      -0.4026059884     -0.01080677515    -0.02553089006    
1.500625e+10      -0.01823037387    -0.0382449775     0.2530611462      -0.4293550956     0.2530611462      -0.4293550956     -0.01392814642    -0.02336602424    
1.52062e+10       -0.02194621509    -0.03702009805    0.2100568558      -0.4515741962     0.2100568558      -0.4515741962     -0.01654233043    -0.02243030897    
1.540615e+10      -0.02556173327    -0.03538376468    0.1652139423      -0.4695950941     0.1652139423      -0.4695950941     -0.01897818111    -0.02136256568    
1.56061e+10       -0.02971580007    -0.03331051104    0.1187715174      -0.4832202262     0.1187715174      -0.4832202262     -0.02219660248    -0.01888741844    
1.580605e+10      -0.03345487612    -0.03118964859    0.07116273739     -0.4924585069     0.07116273739     -0.4924585069     -0.02328106956    -0.01745275435    
1.6006e+10        -0.03695334115    -0.0284202122     0.02256689805     -0.496734408      0.02256689805     -0.496734408      -0.02521658707    -0.01577866083    
1.620595e+10      -0.04026885132    -0.0253692608     -0.02606132445    -0.4959695467     -0.02606132445    -0.4959695467     -0.02597279682    -0.01309857078    
1.64059e+10       -0.04333547922    -0.02215911341    -0.07436619342    -0.4904419579     -0.07436619342    -0.4904419579     -0.02642543881    -0.01056574173    
1.660585e+10      -0.04580649774    -0.01889386284    -0.1213815715     -0.4802722121     -0.1213815715     -0.4802722121     -0.02615172539    -0.007648865886   
1.68058e+10       -0.04779749786    -0.01454437329    -0.1667156071     -0.4662888601     -0.1667156071     -0.4662888601     -0.02600144362    -0.00494203697    
1.700575e+10      -0.04893593265    -0.009868003139   -0.2112461408     -0.4488303925     -0.2112461408     -0.4488303925     -0.02797757828    -0.00195315178    
1.72057e+10       -0.04896707474    -0.00520298853    -0.2540966254     -0.4266588484     -0.2540966254     -0.4266588484     -0.02693525436    0.001421459594    
1.740565e+10      -0.04907978803    -0.0009583365263  -0.2951883145     -0.3994489348     -0.2951883145     -0.3994489348     -0.02459036155    0.004767259044    
1.76056e+10       -0.04902850816    0.003313168014    -0.3329325965     -0.3681590712     -0.3329325965     -0.3681590712     -0.02224710643    0.008485673101    
1.780555e+10      -0.0482259308     0.007706205471    -0.3671249521     -0.3336313111     -0.3671249521     -0.3336313111     -0.02021661748    0.01169550352     
1.80055e+10       -0.047189539      0.01166530671     -0.3977820727     -0.2962722242     -0.3977820727     -0.2962722242     -0.01835251538    0.01560667501     
1.820545e+10      -0.04543051185    0.01533777078     -0.4245307023     -0.2557962369     -0.4245307023     -0.2557962369     -0.01653232526    0.01882069243     
1.84054e+10       -0.04301476239    0.01910940186     -0.4474934296     -0.2132322466     -0.4474934296     -0.2132322466     -0.01390168629    0.02069376143     
1.860535e+10      -0.04046383695    0.02225294118     -0.4659321436     -0.1684690948     -0.4659321436     -0.1684690948     -0.01075008437    0.02310669597     
1.88053e+10       -0.03769846096    0.02515051254     -0.4800378495     -0.1223135254     -0.4800378495     -0.1223135254     -0.008083602354   0.02498775518     
1.900525e+10      -0.03445966159    0.02777537049     -0.4896221123     -0.07472678069    -0.4896221123     -0.07472678069    -0.004802183727   0.02629521677     
1.92052e+10       -0.03091971682    0.02967320963     -0.494290713      -0.02654627041    -0.494290713      -0.02654627041    -0.001749613694   0.02801493068     
1.940515e+10      -0.02736757715    0.0316164493      -0.4946482674     0.02184985324     -0.4946482674     0.02184985324     0.001161842316    0.02959861014     
1.96051e+10       -0.02329076689    0.03328136563     -0.4899097195     0.0700639002      -0.4899097195     0.0700639002      0.004300242859    0.03007966773     
1.980505e+10      -0.01922069158    0.03522445905     -0.4806242705     0.1176640937      -0.4806242705     0.1176640937      0.006869191223    0.03002405325     
2.0005e+10        -0.01491343062    0.03675513287     -0.4665917717     0.1642803428      -0.4665917717     0.1642803428      0.01039957303     0.02981965191     
2.020495e+10      -0.01107263842    0.03800217366     -0.4482201695     0.2091630106      -0.4482201695     0.2091630106      0.01293412997     0.02811063877     
2.04049e+10       -0.007204885046   0.03883609274     -0.4257222692     0.2517226308      -0.4257222692     0.2517226308      0.01678826793     0.02722566085     
2.060485e+10      -0.003188223091   0.03933218782     -0.399098551      0.2918466221      -0.399098551      0.2918466221      0.01960145763     0.02611963811     
2.08048e+10       0.0007895303893   0.039227646       -0.368584692      0.3294179124      -0.368584692      0.3294179124      0.02180756999     0.0239905864      
2.100475e+10      0.004517489598    0.0387203761      -0.334770998      0.3636705979      -0.334770998      0.3636705979      0.02411946497     0.02174862749     
2.12047e+10       0.00830821022     0.0379690382      -0.2977880332     0.3941938476      -0.2977880332     0.3941938476      0.02579671456     0.01883643637     
2.140465e+10      0.01186826641     0.03616648898     -0.2581855256     0.4212476726      -0.2581855256     0.4212476726      0.02811811908     0.01704960766     
2.16046e+10       0.0148637987      0.03364114468     -0.2161411618     0.4439584863      -0.2161411618     0.4439584863      0.0297541693      0.01481828846     
2.180455e+10      0.01819414082     0.03074122551     -0.1718685766     0.4627719169      -0.1718685766     0.4627719169      0.03032641127     0.01112337906     
2.20045e+10       0.02138458619     0.02694475356     -0.1257991102     0.4768772083      -0.1257991102     0.4768772083      0.03185898493     0.007216533595    
2.220445e+10      0.02442241767     0.02287832434     -0.07824624044    0.4867232705      -0.07824624044    0.4867232705      0.03360348739     0.00311971462     
2.24044e+10       0.02668271937     0.01885483132     -0.03042724461    0.4922044482      -0.03042724461    0.4922044482      0.03384389162     0.0009142500606   
2.260435e+10      0.02840480519     0.0145510363      0.01783023486     0.4925227591      0.01783023486     0.4925227591      0.03425796059     -0.002486295587   
2.28043e+10       0.02983142431     0.01006935276     0.06561678128     0.4885822811      0.06561678128     0.4885822811      0.03416226934     -0.006074757741   
2.300425e+10      0.03077441056     0.005487057544    0.1131669003      0.4800828118      0.1131669003      0.4800828118      0.03369509727     -0.009288302656   
2.32042e+10       0.03127119067     0.001094807364    0.1594514075      0.4663296315      0.1594514075      0.4663296315      0.03277346929     -0.01322219255    
2.340415e+10      0.03127538422     -0.003033872534   0.2042933103      0.4482797154      0.2042933103      0.4482797154      0.03278634323     -0.01672223112    
2.36041e+10       0.0310689498      -0.006849254541   0.2472777845      0.4259887494      0.2472777845      0.4259887494      0.03221855827     -0.01979471744    
2.380405e+10      0.03020198413     -0.01037025514    0.2881893071      0.3998709244      0.2881893071      0.3998709244      0.03129132791     -0.02363585808    
2.4004e+10        0.02930210464     -0.01353928841    0.3256796706      0.3703589119      0.3256796706      0.3703589119      0.03103188983     -0.02699341648    
