! RsaToolbox (C) 2014 Rohde & Schwarz America
! 
! Number of points: 798
! Number of ports: 2
! Balanced ports?: No
! 
! 
# Hz S RI R 50
20000000          0.5682610847      -0.5683553713     0                 0                 
                  0                 0                 1.597114519e-314  1.379210885e-315  
45000000          0.3985855611      -0.002005190268   0                 0                 
                  0                 0                 1.863726002e-314  1.068397876e-314  
70000000          -0.1978887399     0.3986020985      0                 0                 
                  0                 0                 3.417605727e-317  3.542632003e-317  
95000000          -0.2758746007     -0.6874890225     0                 0                 
                  0                 0                 2.075228873e-318  5.131989803e-317  
120000000         3.896544034       -0.06244403063    0                 0                 
                  0                 0                 7.720735686e-317  9.362251181e-315  
145000000         0.6793552463      -1.979683949      0                 0                 
                  0                 0                 5.704315447e-317  4.320741917e-317  
170000000         3.994126223       3.835097305       0                 0                 
                  0                 0                 5.330072197e-315  5.349497119e-315  
195000000         -0.001932042218   -0.5993245994     0                 0                 
                  0                 0                 1.062337991e-314  1.329306528e-314  
220000000         0.970427778       0.1652103835      0                 0                 
                  0                 0                 1.860388047e-314  1.065061439e-314  
245000000         -0.1577687005     -0.7633545074     0                 0                 
                  0                 0                 8.014550597e-317  6.459405855e-317  
270000000         -0.1331035905     0.557637581       0                 0                 
                  0                 0                 4.521194725e-320  2.670796822e-315  
295000000         0.4842399722      0.9146829146      0                 0                 
                  0                 0                 1.0625673e-314    5.318408137e-315  
320000000         0.6603852085      -0.6625202569     0                 0                 
                  0                 0                 8.017191056e-315  7.683214858e-320  
345000000         -0.1327420805     -0.2668399946     0                 0                 
                  0                 0                 4.927154138e-317  6.38958845e-317   
370000000         0.9830212159      0.01255485816     0                 0                 
                  0                 0                 1.66224187e-317   5.903459475e-317  
395000000         1.405215898       -0.6413093991     0                 0                 
                  0                 0                 5.640885323e-317  1.820785559e-317  
420000000         0.4226807486      0.4917805708      0                 0                 
                  0                 0                 1.333091846e-314  3.737791885e-317  
445000000         2.981115777       0.03792416211     0                 0                 
                  0                 0                 6.100073887e-317  9.223291586e-318  
470000000         -0.003072903807   0.001003188896    0                 0                 
                  0                 0                 1.063311134e-314  5.318048932e-315  
495000000         -0.4796214959     -0.2101233781     0                 0                 
                  0                 0                 5.361393271e-315  5.967016079e-317  
520000000         1.947307634       0.03220038063     0                 0                 
                  0                 0                 5.702607956e-317  1.066614307e-314  
545000000         1.597375185       -0.1967255207     0                 0                 
                  0                 0                 8.271369872e-317  1.85996655e-314   
570000000         0.6656296404      -0.001297693516   0                 0                 
                  0                 0                 1.793908388e-317  4.023575265e-317  
595000000         0.9975607456      0.004162532919    0                 0                 
                  0                 0                 5.318736355e-315  1.063827682e-314  
620000000         -0.706478226      -0.1798242907     0                 0                 
                  0                 0                 3.476356061e-317  2.72810907e-315   
645000000         0.7676188917      -0.1544774562     0                 0                 
                  0                 0                 1.782425809e-318  1.596854728e-314  
670000000         0.6968616941      0.9002539209      0                 0                 
                  0                 0                 8.564326591e-318  1.063244668e-314  
695000000         -0.001558297785   0.003528534567    0                 0                 
                  0                 0                 4.697175967e-318  1.06887825e-314   
720000000         1.490937451       -1.493217108      0                 0                 
                  0                 0                 1.114643223e-317  1.864112337e-314  
745000000         0.002510865734    -0.002405802949   0                 0                 
                  0                 0                 4.67615298e-317   2.066923071e-315  
770000000         0.5887415504      -0.3486387473     0                 0                 
                  0                 0                 1.068655454e-314  2.924646788e-317  
795000000         0.4260882923      0.003759406865    0                 0                 
                  0                 0                 1.327848395e-314  1.663032521e-314  
820000000         0.8763132509      0.1568291354      0                 0                 
                  0                 0                 1.061428531e-314  7.649653473e-317  
845000000         0.8046979591      0.03671075975     0                 0                 
                  0                 0                 1.338956931e-317  1.067099614e-314  
870000000         -0.2833039476     0.001860720663    0                 0                 
                  0                 0                 3.15111067e-317   1.063279767e-314  
895000000         0.994177793       -0.9938327104     0                 0                 
                  0                 0                 3.896398815e-317  1.065418051e-314  
920000000         0.8753965788      0.1607610079      0                 0                 
                  0                 0                 5.336874335e-315  1.130467509e-314  
945000000         -0.01846194503    0.006107846395    0                 0                 
                  0                 0                 5.36504161e-315   1.863848751e-314  
970000000         1.973797486       -1.984011101      0                 0                 
                  0                 0                 1.066805166e-314  7.813825559e-317  
995000000         0.4130677483      1.632006483       0                 0                 
                  0                 0                 1.039197423e-317  7.964432118e-315  
1020000000        -0.0002314967926  5.801288943e-06   0                 0                 
                  0                 0                 1.065998345e-314  1.067163613e-314  
1045000000        0.5965673142      1.791462825       0                 0                 
                  0                 0                 1.822998973e-317  1.107370577e-317  
1070000000        8.064647286e-06   -0.001949768039   0                 0                 
                  0                 0                 1.017632445e-317  1.327555718e-314  
1095000000        0.4890619107      0.3885577901      0                 0                 
                  0                 0                 3.640148704e-317  2.542295313e-317  
1120000000        0.3958978516      0.002080164847    0                 0                 
                  0                 0                 7.960890655e-315  3.36434673e-315   
1145000000        0.6886205501      -0.2763717458     0                 0                 
                  0                 0                 3.22023243e-317   1.064116754e-314  
1170000000        0.9164350344      -0.610179148      0                 0                 
                  0                 0                 9.820280988e-318  1.592286304e-314  
1195000000        1.184983667       0.604040944       0                 0                 
                  0                 0                 2.59826307e-317   1.062890079e-314  
1220000000        1.29245088        0.8948455021      0                 0                 
                  0                 0                 3.41336862e-317   1.329921288e-314  
1245000000        0.686874466       0.2740284194      0                 0                 
                  0                 0                 1.596724073e-314  1.466819938e-314  
1270000000        0.002472519333    -0.001708418237   0                 0                 
                  0                 0                 5.370524553e-315  1.130823552e-314  
1295000000        0.6169775105      0.5517751473      0                 0                 
                  0                 0                 1.862234224e-314  1.731939137e-314  
1320000000        -0.00324295858    0.001147987391    0                 0                 
                  0                 0                 7.231846712e-316  1.59918267e-314   
1345000000        0.3087684253      0.7241965859      0                 0                 
                  0                 0                 3.983191821e-318  7.255665765e-317  
1370000000        0.3538407612      0.3715297534      0                 0                 
                  0                 0                 2.698309387e-317  2.656218645e-315  
1395000000        0.4980506126      -0.4962717347     0                 0                 
                  0                 0                 5.37604544e-315   3.092739778e-317  
1420000000        0.8074085317      -0.1386643867     0                 0                 
                  0                 0                 7.993588473e-315  2.279847642e-317  
1445000000        1.240680437       0.005765156911    0                 0                 
                  0                 0                 5.343656236e-315  4.802886747e-317  
1470000000        -0.001782856473   2.978687277       0                 0                 
                  0                 0                 5.319685593e-315  3.283978756e-317  
1495000000        0.5959721537      -0.2003624626     0                 0                 
                  0                 0                 5.345905064e-315  3.979871893e-315  
1520000000        0.5260517245      -0.1494232311     0                 0                 
                  0                 0                 1.990616795e-314  1.068460041e-314  
1545000000        1.339450313       0.3236008689      0                 0                 
                  0                 0                 1.596595442e-314  1.069202231e-314  
1570000000        0.2822351429      -0.203257925      0                 0                 
                  0                 0                 4.746142814e-319  1.062597529e-314  
1595000000        0.2819195438      0.856454106       0                 0                 
                  0                 0                 1.862945172e-314  3.055554421e-317  
1620000000        1.078825339       0.1000359995      0                 0                 
                  0                 0                 1.994210114e-314  1.063762797e-314  
1645000000        1.983873403       1.980091088       0                 0                 
                  0                 0                 5.383146073e-315  1.59662643e-314   
1670000000        0.1313238778      0.03685605172     0                 0                 
                  0                 0                 5.326505438e-315  1.334031915e-314  
1695000000        0.0003333620877   -0.001702708466   0                 0                 
                  0                 0                 1.591707465e-314  1.065837462e-314  
1720000000        0.3222593284      0.05339107507     0                 0                 
                  0                 0                 1.162555057e-314  7.975025345e-317  
1745000000        1.495443992       -0.9832383309     0                 0                 
                  0                 0                 1.067326014e-314  2.708293954e-315  
1770000000        0.04657379313     -2.958191687      0                 0                 
                  0                 0                 1.862976034e-314  1.592029359e-314  
1795000000        0.9959973772      0.002151790216    0                 0                 
                  0                 0                 1.340982694e-315  6.87957509e-317   
1820000000        -0.5816349171     2.766915054       0                 0                 
                  0                 0                 5.373145235e-315  6.289289171e-317  
1845000000        -0.001439622736   -0.002118741637   0                 0                 
                  0                 0                 1.597955111e-314  7.583946695e-317  
1870000000        0.01521061634     0.01438537401     0                 0                 
                  0                 0                 5.368918247e-315  2.671419108e-315  
1895000000        0.2872564062      0.5681024212      0                 0                 
                  0                 0                 4.331520152e-315  1.387264551e-315  
1920000000        0.00308419196     -0.004335360824   0                 0                 
                  0                 0                 9.686048366e-315  1.069236317e-314  
1945000000        0.987596158       -0.9897826141     0                 0                 
                  0                 0                 5.348170336e-315  1.593162816e-314  
1970000000        1.191789619       1.5757737         0                 0                 
                  0                 0                 1.564978131e-317  1.065318511e-314  
1995000000        0.2017450526      0.2008506278      0                 0                 
                  0                 0                 1.332773051e-314  1.062177993e-314  
2020000000        -0.05603951879    -0.321913775      0                 0                 
                  0                 0                 4.970853257e-317  5.321325417e-315  
2045000000        0.572553106       -0.0009966093178  0                 0                 
                  0                 0                 6.680684024e-317  1.333221995e-314  
2070000000        0.002625703128    0.001283317702    0                 0                 
                  0                 0                 1.593583808e-314  1.732621248e-314  
2095000000        0.1999214498      -0.0002906278798  0                 0                 
                  0                 0                 1.334425143e-314  1.194543823e-314  
2120000000        0.1421741101      0.1423696022      0                 0                 
                  0                 0                 6.028838173e-315  2.660429823e-315  
2145000000        0.9963820679      -0.001662716545   0                 0                 
                  0                 0                 1.063891934e-314  5.317789014e-315  
2170000000        0.1211342106      0.4713483087      0                 0                 
                  0                 0                 1.242515317e-317  1.068038228e-314  
2195000000        -0.5675944319     -0.004742597411   0                 0                 
                  0                 0                 3.513035494e-317  7.20311299e-317   
2220000000        1.992203762       0.01570053825     0                 0                 
                  0                 0                 7.967046476e-315  2.307673419e-317  
2245000000        -0.006057886122   0.003849356931    0                 0                 
                  0                 0                 1.200924274e-314  1.067323421e-314  
2270000000        0.4822278011      -0.2083716423     0                 0                 
                  0                 0                 9.989116613e-315  2.638700861e-318  
2295000000        0.001071496221    8.683263454e-05   0                 0                 
                  0                 0                 1.066422562e-314  1.597666165e-314  
2320000000        0.6906516028      0.2722894837      0                 0                 
                  0                 0                 4.703219873e-317  1.599025581e-314  
2345000000        0.9718502784      0.1607418994      0                 0                 
                  0                 0                 1.592547867e-314  4.44836105e-317   
2370000000        0.9954245605      -1.000639218      0                 0                 
                  0                 0                 1.065190512e-314  1.597568459e-314  
2395000000        0.0005010692848   0.5686205917      0                 0                 
                  0                 0                 2.036508232e-315  5.328106053e-315  
2420000000        0.5263943087      0.1533312213      0                 0                 
                  0                 0                 2.034265573e-314  8.655098895e-315  
2445000000        0.4871533854      0.004293878036    0                 0                 
                  0                 0                 4.574525653e-317  5.311596514e-315  
2470000000        0.2462635545      -0.2943683613     0                 0                 
                  0                 0                 1.068817982e-314  1.109583991e-317  
2495000000        0.1084151064      0.646774711       0                 0                 
                  0                 0                 2.703503494e-315  5.338502775e-315  
2520000000        0.0259166211      1.976241044       0                 0                 
                  0                 0                 6.839417434e-317  1.063249854e-314  
2545000000        0.3262311822      0.3933762245      0                 0                 
                  0                 0                 7.35710337e-317   7.586602792e-317  
2570000000        0.1191208357      0.5768705395      0                 0                 
                  0                 0                 1.996447433e-314  3.091348489e-317  
2595000000        2.014763147       1.959832017       0                 0                 
                  0                 0                 1.285888893e-314  1.200795074e-314  
2620000000        0.279015886       -0.04087253322    0                 0                 
                  0                 0                 1.731324314e-314  8.014329428e-315  
2645000000        0.003184723466    0.0003536872247   0                 0                 
                  0                 0                 1.062077504e-314  7.168394009e-317  
2670000000        0.004646749519    -0.007121391789   0                 0                 
                  0                 0                 8.03956804e-315   1.06771216e-314   
2695000000        -0.001453177132   0.002033797272    0                 0                 
                  0                 0                 1.061112139e-314  9.312723195e-315  
2720000000        0.2854637894      -0.2851569607     0                 0                 
                  0                 0                 5.185870626e-317  1.061275362e-314  
