! RsaToolbox (C) 2014 Rohde & Schwarz America
! 
! Number of points: 798
! Number of ports: 2
! Balanced ports?: No
! 
! 
# Hz S RI R 50
20000000          2.090895479       0.2835695223      0                 0                 
                  0                 0                 1.393939675e-314  7.965135984e-315  
45000000          -0.002313815597   0.001072835244    0                 0                 
                  0                 0                 6.684533007e-315  1.860004051e-314  
70000000          -0.004100083958   -0.002398729363   0                 0                 
                  0                 0                 4.016168722e-315  1.732438717e-317  
95000000          -0.005731491441   0.00416512216     0                 0                 
                  0                 0                 7.882757597e-317  1.200050545e-314  
120000000         2.006025557       -1.960997522      0                 0                 
                  0                 0                 4.482763829e-317  5.370239971e-315  
145000000         0.5963090093      -0.2044522167     0                 0                 
                  0                 0                 5.371187313e-315  4.647568318e-317  
170000000         0.5960253237      -1.786195073      0                 0                 
                  0                 0                 2.728077107e-312  4.042667083e-315  
195000000         2.366264873       1.18871224        0                 0                 
                  0                 0                 6.713005734e-315  7.345386362e-315  
220000000         0.4876099132      0.4904735144      0                 0                 
                  0                 0                 1.863176063e-314  5.309061838e-315  
245000000         -0.00156056285    -0.00236542072    0                 0                 
                  0                 0                 7.303618605e-315  1.991817856e-314  
270000000         0.003786003706    0.003014922984    0                 0                 
                  0                 0                 5.371537664e-315  8.01466397e-315   
295000000         0.6888103675      0.4576842444      0                 0                 
                  0                 0                 2.03780466e-315   1.066869102e-314  
320000000         1.169654902       0.7060764723      0                 0                 
                  0                 0                 1.068068204e-314  1.762086785e-314  
345000000         -0.03364692815    -0.5836858029     0                 0                 
                  0                 0                 1.435019103e-317  1.726562564e-314  
370000000         1.767145901       0.06354585621     0                 0                 
                  0                 0                 5.315190466e-315  1.068326857e-314  
395000000         0.2126490526      0.1205952809      0                 0                 
                  0                 0                 1.859966044e-314  1.330503922e-314  
420000000         -0.004798804471   0.0190484336      0                 0                 
                  0                 0                 6.67087814e-315   5.366310213e-315  
445000000         0.7190828655      0.9543360067      0                 0                 
                  0                 0                 1.329985794e-314  8.009775487e-315  
470000000         0.08041891265     0.09899443764     0                 0                 
                  0                 0                 2.059067321e-314  1.067931162e-314  
495000000         -0.3844317497     -0.07627969466    0                 0                 
                  0                 0                 3.374347567e-315  7.684562175e-317  
520000000         1.376214392       1.067139111       0                 0                 
                  0                 0                 5.341078557e-315  6.862586993e-315  
545000000         0.01041829215     0.001263743141    0                 0                 
                  0                 0                 1.398957701e-315  5.33876965e-315   
570000000         -0.007419238403   0.002285872752    0                 0                 
                  0                 0                 1.068814187e-314  1.38050099e-315   
595000000         0.2755943829      0.6876818822      0                 0                 
                  0                 0                 1.465073934e-314  7.26311084e-319   
620000000         1.980612898       1.908780242       0                 0                 
                  0                 0                 1.336745587e-315  1.066618101e-314  
645000000         0.8553310586      -0.5698300488     0                 0                 
                  0                 0                 1.91177802e-314   1.857826747e-314  
670000000         -0.2000203787     -0.3991861586     0                 0                 
                  0                 0                 1.264129136e-314  1.791489525e-314  
695000000         -0.009291439301   -0.4916368695     0                 0                 
                  0                 0                 5.370257046e-315  7.996835868e-315  
720000000         0.1460485436      -0.04633655198    0                 0                 
                  0                 0                 1.329664722e-314  1.857898209e-314  
745000000         -3.981737536      0.03666344304     0                 0                 
                  0                 0                 1.727086448e-314  8.628241329e-315  
770000000         0.6611275357      -0.6585169737     0                 0                 
                  0                 0                 1.349104027e-315  8.016234229e-315  
795000000         -0.002339923778   -0.003029492117   0                 0                 
                  0                 0                 7.968331521e-315  1.500076611e-314  
820000000         0.4600643928      0.3093167527      0                 0                 
                  0                 0                 1.598052185e-314  1.725077869e-314  
845000000         -0.5908744494     -0.2032224738     0                 0                 
                  0                 0                 9.330851688e-315  5.345273293e-315  
870000000         0.4776191124      -0.6370910507     0                 0                 
                  0                 0                 6.643715562e-318  6.888666342e-316  
895000000         0.4682476669      -0.1155783021     0                 0                 
                  0                 0                 1.068331157e-314  4.248318549e-315  
920000000         1.986047812       -0.9945618604     0                 0                 
                  0                 0                 1.862755325e-314  1.328719721e-314  
945000000         0.3941813814      1.193600077       0                 0                 
                  0                 0                 1.99116901e-314   1.129595361e-314  
970000000         -0.003175905008   -0.00082973991    0                 0                 
                  0                 0                 1.594136086e-314  2.094782275e-314  
995000000         -0.001123929665   -0.0002948641428  0                 0                 
                  0                 0                 6.641113412e-315  6.634937986e-315  
1020000000        0.08271052542     -0.3814788181     0                 0                 
                  0                 0                 1.062533404e-314  1.598891701e-314  
1045000000        0.6110798135      -0.04693367933    0                 0                 
                  0                 0                 1.068099761e-314  1.862653318e-314  
1070000000        -0.2860972463     0.001079024346    0                 0                 
                  0                 0                 1.329662572e-314  5.342703835e-315  
1095000000        0.2304022155      -1.147893387      0                 0                 
                  0                 0                 1.596369421e-314  1.134515401e-314  
1120000000        0.07524408113     0.2642230569      0                 0                 
                  0                 0                 2.668865461e-315  7.008269309e-317  
1145000000        0.1627860367      0.1388565047      0                 0                 
                  0                 0                 7.79152887e-318   1.150576882e-314  
1170000000        -0.0003865624673  -0.0007956565546  0                 0                 
                  0                 0                 8.352368353e-315  8.032094922e-315  
1195000000        -0.0005427264513  -0.0006147120143  0                 0                 
                  0                 0                 1.862136897e-314  1.92799716e-314   
1220000000        0.9414029027      -0.2341932951     0                 0                 
                  0                 0                 1.594068609e-314  1.066291654e-314  
1245000000        -0.007591856525   -0.005252181516   0                 0                 
                  0                 0                 6.294221923e-317  2.693398942e-315  
1270000000        -0.3275398886     0.3956686689      0                 0                 
                  0                 0                 1.862976919e-314  1.09818126e-314   
1295000000        0.5721900791      -0.4256928075     0                 0                 
                  0                 0                 6.044367486e-315  1.525424377e-314  
1320000000        0.3655705576      0.64689132        0                 0                 
                  0                 0                 5.55977506e-318   8.003314215e-315  
1345000000        0.0184254695      3.934481829       0                 0                 
                  0                 0                 3.108246498e-315  1.064120674e-314  
1370000000        -0.000906704177   -0.002640977901   0                 0                 
                  0                 0                 1.329328121e-315  6.713008263e-315  
1395000000        0.5102229403      -0.3861606646     0                 0                 
                  0                 0                 2.663019518e-315  1.931235068e-314  
1420000000        0.1478057732      -0.7625726257     0                 0                 
                  0                 0                 1.689382926e-315  1.53028339e-314   
1445000000        0.7412422751      -0.3938919905     0                 0                 
                  0                 0                 7.958929571e-315  6.614562561e-315  
1470000000        0.8472048433      0.2350949203      0                 0                 
                  0                 0                 4.027152315e-315  4.70126402e-315   
1495000000        0.003196770951    -0.007940256527   0                 0                 
                  0                 0                 1.061106574e-314  1.333127703e-314  
1520000000        0.4804397507      -0.2040507541     0                 0                 
                  0                 0                 1.338362012e-315  5.769579542e-317  
1545000000        0.285039231       -0.2831025137     0                 0                 
                  0                 0                 1.327652033e-314  2.3391039e-317    
1570000000        0.6485557162      -0.1099926921     0                 0                 
                  0                 0                 7.449307878e-317  1.066743191e-314  
1595000000        0.8205451557      1.278851394       0                 0                 
                  0                 0                 1.992202105e-314  1.599049676e-314  
1620000000        0.5712059198      0.5700818769      0                 0                 
                  0                 0                 1.063631573e-314  1.461152903e-314  
1645000000        0.1627252604      2.209298187       0                 0                 
                  0                 0                 7.998763435e-315  5.334263771e-315  
1670000000        0.2003758236      -0.5934827233     0                 0                 
                  0                 0                 3.992045478e-318  3.996392816e-315  
1695000000        -0.006434153449   0.001677400803    0                 0                 
                  0                 0                 7.611926126e-318  7.910899577e-317  
1720000000        -0.0009233458339  -0.001993626713   0                 0                 
                  0                 0                 7.200863509e-318  1.595754661e-314  
1745000000        -0.003263667615   0.003777347553    0                 0                 
                  0                 0                 9.304289454e-315  1.426797851e-317  
1770000000        0.1416418525      -0.1644888706     0                 0                 
                  0                 0                 7.616262541e-317  1.747774154e-314  
1795000000        1.595077389       -0.7919270996     0                 0                 
                  0                 0                 8.014304764e-315  5.344920411e-315  
1820000000        0.4785613651      0.2043823307      0                 0                 
                  0                 0                 1.178389549e-317  5.349502811e-315  
1845000000        0.001844069684    -0.0003970798502  0                 0                 
                  0                 0                 5.364404779e-315  1.863270102e-314  
1870000000        0.0003830852747   0.0009714047155   0                 0                 
                  0                 0                 5.973466601e-317  1.592646838e-314  
1895000000        0.007978140348    0.02629558719     0                 0                 
                  0                 0                 9.328590844e-315  1.592257593e-314  
1920000000        0.2464273663      0.4299650505      0                 0                 
                  0                 0                 5.342050562e-315  1.626743217e-314  
1945000000        0.7135461025      0.1430172112      0                 0                 
                  0                 0                 1.063443876e-314  1.062500645e-314  
1970000000        -0.340554871      0.1354109579      0                 0                 
                  0                 0                 5.360180953e-315  1.790677835e-314  
1995000000        1.189246366       -0.3896130344     0                 0                 
                  0                 0                 2.677602755e-315  1.595560133e-314  
2020000000        -0.2001787908     -0.3912202904     0                 0                 
                  0                 0                 6.458457249e-317  1.267918184e-314  
2045000000        1.115047044       -0.0775440347     0                 0                 
                  0                 0                 1.326815995e-314  7.960888126e-315  
2070000000        0.3031049854      0.8976733534      0                 0                 
                  0                 0                 1.996220274e-314  2.091157146e-314  
2095000000        1.156007809       0.2327143975      0                 0                 
                  0                 0                 7.012536312e-315  1.924338133e-314  
2120000000        0.6414986606      0.3664252015      0                 0                 
                  0                 0                 6.746643764e-317  8.032803215e-315  
2145000000        0.3514762297      -0.5907010176     0                 0                 
                  0                 0                 1.392492635e-315  1.409090538e-317  
2170000000        -0.05734342041    -0.3216152864     0                 0                 
                  0                 0                 7.966405851e-315  5.003991228e-317  
2195000000        0.2767068289      -0.6908582535     0                 0                 
                  0                 0                 1.593097868e-314  1.232592032e-314  
2220000000        0.7943555074      0.3991660098      0                 0                 
                  0                 0                 1.463694179e-318  1.725852375e-314  
2245000000        0.4417715422      0.7338015002      0                 0                 
                  0                 0                 1.03090359e-314   6.988832816e-316  
2270000000        0.0003047127451   0.4259828307      0                 0                 
                  0                 0                 5.646119904e-315  8.350108141e-315  
2295000000        0.6865159049      0.4607476107      0                 0                 
                  0                 0                 5.031882948e-315  8.622103848e-315  
2320000000        0.001450589313    -0.0007575258035  0                 0                 
                  0                 0                 1.030096199e-314  5.388303155e-317  
2345000000        0.002850613033    0.001415434023    0                 0                 
                  0                 0                 6.676731671e-315  1.991171666e-314  
2370000000        0.9706171793      0.1657625035      0                 0                 
                  0                 0                 9.304974348e-315  5.342722807e-315  
2395000000        -0.003833378168   -0.0005098007964  0                 0                 
                  0                 0                 1.561856098e-314  1.528798126e-314  
2420000000        0.1225707221      0.1632946805      0                 0                 
                  0                 0                 1.563506988e-314  1.194904736e-314  
2445000000        0.2649565911      0.5289897046      0                 0                 
                  0                 0                 1.464523363e-314  4.639627201e-318  
2470000000        0.0009074913121   0.0004750642051   0                 0                 
                  0                 0                 5.742639131e-317  1.063406437e-314  
2495000000        0.2869739685      0.2831311542      0                 0                 
                  0                 0                 9.301701657e-315  4.063507133e-318  
2520000000        0.6168013746      -0.9265225493     0                 0                 
                  0                 0                 1.609809967e-314  1.065705163e-314  
2545000000        0.2426149177      0.19698105        0                 0                 
                  0                 0                 1.462543496e-314  1.397791142e-314  
2570000000        1.490356818       0.007134881413    0                 0                 
                  0                 0                 9.619367686e-315  1.990423469e-314  
2595000000        0.00447150829     0.9952015223      0                 0                 
                  0                 0                 1.595881521e-314  1.627781372e-314  
2620000000        0.3769754335      0.2700137761      0                 0                 
                  0                 0                 1.352671418e-315  5.305467254e-315  
2645000000        0.001174178609    0.0008183954382   0                 0                 
                  0                 0                 5.318745209e-315  1.328271979e-314  
2670000000        -0.0005788582252  0.001408599007    0                 0                 
                  0                 0                 1.99421277e-314   7.960884964e-315  
2695000000        8.07074825e-05    -0.002545015164   0                 0                 
                  0                 0                 7.978386113e-315  3.396113016e-315  
2720000000        0.4718924007      0.6591661368      0                 0                 
                  0                 0                 1.561404371e-314  7.978978675e-315  
