! RsaToolbox (C) 2014 Rohde & Schwarz America
! 
! Number of points: 101
! Number of ports: 2
! Balanced ports?: No
! 
! 
# Hz S RI R 50
300000000         -0.00129758184    -0.007437813874   -0.824323244      0.544712793       
                  -0.824323244      0.544712793       0.0002078718384   -0.01411024126    
301000000         -0.001488185617   -0.007560229879   -0.8174518661     0.5549135113      
                  -0.8174518661     0.5549135113      -6.773003357e-05  -0.01448364178    
302000000         -0.001722909173   -0.007697284291   -0.810519208      0.5649827137      
                  -0.810519208      0.5649827137      -0.0004188139434  -0.01479878572    
303000000         -0.001962191743   -0.007879137798   -0.8034290647     0.575002467       
                  -0.8034290647     0.575002467       -0.0007391119866  -0.01507360885    
304000000         -0.002237964529   -0.00803997861    -0.7962249227     0.5849503461      
                  -0.7962249227     0.5849503461      -0.001024072269   -0.01544654558    
305000000         -0.002431143673   -0.008219001055   -0.7888796092     0.5947264804      
                  -0.7888796092     0.5947264804      -0.001299206324   -0.0158094838     
306000000         -0.002692033961   -0.008332659189   -0.7814272872     0.6044630083      
                  -0.7814272872     0.6044630083      -0.001634095394   -0.01612917102    
307000000         -0.002893856268   -0.008488245825   -0.7738998065     0.6140967904      
                  -0.7738998065     0.6140967904      -0.001771766815   -0.01647010977    
308000000         -0.003181473452   -0.008594928417   -0.7661984852     0.6236118807      
                  -0.7661984852     0.6236118807      -0.002235105467   -0.01664129104    
309000000         -0.003459807142   -0.008744594719   -0.758360232      0.6330481435      
                  -0.758360232      0.6330481435      -0.002363111055   -0.01707455721    
310000000         -0.003685300558   -0.008871652849   -0.7504851841     0.6424132611      
                  -0.7504851841     0.6424132611      -0.002666080555   -0.01720575308    
311000000         -0.003939026612   -0.008951616187   -0.7423899824     0.6516324681      
                  -0.7423899824     0.6516324681      -0.0029867749     -0.01750819006    
312000000         -0.004221775953   -0.009097497153   -0.7342749953     0.6607979123      
                  -0.7342749953     0.6607979123      -0.003354623905   -0.01783619626    
313000000         -0.004453779313   -0.009182164434   -0.7260096862     0.6698328707      
                  -0.7260096862     0.6698328707      -0.003767982372   -0.0180437984     
314000000         -0.004733984539   -0.009220531288   -0.7176282906     0.6787674659      
                  -0.7176282906     0.6787674659      -0.004068495282   -0.01835698246    
315000000         -0.004971042695   -0.009327545895   -0.7091300505     0.6875778514      
                  -0.7091300505     0.6875778514      -0.004409018036   -0.01863931108    
316000000         -0.005245288704   -0.009442006527   -0.7005794592     0.6963288422      
                  -0.7005794592     0.6963288422      -0.004722079533   -0.01889047428    
317000000         -0.005550558504   -0.009513578002   -0.6918572108     0.7049227453      
                  -0.6918572108     0.7049227453      -0.005122227186   -0.01920311196    
318000000         -0.005819863027   -0.009634954409   -0.6830545299     0.7134536584      
                  -0.6830545299     0.7134536584      -0.005541960504   -0.01931629242    
319000000         -0.006105800708   -0.009633256256   -0.6741571711     0.7218513818      
                  -0.6741571711     0.7218513818      -0.005872331128   -0.01961542926    
320000000         -0.006404591116   -0.009690521459   -0.6650909293     0.7301272964      
                  -0.6650909293     0.7301272964      -0.00627152821    -0.0197506745     
321000000         -0.006650319701   -0.009726465915   -0.656005908      0.7383338165      
                  -0.656005908      0.7383338165      -0.00651133622    -0.01982829417    
322000000         -0.006942023173   -0.009732424797   -0.6467967999     0.7463662593      
                  -0.6467967999     0.7463662593      -0.007086022226   -0.02012667393    
323000000         -0.007231385856   -0.009843743355   -0.6374612787     0.7543643581      
                  -0.6374612787     0.7543643581      -0.007286646292   -0.02023049476    
324000000         -0.007458457404   -0.009867856817   -0.6280868229     0.7621558104      
                  -0.6280868229     0.7621558104      -0.007698628672   -0.02037828154    
325000000         -0.007766317065   -0.009816830755   -0.6185278913     0.7698885414      
                  -0.6185278913     0.7698885414      -0.008201982076   -0.02036227015    
326000000         -0.008080024982   -0.009890709106   -0.6089263631     0.7774694066      
                  -0.6089263631     0.7774694066      -0.008447930609   -0.0206249257     
327000000         -0.00836207603    -0.009933508858   -0.5992458738     0.7849425838      
                  -0.5992458738     0.7849425838      -0.008896227406   -0.02055506508    
328000000         -0.008663942732   -0.009820885339   -0.5894342292     0.7922726711      
                  -0.5894342292     0.7922726711      -0.009331129903   -0.02082387142    
329000000         -0.008962246891   -0.009827259579   -0.5795658371     0.7994890853      
                  -0.5795658371     0.7994890853      -0.009558919735   -0.02088316328    
330000000         -0.009223520132   -0.009839420744   -0.5696087343     0.8066091743      
                  -0.5696087343     0.8066091743      -0.009986211156   -0.02086044521    
331000000         -0.009488362843   -0.009791709497   -0.5595351662     0.8136099687      
                  -0.5595351662     0.8136099687      -0.01048546606    -0.02100250895    
332000000         -0.009762587657   -0.009778545968   -0.5494133684     0.8204688306      
                  -0.5494133684     0.8204688306      -0.01084312082    -0.0210433976     
333000000         -0.01004076167    -0.00980209883    -0.5391536439     0.8271994324      
                  -0.5391536439     0.8271994324      -0.01126117847    -0.02107890087    
334000000         -0.01030154733    -0.009694060033   -0.5288715104     0.8337663494      
                  -0.5288715104     0.8337663494      -0.01162019427    -0.02120031135    
335000000         -0.0105764642     -0.009647980213   -0.5184524039     0.8402508477      
                  -0.5184524039     0.8402508477      -0.01206723283    -0.02118792736    
336000000         -0.01086031596    -0.009630276069   -0.5080198092     0.8465969558      
                  -0.5080198092     0.8465969558      -0.01234705742    -0.02120077109    
337000000         -0.011151728      -0.009555341883   -0.4974392874     0.8528076835      
                  -0.4974392874     0.8528076835      -0.01281154253    -0.021160888      
338000000         -0.01145618099    -0.00947667297    -0.4868360915     0.8589011356      
                  -0.4868360915     0.8589011356      -0.01311011395    -0.02127615187    
339000000         -0.01175244612    -0.009415958898   -0.4761650111     0.8648511438      
                  -0.4761650111     0.8648511438      -0.01354819014    -0.02140327478    
340000000         -0.01209591852    -0.009284058896   -0.4653835808     0.870694184       
                  -0.4653835808     0.870694184       -0.01397476859    -0.02147383211    
341000000         -0.01229952631    -0.009256854348   -0.454544896      0.8763260759      
                  -0.454544896      0.8763260759      -0.01429168091    -0.02134105503    
342000000         -0.01248043729    -0.009178268394   -0.4436330045     0.8818802472      
                  -0.4436330045     0.8818802472      -0.01471103684    -0.02111380834    
343000000         -0.01278023056    -0.009119804008   -0.4326568574     0.8873078463      
                  -0.4326568574     0.8873078463      -0.01502561342    -0.02106469341    
344000000         -0.0130607286     -0.008985731233   -0.4215771395     0.8925943391      
                  -0.4215771395     0.8925943391      -0.0154185272     -0.02107770959    
345000000         -0.01331475968    -0.008842989972   -0.4104877141     0.8977400786      
                  -0.4104877141     0.8977400786      -0.01577087846    -0.02104168324    
346000000         -0.01357623562    -0.008765477112   -0.3993722517     0.9027449316      
                  -0.3993722517     0.9027449316      -0.01619862283    -0.0209170083     
347000000         -0.01385800328    -0.008554643536   -0.3880633149     0.9075879766      
                  -0.3880633149     0.9075879766      -0.01660079116    -0.02081902084    
348000000         -0.01411927957    -0.008476903108   -0.3768222704     0.9123098758      
                  -0.3768222704     0.9123098758      -0.01697037703    -0.02090419604    
349000000         -0.01447133887    -0.008375826103   -0.3654204006     0.9169251872      
                  -0.3654204006     0.9169251872      -0.01702759082    -0.02078855828    
350000000         -0.0147316109     -0.008138015367   -0.3540508393     0.9213320997      
                  -0.3540508393     0.9213320997      -0.01754724631    -0.02089744008    
351000000         -0.01493959651    -0.008069319724   -0.3425894417     0.9256426412      
                  -0.3425894417     0.9256426412      -0.01790548529    -0.02052221715    
352000000         -0.01518254017    -0.008020157529   -0.3311075847     0.9298028652      
                  -0.3311075847     0.9298028652      -0.01805191597    -0.02037664789    
353000000         -0.01536463989    -0.007832273752   -0.3195304612     0.9338315813      
                  -0.3195304612     0.9338315813      -0.01852670011    -0.02011313475    
354000000         -0.01563391157    -0.007668183568   -0.3079192601     0.9376953202      
                  -0.3079192601     0.9376953202      -0.01885726795    -0.01995333091    
355000000         -0.0158041932     -0.007497175733   -0.2962826133     0.9414253454      
                  -0.2962826133     0.9414253454      -0.01942624501    -0.01977768524    
356000000         -0.01605891614    -0.007293007983   -0.2845625882     0.94498411        
                  -0.2845625882     0.94498411        -0.01963425366    -0.01964216783    
357000000         -0.01634691115    -0.007112965267   -0.272830857      0.9484323481      
                  -0.272830857      0.9484323481      -0.01997749929    -0.01951969834    
358000000         -0.01662524013    -0.006856581084   -0.2610498207     0.9517048934      
                  -0.2610498207     0.9517048934      -0.02043842214    -0.01957677555    
359000000         -0.01684169529    -0.006587397622   -0.2492177706     0.9548334234      
                  -0.2492177706     0.9548334234      -0.02079967451    -0.01949350312    
360000000         -0.01715191556    -0.006307954952   -0.2373693461     0.9578595625      
                  -0.2373693461     0.9578595625      -0.02122949682    -0.0195094178     
361000000         -0.01734979939    -0.006258570522   -0.2254767492     0.9607168856      
                  -0.2254767492     0.9607168856      -0.0212949122     -0.019118329      
362000000         -0.01751689176    -0.006172991095   -0.2135420289     0.9634128732      
                  -0.2135420289     0.9634128732      -0.02139478989    -0.01860523886    
363000000         -0.01773662402    -0.006005155988   -0.201567662      0.96596562        
                  -0.201567662      0.96596562        -0.02164380197    -0.01846489613    
364000000         -0.01791356393    -0.005897064143   -0.1895746277     0.9683649182      
                  -0.1895746277     0.9683649182      -0.02185778309    -0.01800710534    
365000000         -0.01810411349    -0.005714741363   -0.1776016826     0.9706531564      
                  -0.1776016826     0.9706531564      -0.02214208488    -0.01777511498    
366000000         -0.0183206649     -0.00551492628    -0.1655047715     0.9727482272      
                  -0.1655047715     0.9727482272      -0.02232280137    -0.01750797736    
367000000         -0.01842429682    -0.005222112783   -0.1534449924     0.9747086235      
                  -0.1534449924     0.9747086235      -0.02274702201    -0.01736851906    
368000000         -0.01858542189    -0.004871976288   -0.1413834647     0.976534042       
                  -0.1413834647     0.976534042       -0.02318540211    -0.01710031298    
369000000         -0.01876243828    -0.004529612435   -0.129273914      0.9781552738      
                  -0.129273914      0.9781552738      -0.02362581985    -0.0170266084     
370000000         -0.01887258035    -0.004156237276   -0.1171391792     0.9796798992      
                  -0.1171391792     0.9796798992      -0.02416966686    -0.01693041564    
371000000         -0.01900680306    -0.004003304071   -0.104973421      0.981032334       
                  -0.104973421      0.981032334       -0.02436234928    -0.01639046976    
372000000         -0.01922472554    -0.003928921644   -0.09283148984    0.9822296012      
                  -0.09283148984    0.9822296012      -0.02423750735    -0.01600558179    
373000000         -0.01937092136    -0.003800722575   -0.08064199751    0.9832985749      
                  -0.08064199751    0.9832985749      -0.02446424039    -0.01551166357    
374000000         -0.01948793822    -0.003560224463   -0.0684637304     0.9842365056      
                  -0.0684637304     0.9842365056      -0.02459980826    -0.01521775398    
375000000         -0.01969091665    -0.003351879721   -0.0562636859     0.9849657886      
                  -0.0562636859     0.9849657886      -0.02476747495    -0.01475881677    
376000000         -0.01982677009    -0.003085142787   -0.04406944998    0.9855691771      
                  -0.04406944998    0.9855691771      -0.02500749834    -0.01448568159    
377000000         -0.01998496504    -0.002722142595   -0.03185763475    0.9859777288      
                  -0.03185763475    0.9859777288      -0.02536422713    -0.01430415414    
378000000         -0.02008474636    -0.002326272581   -0.01963849261    0.9862881494      
                  -0.01963849261    0.9862881494      -0.0257127829     -0.01419154039    
379000000         -0.02017523361    -0.001925938382   -0.007375966234   0.9864522221      
                  -0.007375966234   0.9864522221      -0.02614252175    -0.01397936292    
380000000         -0.0202173904     -0.001394501222   0.004812392129    0.9863761456      
                  0.004812392129    0.9863761456      -0.02680695488    -0.01392523985    
381000000         -0.0204023736     -0.001328591015   0.01703147019     0.9862536841      
                  0.01703147019     0.9862536841      -0.02662832749    -0.0134314075     
382000000         -0.02061842657    -0.001218197471   0.02924432513     0.9859516502      
                  0.02924432513     0.9859516502      -0.02642258862    -0.0129256643     
383000000         -0.02079953069    -0.001020600749   0.04148440749     0.9854947489      
                  0.04148440749     0.9854947489      -0.02636894694    -0.01266593056    
384000000         -0.02098501216    -0.0008075682523  0.05370539063     0.9849182351      
                  0.05370539063     0.9849182351      -0.02637894619    -0.01223929443    
385000000         -0.02112357126    -0.0004676422975  0.06585692376     0.9841520046      
                  0.06585692376     0.9841520046      -0.02652311448    -0.01206382535    
386000000         -0.02125090895    -0.0001712822807  0.07810496079     0.9832092028      
                  0.07810496079     0.9832092028      -0.02661838004    -0.0117895012     
387000000         -0.02123814221    0.0002334234021   0.09027417343     0.9821339544      
                  0.09027417343     0.9821339544      -0.02698242776    -0.01144329645    
388000000         -0.02125967289    0.0006625107117   0.1024138983      0.980960198       
                  0.1024138983      0.980960198       -0.02731546991    -0.01129352916    
389000000         -0.02116163576    0.001085027723    0.1145830881      0.9795379399      
                  0.1145830881      0.9795379399      -0.0278869702     -0.01086146174    
390000000         -0.02090686524    0.001580946289    0.1266889892      0.978030268       
                  0.1266889892      0.978030268       -0.0286575799     -0.01033992914    
391000000         -0.02116247267    0.002050177053    0.1388323351      0.9764215487      
                  0.1388323351      0.9764215487      -0.02860092761    -0.01058762897    
392000000         -0.02133581666    0.002631037311    0.150907727       0.9745805226      
                  0.150907727       0.9745805226      -0.02882194631    -0.01077482194    
393000000         -0.02135653625    0.003164283832    0.1629575385      0.9726297018      
                  0.1629575385      0.9726297018      -0.02921202727    -0.01083040364    
394000000         -0.02134279124    0.003681850221    0.1749976438      0.9704928347      
                  0.1749976438      0.9704928347      -0.029607497      -0.01080266968    
395000000         -0.02126303464    0.004026705101    0.1869832218      0.9682331439      
                  0.1869832218      0.9682331439      -0.02977251475    -0.0104100766     
396000000         -0.02111564751    0.004373174178    0.1989909145      0.9658281959      
                  0.1989909145      0.9658281959      -0.03010553479    -0.009937620717   
397000000         -0.02095669109    0.004575575957    0.2109557082      0.963293041       
                  0.2109557082      0.963293041       -0.03027610876    -0.009294509544   
398000000         -0.0208177081     0.004665686288    0.2228502175      0.960605021       
                  0.2228502175      0.960605021       -0.03028774042    -0.008416084712   
399000000         -0.02075183089    0.004691832116    0.2347805628      0.9577394166      
                  0.2347805628      0.9577394166      -0.03005631808    -0.007665015985   
400000000         -0.02074641598    0.004582271282    0.2466136397      0.954714255       
                  0.2466136397      0.954714255       -0.02961064566    -0.006762426031   
