! RsaToolbox (C) 2014 Rohde & Schwarz America
! 
! Number of points: 101
! Number of ports: 2
! Balanced ports?: No
! 
! 
# Hz S RI R 50
300000000         0.007672904124    -0.005440565006   -0.8378294533     0.5200710157      
                  -0.8378294533     0.5200710157      0.001218393022    -0.001960997242   
301000000         0.007582336752    -0.005678695582   -0.8313541354     0.5303021396      
                  -0.8313541354     0.5303021396      0.001084444909    -0.002187732333   
302000000         0.007562465       -0.005877358959   -0.8247386142     0.5404656363      
                  -0.8247386142     0.5404656363      0.0010495777      -0.002398831201   
303000000         0.007453234482    -0.006117131061   -0.8180090038     0.5505533651      
                  -0.8180090038     0.5505533651      0.0008975495783   -0.00253090032    
304000000         0.007369438363    -0.006291638725   -0.8111625225     0.5605754812      
                  -0.8111625225     0.5605754812      0.0007087972996   -0.002730359676   
305000000         0.007303215309    -0.006603978298   -0.8041770759     0.5704955261      
                  -0.8041770759     0.5704955261      0.000740858989    -0.00296251784    
306000000         0.007198070142    -0.006817069928   -0.7970970872     0.58033602        
                  -0.7970970872     0.58033602        0.0006328827701   -0.003111899182   
307000000         0.006984416939    -0.00703777422    -0.7898839707     0.5900969172      
                  -0.7898839707     0.5900969172      0.0004147626513   -0.003453524299   
308000000         0.006934106437    -0.007304259346   -0.782539092      0.5997821294      
                  -0.782539092      0.5997821294      0.0003622134046   -0.00352661303    
309000000         0.00681185387     -0.007537564547   -0.77510752       0.6093236987      
                  -0.77510752       0.6093236987      0.0003070901944   -0.003679934222   
310000000         0.006646667219    -0.007756291037   -0.7675166128     0.6188107528      
                  -0.7675166128     0.6188107528      0.0001767765933   -0.003870964756   
311000000         0.006475921983    -0.007973387448   -0.759867391      0.6281849193      
                  -0.759867391      0.6281849193      4.185820275e-05   -0.004107624526   
312000000         0.006431913495    -0.008157945853   -0.7520375198     0.6374716642      
                  -0.7520375198     0.6374716642      6.743882108e-05   -0.004190140384   
313000000         0.006250852098    -0.008408927884   -0.7441551432     0.6466246137      
                  -0.7441551432     0.6466246137      -0.0001948243736  -0.004246352254   
314000000         0.006086960512    -0.008602895707   -0.736144207      0.6557550835      
                  -0.736144207      0.6557550835      -0.0002837584736  -0.004514701419   
315000000         0.005963438357    -0.008767649143   -0.7280002681     0.6647626492      
                  -0.7280002681     0.6647626492      -0.000462793303   -0.00475502829    
316000000         0.00579609319     -0.009017203212   -0.7197417448     0.6736547832      
                  -0.7197417448     0.6736547832      -0.0006686458644  -0.004782383939   
317000000         0.005589475858    -0.009178377819   -0.7113554959     0.6824206005      
                  -0.7113554959     0.6824206005      -0.0006822626238  -0.004951643987   
318000000         0.005398660913    -0.009430000815   -0.7029326245     0.6911409495      
                  -0.7029326245     0.6911409495      -0.0009259325432  -0.004974810755   
319000000         0.005237587859    -0.009623846273   -0.6943587403     0.699676329       
                  -0.6943587403     0.699676329       -0.0009984240525  -0.005286404628   
320000000         0.004955157257    -0.009807404536   -0.6856768132     0.7081776851      
                  -0.6856768132     0.7081776851      -0.001074770508   -0.005319586295   
321000000         0.004779746565    -0.009976651794   -0.6768841892     0.716558762       
                  -0.6768841892     0.716558762       -0.001196040854   -0.005525206105   
322000000         0.004604481599    -0.01018988234    -0.6680057277     0.7248174035      
                  -0.6680057277     0.7248174035      -0.001326454118   -0.005610612986   
323000000         0.00441526976     -0.01033096735    -0.6590202711     0.7329146586      
                  -0.6590202711     0.7329146586      -0.001610709576   -0.005816662627   
324000000         0.004211377563    -0.0104706818     -0.6499661265     0.7409986441      
                  -0.6499661265     0.7409986441      -0.001711432664   -0.005874245566   
325000000         0.00407040976     -0.01067500513    -0.6407709135     0.7489053302      
                  -0.6407709135     0.7489053302      -0.001847358764   -0.005932247019   
326000000         0.003805642033    -0.01086883445    -0.6315307493     0.756728441       
                  -0.6315307493     0.756728441       -0.002036678124   -0.005986415412   
327000000         0.003551648598    -0.01102387967    -0.6221288262     0.76443024        
                  -0.6221288262     0.76443024        -0.002208591008   -0.006194594239   
328000000         0.003312516622    -0.01117045925    -0.6126689704     0.7720277483      
                  -0.6126689704     0.7720277483      -0.002466601931   -0.006271582362   
329000000         0.003053262168    -0.01128864016    -0.6030788797     0.7794672786      
                  -0.6030788797     0.7794672786      -0.002622817123   -0.006438257682   
330000000         0.002801438479    -0.01139950084    -0.5934485753     0.7868021422      
                  -0.5934485753     0.7868021422      -0.002806577355   -0.006614254156   
331000000         0.002586700265    -0.01158095948    -0.5837192388     0.7940170118      
                  -0.5837192388     0.7940170118      -0.002956318487   -0.006776863416   
332000000         0.002338907327    -0.01170406764    -0.5739032192     0.8011614975      
                  -0.5739032192     0.8011614975      -0.003216246879   -0.006786066996   
333000000         0.002165464301    -0.01183479271    -0.5639527342     0.8080976182      
                  -0.5639527342     0.8080976182      -0.003564139718   -0.006678196843   
334000000         0.001855085228    -0.01197052873    -0.5539193693     0.8150240162      
                  -0.5539193693     0.8150240162      -0.003639750267   -0.006662767604   
335000000         0.001600041316    -0.01210445913    -0.5439133808     0.8217793825      
                  -0.5439133808     0.8217793825      -0.003895149434   -0.006892799231   
336000000         0.001407156572    -0.01229753509    -0.5337387716     0.8283388531      
                  -0.5337387716     0.8283388531      -0.004093838152   -0.006763961198   
337000000         0.001105347675    -0.01228919044    -0.5235146208     0.8348404786      
                  -0.5235146208     0.8348404786      -0.004390395849   -0.006944653962   
338000000         0.0008487467061   -0.01242779111    -0.5131950355     0.8411767635      
                  -0.5131950355     0.8411767635      -0.004564294037   -0.007035851323   
339000000         0.0005580277617   -0.01254164616    -0.5027812648     0.847436413       
                  -0.5027812648     0.847436413       -0.004874470365   -0.007090077235   
340000000         0.0002587146857   -0.01261923329    -0.4923223562     0.8535501808      
                  -0.4923223562     0.8535501808      -0.005001779335   -0.007138545684   
341000000         5.295370287e-05   -0.01270344823    -0.4817375673     0.8594859768      
                  -0.4817375673     0.8594859768      -0.00513340947    -0.007128167363   
342000000         -0.0002048768689  -0.01279276932    -0.4711547509     0.8653323399      
                  -0.4711547509     0.8653323399      -0.005299895606   -0.007114427674   
343000000         -0.0005101070821  -0.01289879331    -0.4604320081     0.8710400525      
                  -0.4604320081     0.8710400525      -0.005547784989   -0.007081131858   
344000000         -0.0007823839929  -0.01294267875    -0.4497143347     0.876622182       
                  -0.4497143347     0.876622182       -0.005797630164   -0.007310431221   
345000000         -0.001054251991   -0.0130413038     -0.4388719847     0.882096588       
                  -0.4388719847     0.882096588       -0.006023726488   -0.007252942981   
346000000         -0.00132344809    -0.01306120367    -0.4279666891     0.8874080704      
                  -0.4279666891     0.8874080704      -0.006253192534   -0.007284997941   
347000000         -0.001593935388   -0.01313085889    -0.4170087508     0.8925654074      
                  -0.4170087508     0.8925654074      -0.006410018625   -0.00725046462    
348000000         -0.001933884776   -0.0131971098     -0.4059958542     0.8976096057      
                  -0.4059958542     0.8976096057      -0.006589785897   -0.00730455986    
349000000         -0.002145960766   -0.0132090678     -0.3948877743     0.9025343203      
                  -0.3948877743     0.9025343203      -0.006831329492   -0.007053237152   
350000000         -0.002537736956   -0.01324090526    -0.3837709909     0.9073196816      
                  -0.3837709909     0.9073196816      -0.007036436601   -0.00744246521    
351000000         -0.002735370916   -0.01324061848    -0.3725337597     0.9118981815      
                  -0.3725337597     0.9118981815      -0.007260827641   -0.00731858788    
352000000         -0.003099458308   -0.01326325807    -0.3613173388     0.9164050335      
                  -0.3613173388     0.9164050335      -0.007514672608   -0.007159422844   
353000000         -0.003321993625   -0.01329626283    -0.3500117402     0.9208104104      
                  -0.3500117402     0.9208104104      -0.007837520351   -0.007313486662   
354000000         -0.00364377542    -0.01332158593    -0.3386696155     0.9249989074      
                  -0.3386696155     0.9249989074      -0.008002895369   -0.007247519819   
355000000         -0.003879152479   -0.01336805988    -0.3272663822     0.9290926949      
                  -0.3272663822     0.9290926949      -0.008165527184   -0.007032731749   
356000000         -0.004189610522   -0.01333328935    -0.3157874065     0.9330229592      
                  -0.3157874065     0.9330229592      -0.008452603995   -0.006946911716   
357000000         -0.004468146732   -0.01333511872    -0.3042601389     0.936846698       
                  -0.3042601389     0.936846698       -0.008665475285   -0.00678550684    
358000000         -0.004752488714   -0.01330015158    -0.2927126852     0.9404185884      
                  -0.2927126852     0.9404185884      -0.008815003369   -0.006920861336   
359000000         -0.005089394482   -0.01327529833    -0.2811666188     0.9439610776      
                  -0.2811666188     0.9439610776      -0.009033732377   -0.006937614483   
360000000         -0.005431395982   -0.01323275475    -0.2694714359     0.9473474784      
                  -0.2694714359     0.9473474784      -0.009197361805   -0.006975756405   
361000000         -0.005687894076   -0.01320193299    -0.2577948147     0.9505753504      
                  -0.2577948147     0.9505753504      -0.009596102578   -0.006724400764   
362000000         -0.005946609129   -0.0131884163     -0.2460682333     0.9536282415      
                  -0.2460682333     0.9536282415      -0.009800529612   -0.006608713321   
363000000         -0.006179062654   -0.01317133893    -0.2343032058     0.9565796263      
                  -0.2343032058     0.9565796263      -0.009930403733   -0.006376320937   
364000000         -0.006495045644   -0.01306858562    -0.2225119362     0.9593561299      
                  -0.2225119362     0.9593561299      -0.01023808665    -0.006398140061   
365000000         -0.006716289114   -0.01300822622    -0.2107126535     0.9620211172      
                  -0.2107126535     0.9620211172      -0.01044184331    -0.006109176894   
366000000         -0.007015173722   -0.01297951087    -0.198810839      0.9645187611      
                  -0.198810839      0.9645187611      -0.01053789528    -0.005944451962   
367000000         -0.007303650667   -0.01287546433    -0.1869367287     0.9668587363      
                  -0.1869367287     0.9668587363      -0.01068070421    -0.005847942016   
368000000         -0.007615200763   -0.01278862973    -0.1750445128     0.9690683896      
                  -0.1750445128     0.9690683896      -0.01087674133    -0.005870193727   
369000000         -0.007875159618   -0.01264125836    -0.1631502973     0.9710906912      
                  -0.1631502973     0.9710906912      -0.01115974819    -0.005834287507   
370000000         -0.008181355288   -0.01250173223    -0.1511620888     0.97306233        
                  -0.1511620888     0.97306233        -0.0113217426     -0.005792627016   
371000000         -0.008457578165   -0.01247936917    -0.1391539961     0.9748025483      
                  -0.1391539961     0.9748025483      -0.01144952856    -0.005662223748   
372000000         -0.008637775988   -0.01241374688    -0.1271573193     0.9763764935      
                  -0.1271573193     0.9763764935      -0.01161411925    -0.005192125538   
373000000         -0.008900521631   -0.01238721428    -0.1151341065     0.9778975568      
                  -0.1151341065     0.9778975568      -0.01175674418    -0.005051275129   
374000000         -0.009110442999   -0.01222217876    -0.1031424903     0.9791883706      
                  -0.1031424903     0.9791883706      -0.01210019329    -0.004927311121   
375000000         -0.009405991023   -0.01212108294    -0.09103543068    0.9803760839      
                  -0.09103543068    0.9803760839      -0.01206334745    -0.004797832399   
376000000         -0.009616762217   -0.01197345248    -0.0789887505     0.9814124601      
                  -0.0789887505     0.9814124601      -0.01227610525    -0.004518792252   
377000000         -0.009941416106   -0.01186182807    -0.06696393042    0.9822904693      
                  -0.06696393042    0.9822904693      -0.01232576373    -0.004471973937   
378000000         -0.01019123604    -0.01169850335    -0.05482632022    0.9830185314      
                  -0.05482632022    0.9830185314      -0.01252647952    -0.004423396322   
379000000         -0.01038382024    -0.01142075327    -0.04276300586    0.9836078577      
                  -0.04276300586    0.9836078577      -0.01288072665    -0.00440717625    
380000000         -0.01066508172    -0.01122492005    -0.03064478578    0.9840274194      
                  -0.03064478578    0.9840274194      -0.0129027562     -0.004362377686   
381000000         -0.01090045783    -0.01118242537    -0.01857595428    0.9843105584      
                  -0.01857595428    0.9843105584      -0.01298127802    -0.004048228596   
382000000         -0.0111529017     -0.01107823115    -0.006433510434   0.9844524941      
                  -0.006433510434   0.9844524941      -0.01307419642    -0.003859578426   
383000000         -0.01137000773    -0.0110013996     0.005661509079    0.9844438206      
                  0.005661509079    0.9844438206      -0.01308076143    -0.003475023661   
384000000         -0.01161191181    -0.01091729273    0.01777361171     0.9842747894      
                  0.01777361171     0.9842747894      -0.01310816234    -0.003260804813   
385000000         -0.01181730281    -0.01073085852    0.02985542166     0.9839757692      
                  0.02985542166     0.9839757692      -0.01311397833    -0.003065012894   
386000000         -0.01207438945    -0.01060594288    0.04195428868     0.9835171246      
                  0.04195428868     0.9835171246      -0.01317046546    -0.002867996266   
387000000         -0.01225341745    -0.01035176858    0.05407686241     0.9828893823      
                  0.05407686241     0.9828893823      -0.01332220255    -0.00284548404    
388000000         -0.01245345013    -0.01011031821    0.06615618289     0.9821581214      
                  0.06615618289     0.9821581214      -0.01349133883    -0.002711558159   
389000000         -0.01265758539    -0.009803356176   0.07827317891     0.9812027105      
                  0.07827317891     0.9812027105      -0.01389981151    -0.002745550358   
390000000         -0.01279052297    -0.009527049802   0.09029108276     0.9801587885      
                  0.09029108276     0.9801587885      -0.01410464764    -0.002531168836   
391000000         -0.01313772647    -0.009423566115   0.1023570645      0.9789474719      
                  0.1023570645      0.9789474719      -0.01372173821    -0.002417276622   
392000000         -0.01351106851    -0.009322551466   0.1143675997      0.9776046484      
                  0.1143675997      0.9776046484      -0.01341058259    -0.002239885587   
393000000         -0.01377758453    -0.009239013221   0.1263666885      0.976110584       
                  0.1263666885      0.976110584       -0.01303263762    -0.002012865572   
394000000         -0.01406147779    -0.009017068768   0.1383579638      0.974461579       
                  0.1383579638      0.974461579       -0.01292034283    -0.001955333377   
395000000         -0.01437792191    -0.008771440886   0.1503337149      0.9726643536      
                  0.1503337149      0.9726643536      -0.01283912908    -0.001993878874   
396000000         -0.01449388258    -0.00845719582    0.1622949483      0.970712043       
                  0.1622949483      0.970712043       -0.01309323809    -0.00183554001    
397000000         -0.01461416111    -0.008120139503   0.1742339101      0.9686562243      
                  0.1742339101      0.9686562243      -0.01310881838    -0.001755724298   
398000000         -0.01462622092    -0.007803917312   0.1861542655      0.9663788406      
                  0.1861542655      0.9663788406      -0.01353672497    -0.001681957206   
399000000         -0.01452759179    -0.007446069102   0.198012154       0.9639921059      
                  0.198012154       0.9639921059      -0.01399256182    -0.001312178841   
400000000         -0.01435505712    -0.007176650335   0.2098657206      0.9614684533      
                  0.2098657206      0.9614684533      -0.01454119396    -0.000873699823   
