! RsaToolbox (C) 2014 Rohde & Schwarz America
! 
! Number of points: 101
! Number of ports: 2
! Balanced ports?: No
! 
! 
# Hz S RI R 50
50000000          0.004073473755    -0.003588880744   0.8096307667      -0.5769272398     
                  0.8096307667      -0.5769272398     0.000436883034    -0.004507849134   
51000000          0.00399016368     -0.003703152323   0.8024536323      -0.5868810799     
                  0.8024536323      -0.5868810799     0.0002150999098   -0.004569169133   
52000000          0.003938491062    -0.003764593899   0.7951077868      -0.5966667415     
                  0.7951077868      -0.5966667415     9.724147928e-05   -0.005067019474   
53000000          0.003858262878    -0.003896083281   0.7875813815      -0.6064545112     
                  0.7875813815      -0.6064545112     0.0002964539226   -0.005015578139   
54000000          0.003816353235    -0.004123814353   0.7800426862      -0.61613138       
                  0.7800426862      -0.61613138       -4.749062733e-05  -0.005334989659   
55000000          0.003688753654    -0.004097913614   0.772349694       -0.6256004294     
                  0.772349694       -0.6256004294     0.0001133165172   -0.005490245274   
56000000          0.003668321302    -0.004341838314   0.7645466432      -0.6350678016     
                  0.7645466432      -0.6350678016     0.0001303431326   -0.005600378448   
57000000          0.003594246527    -0.004423600331   0.7565751962      -0.6444182759     
                  0.7565751962      -0.6444182759     -5.215951721e-05  -0.005783323949   
58000000          0.003554099783    -0.004492618422   0.7485667169      -0.6537101338     
                  0.7485667169      -0.6537101338     -9.340580955e-05  -0.005953134554   
59000000          0.003411901544    -0.004653034626   0.7403300598      -0.6628292025     
                  0.7403300598      -0.6628292025     -0.0002847015004  -0.006192820773   
60000000          0.003302692058    -0.004713851751   0.7320285434      -0.6718525004     
                  0.7320285434      -0.6718525004     -0.0003429558157  -0.006187899412   
61000000          0.003292014811    -0.004888934302   0.723706039       -0.6808317521     
                  0.723706039       -0.6808317521     -0.0004554363416  -0.006691245047   
62000000          0.003255570813    -0.004983848703   0.7152302708      -0.689673783      
                  0.7152302708      -0.689673783      -0.0007342351872  -0.006690114457   
63000000          0.003089772866    -0.005122789615   0.7066489975      -0.6983566083     
                  0.7066489975      -0.6983566083     -0.0006360920205  -0.006967011939   
64000000          0.002978590357    -0.005217328032   0.6979166848      -0.7069918724     
                  0.6979166848      -0.7069918724     -0.0004681791225  -0.00734726794    
65000000          0.002882463583    -0.005340003213   0.6890840264      -0.715486876      
                  0.6890840264      -0.715486876      -0.0008831330384  -0.007141718029   
66000000          0.00285600819     -0.005472409969   0.680205049       -0.7238649486     
                  0.680205049       -0.7238649486     -0.001313618601   -0.007433411763   
67000000          0.002707985452    -0.005576591625   0.6712084858      -0.7321545327     
                  0.6712084858      -0.7321545327     -0.001275879912   -0.007615839354   
68000000          0.002636165098    -0.005691645446   0.6621230214      -0.7404053552     
                  0.6621230214      -0.7404053552     -0.001688875764   -0.00775482029    
69000000          0.002533555209    -0.005696614918   0.6528507707      -0.7484145066     
                  0.6528507707      -0.7484145066     -0.001280408716   -0.00799227397    
70000000          0.00240071022     -0.005792836376   0.643596743       -0.7563447801     
                  0.643596743       -0.7563447801     -0.001988838941   -0.00815970964    
71000000          0.0022977755      -0.005987800131   0.634194109       -0.7642398923     
                  0.634194109       -0.7642398923     -0.002291952635   -0.008038553256   
72000000          0.002166263315    -0.006065034078   0.624680203       -0.7719322922     
                  0.624680203       -0.7719322922     -0.002352255293   -0.008511238277   
73000000          0.002009276861    -0.006178702263   0.6150622076      -0.7795253792     
                  0.6150622076      -0.7795253792     -0.002235678925   -0.008494308673   
74000000          0.001868098634    -0.006203429316   0.6053619568      -0.7869951995     
                  0.6053619568      -0.7869951995     -0.002620007247   -0.008713191527   
75000000          0.001806790373    -0.006384529534   0.5956258192      -0.7943542623     
                  0.5956258192      -0.7943542623     -0.002578458948   -0.008519741317   
76000000          0.001713702757    -0.0064299755     0.5857703568      -0.8015888963     
                  0.5857703568      -0.8015888963     -0.002849433644   -0.008910899833   
77000000          0.001529370334    -0.006520475651   0.5758433687      -0.8087347013     
                  0.5758433687      -0.8087347013     -0.003094382756   -0.008802669073   
78000000          0.001359176388    -0.006583007828   0.5657778033      -0.8157075551     
                  0.5657778033      -0.8157075551     -0.003343479552   -0.009088524951   
79000000          0.001278406958    -0.0066808119     0.5556631788      -0.822569515      
                  0.5556631788      -0.822569515      -0.003594053872   -0.009030322564   
80000000          0.001144466935    -0.006862625244   0.545462429       -0.8293437994     
                  0.545462429       -0.8293437994     -0.003157537846   -0.008822702681   
81000000          0.0009719056082   -0.006922640025   0.5352028422      -0.8359522938     
                  0.5352028422      -0.8359522938     -0.004142017427   -0.009632901814   
82000000          0.0007527664448   -0.006999270929   0.524841837       -0.8424559438     
                  0.524841837       -0.8424559438     -0.004335211833   -0.009320533497   
83000000          0.0007003351683   -0.007041142434   0.5143821428      -0.8488277178     
                  0.5143821428      -0.8488277178     -0.004381974557   -0.009297741869   
84000000          0.0006150029498   -0.007133214975   0.5038822752      -0.8550359009     
                  0.5038822752      -0.8550359009     -0.004634011665   -0.009591698194   
85000000          0.0004176649009   -0.007191618107   0.4932547349      -0.8611571309     
                  0.4932547349      -0.8611571309     -0.004674396505   -0.009479644421   
86000000          0.0002075605884   -0.00728708861    0.4826419732      -0.8671149384     
                  0.4826419732      -0.8671149384     -0.005207978607   -0.009777877497   
87000000          9.310590031e-05   -0.007332649099   0.4718787631      -0.8729610362     
                  0.4718787631      -0.8729610362     -0.005343418034   -0.009522191954   
88000000          -3.982724801e-05  -0.007455058684   0.4610906853      -0.8787077249     
                  0.4610906853      -0.8787077249     -0.005647364497   -0.009641338593   
89000000          -0.0003116190872  -0.007361114272   0.4501963005      -0.8842463179     
                  0.4501963005      -0.8842463179     -0.00614950531    -0.009374636889   
90000000          -0.0004130238426  -0.007468621203   0.4392828254      -0.8896778898     
                  0.4392828254      -0.8896778898     -0.006163776006   -0.009776378526   
91000000          -0.0005394698384  -0.007497799252   0.4282840224      -0.894974621      
                  0.4282840224      -0.894974621      -0.006233997627   -0.009594801906   
92000000          -0.000738355323   -0.007593356212   0.4172035687      -0.9001538532     
                  0.4172035687      -0.9001538532     -0.006519210396   -0.009767787893   
93000000          -0.0008849590144  -0.007689449009   0.4060959257      -0.9052258376     
                  0.4060959257      -0.9052258376     -0.00662557435    -0.009913365561   
94000000          -0.001132436778   -0.007637469321   0.3949084113      -0.9100749717     
                  0.3949084113      -0.9100749717     -0.007117405165   -0.009876088948   
95000000          -0.001221635149   -0.007755053243   0.3836349125      -0.9148177776     
                  0.3836349125      -0.9148177776     -0.007066293603   -0.009776064883   
96000000          -0.001435298991   -0.007731329311   0.3723096215      -0.919470165      
                  0.3723096215      -0.919470165      -0.007861835615   -0.008972801825   
97000000          -0.00162784535    -0.007753299837   0.3609616493      -0.9239126673     
                  0.3609616493      -0.9239126673     -0.007738522207   -0.009595744131   
98000000          -0.001786740278   -0.007791476778   0.3495302374      -0.9282960015     
                  0.3495302374      -0.9282960015     -0.008021663345   -0.009585488298   
99000000          -0.00194246971    -0.007844007444   0.3381044822      -0.9324980445     
                  0.3381044822      -0.9324980445     -0.007914295302   -0.009888783742   
100000000         -0.002080902461   -0.00785727085    0.3265766955      -0.9365299985     
                  0.3265766955      -0.9365299985     -0.008184263865   -0.009589433738   
101000000         -0.002233459102   -0.007857349117   0.3149712911      -0.9404602075     
                  0.3149712911      -0.9404602075     -0.008461775534   -0.00954464991    
102000000         -0.002467893209   -0.007897421504   0.3033470628      -0.9442250903     
                  0.3033470628      -0.9442250903     -0.008862141967   -0.009588384439   
103000000         -0.002645099707   -0.007876429197   0.2916729444      -0.9478480366     
                  0.2916729444      -0.9478480366     -0.009172083471   -0.00953019617    
104000000         -0.002786815038   -0.007921345242   0.279980523       -0.9513353458     
                  0.279980523       -0.9513353458     -0.009317024711   -0.009357464351   
105000000         -0.002945494824   -0.007922733819   0.2682405163      -0.9546876463     
                  0.2682405163      -0.9546876463     -0.009629376852   -0.009364870182   
106000000         -0.003131236923   -0.007880691168   0.2564060702      -0.9579060552     
                  0.2564060702      -0.9579060552     -0.009978032336   -0.009116620877   
107000000         -0.00335437377    -0.007918655194   0.2445693654      -0.960948806      
                  0.2445693654      -0.960948806      -0.0101725194     -0.009023629517   
108000000         -0.003574505716   -0.007854161513   0.2326782734      -0.9639296975     
                  0.2326782734      -0.9639296975     -0.01049473494    -0.008953727649   
109000000         -0.003773287739   -0.007889091016   0.2207912116      -0.9666548834     
                  0.2207912116      -0.9666548834     -0.01069997141    -0.008848865384   
110000000         -0.003956705725   -0.007852511627   0.2088911052      -0.9692499052     
                  0.2088911052      -0.9692499052     -0.01082144183    -0.008763733702   
111000000         -0.004130086001   -0.007823958512   0.1968949295      -0.9717473267     
                  0.1968949295      -0.9717473267     -0.01117500627    -0.008563078376   
112000000         -0.004324394681   -0.007840346417   0.1848886443      -0.9740482203     
                  0.1848886443      -0.9740482203     -0.01135141646    -0.008397356522   
113000000         -0.004489897805   -0.007836615431   0.1728851373      -0.9762454676     
                  0.1728851373      -0.9762454676     -0.0116206145     -0.008372501306   
114000000         -0.004716821338   -0.007810910687   0.1608313138      -0.9782451633     
                  0.1608313138      -0.9782451633     -0.01197659858    -0.008102320417   
115000000         -0.004900698452   -0.007718127658   0.1487717933      -0.9801570299     
                  0.1487717933      -0.9801570299     -0.01218013288    -0.007873916829   
116000000         -0.005118482322   -0.007775728143   0.13664966        -0.9818637541     
                  0.13664966        -0.9818637541     -0.01234950351    -0.007823174235   
117000000         -0.005221745001   -0.00774328146    0.1245517668      -0.9834542746     
                  0.1245517668      -0.9834542746     -0.01237389348    -0.007653627626   
118000000         -0.005432797326   -0.007628028063   0.1124384499      -0.9848779315     
                  0.1124384499      -0.9848779315     -0.01267703999    -0.007413482342   
119000000         -0.005686387908   -0.007574031924   0.1002939343      -0.9861937226     
                  0.1002939343      -0.9861937226     -0.01297610341    -0.007278162045   
120000000         -0.005860270881   -0.007557930083   0.08813035161     -0.9873074293     
                  0.08813035161     -0.9873074293     -0.01315363073    -0.00715808404    
121000000         -0.005953279041   -0.007495119956   0.07591595807     -0.9882359549     
                  0.07591595807     -0.9882359549     -0.01343320946    -0.006984071086   
122000000         -0.006120294446   -0.007425850996   0.06370882943     -0.9890843327     
                  0.06370882943     -0.9890843327     -0.01364148495    -0.00686751209    
123000000         -0.006260130389   -0.007341323316   0.05149530117     -0.9897450866     
                  0.05149530117     -0.9897450866     -0.01374209272    -0.006488605393   
124000000         -0.006490909822   -0.007334001247   0.03928713343     -0.9903059184     
                  0.03928713343     -0.9903059184     -0.01382878371    -0.006519652517   
125000000         -0.006653478011   -0.007222768436   0.0270838245      -0.9906779044     
                  0.0270838245      -0.9906779044     -0.01414197724    -0.006258636551   
126000000         -0.006745239082   -0.007134525321   0.01489584005     -0.9908799294     
                  0.01489584005     -0.9908799294     -0.01413286252    -0.006028698409   
127000000         -0.006954535168   -0.006994283759   0.002702180497    -0.9910257673     
                  0.002702180497    -0.9910257673     -0.01443516941    -0.005741529218   
128000000         -0.007063404161   -0.006936671185   -0.009481483181   -0.9909667387     
                  -0.009481483181   -0.9909667387     -0.01432034936    -0.005687245396   
129000000         -0.007194401453   -0.006841130577   -0.02164649618    -0.9907246454     
                  -0.02164649618    -0.9907246454     -0.01440327123    -0.005393814089   
130000000         -0.007355397633   -0.006677159187   -0.03382205515    -0.990373523      
                  -0.03382205515    -0.990373523      -0.01460113367    -0.005209050923   
131000000         -0.007532555167   -0.006615537515   -0.04593206297    -0.9898581371     
                  -0.04593206297    -0.9898581371     -0.01468997587    -0.005104171157   
132000000         -0.007645827237   -0.006517274884   -0.0581304367     -0.9892160832     
                  -0.0581304367     -0.9892160832     -0.01483611727    -0.004785299392   
133000000         -0.007821501945   -0.006404148372   -0.07027597783    -0.9884109704     
                  -0.07027597783    -0.9884109704     -0.01492121514    -0.004615515477   
134000000         -0.007971421071   -0.006353086943   -0.08240928636    -0.9874502954     
                  -0.08240928636    -0.9874502954     -0.01492132972    -0.004540866456   
135000000         -0.008115154683   -0.006218895112   -0.09453520046    -0.9863224692     
                  -0.09453520046    -0.9863224692     -0.01510566436    -0.00426801762    
136000000         -0.008227056231   -0.006054690794   -0.1066607405     -0.9850625464     
                  -0.1066607405     -0.9850625464     -0.0152336534     -0.003842516334   
137000000         -0.008374172795   -0.005990345153   -0.1187009984     -0.9836356876     
                  -0.1187009984     -0.9836356876     -0.01518232809    -0.003705854601   
138000000         -0.008530105551   -0.005811376531   -0.130801049      -0.9820798881     
                  -0.130801049      -0.9820798881     -0.01530233317    -0.00354575901    
139000000         -0.008664202479   -0.00568842938    -0.1428308661     -0.980358264      
                  -0.1428308661     -0.980358264      -0.0152984092     -0.003359249626   
140000000         -0.008783179282   -0.005581231267   -0.1547957768     -0.9785018219     
                  -0.1547957768     -0.9785018219     -0.01524114724    -0.003098217831   
141000000         -0.008917027746   -0.005405234512   -0.1668557142     -0.9765103444     
                  -0.1668557142     -0.9765103444     -0.0155013992     -0.002965485142   
142000000         -0.008976136096   -0.005315775478   -0.178846599      -0.9743671143     
                  -0.178846599      -0.9743671143     -0.01531893531    -0.002675991576   
143000000         -0.00910748843    -0.005135312836   -0.1908412791     -0.9720177953     
                  -0.1908412791     -0.9720177953     -0.01555061011    -0.002409002129   
144000000         -0.009256827603   -0.005005745444   -0.2027484833     -0.9695850019     
                  -0.2027484833     -0.9695850019     -0.01555765057    -0.002288037078   
145000000         -0.00934735249    -0.004869640431   -0.2146347534     -0.9670035377     
                  -0.2146347534     -0.9670035377     -0.01572879676    -0.002254863321   
146000000         -0.009422176342   -0.004699064577   -0.226531116      -0.9642546502     
                  -0.226531116      -0.9642546502     -0.01563276109    -0.001901681829   
147000000         -0.009503706719   -0.004523039282   -0.2383607727     -0.9613263786     
                  -0.2383607727     -0.9613263786     -0.01574293966    -0.001647892608   
148000000         -0.009675444357   -0.004410907107   -0.2501372301     -0.958323711      
                  -0.2501372301     -0.958323711      -0.01574251256    -0.001698248248   
149000000         -0.009700157791   -0.004211538029   -0.2618901449     -0.9551199589     
                  -0.2618901449     -0.9551199589     -0.01573612279    -0.001328969812   
150000000         -0.009769775169   -0.004040409774   -0.2736078372     -0.9517668931     
                  -0.2736078372     -0.9517668931     -0.01572173295    -0.001087491483   
