! RsaToolbox (C) 2014 Rohde & Schwarz America
! 
! Number of points: 101
! Number of ports: 2
! Balanced ports?: No
! 
! 
# Hz S RI R 50
50000000          5.991923815e-05   -0.009833953049   0.8068134962      -0.5798551083     
                  0.8068134962      -0.5798551083     -0.005892479334   -0.01528649702    
51000000          -0.0001709058814  -0.01002354783    0.7994640082      -0.5898527622     
                  0.7994640082      -0.5898527622     -0.006209092818   -0.01529359605    
52000000          -0.0003973057772  -0.01010662644    0.7920547543      -0.5997540375     
                  0.7920547543      -0.5997540375     -0.006612984879   -0.015648116      
53000000          -0.0006386146102  -0.01028743012    0.7844966402      -0.6095512304     
                  0.7844966402      -0.6095512304     -0.006669700925   -0.01591356858    
54000000          -0.0009039485159  -0.01046996448    0.7768017215      -0.619318864      
                  0.7768017215      -0.619318864      -0.007444885389   -0.01619640795    
55000000          -0.001102903597   -0.01057947548    0.7690051666      -0.6288911459     
                  0.7690051666      -0.6288911459     -0.007574154263   -0.01621085588    
56000000          -0.001404477648   -0.01078440366    0.7610583329      -0.6383953991     
                  0.7610583329      -0.6383953991     -0.007894357588   -0.0166056677     
57000000          -0.001607107023   -0.01096079361    0.7530164341      -0.6478303549     
                  0.7530164341      -0.6478303549     -0.008120731879   -0.01656008284    
58000000          -0.001898966889   -0.01109062223    0.7448553134      -0.657160875      
                  0.7448553134      -0.657160875      -0.008689859186   -0.01695239301    
59000000          -0.002121761337   -0.01119871104    0.7365596279      -0.6663422187     
                  0.7365596279      -0.6663422187     -0.008807760075   -0.01727731979    
60000000          -0.002379420169   -0.01140279708    0.7281790376      -0.6754016741     
                  0.7281790376      -0.6754016741     -0.009237428095   -0.01743076762    
61000000          -0.00264797715    -0.01160454085    0.7196433873      -0.6844310648     
                  0.7196433873      -0.6844310648     -0.0098663787     -0.0177776123     
62000000          -0.002956841486   -0.01166347247    0.7110077007      -0.6932697893     
                  0.7110077007      -0.6932697893     -0.01021287242    -0.01803513122    
63000000          -0.003207239549   -0.01175852202    0.7023072225      -0.702018253      
                  0.7023072225      -0.702018253      -0.01041872       -0.01797117272    
64000000          -0.003516522799   -0.01188287069    0.6934429225      -0.7107032871     
                  0.6934429225      -0.7107032871     -0.01116207173    -0.01849149344    
65000000          -0.003678302203   -0.01193053947    0.6845869651      -0.7192232933     
                  0.6845869651      -0.7192232933     -0.01119324603    -0.01831612438    
66000000          -0.004046792832   -0.01205295947    0.6754961233      -0.7276192355     
                  0.6754961233      -0.7276192355     -0.01175380847    -0.01870528691    
67000000          -0.004314149634   -0.01206343387    0.6663935652      -0.7359364596     
                  0.6663935652      -0.7359364596     -0.0121968197     -0.01878497515    
68000000          -0.004592105946   -0.01224573096    0.6571310477      -0.744144936      
                  0.6571310477      -0.744144936      -0.01242702436    -0.01887858053    
69000000          -0.004922258787   -0.01231231641    0.6478164976      -0.7521909367     
                  0.6478164976      -0.7521909367     -0.01309584666    -0.01894769045    
70000000          -0.005249638923   -0.01234911725    0.6383767003      -0.7601919755     
                  0.6383767003      -0.7601919755     -0.01364570984    -0.01915121034    
71000000          -0.005489067452   -0.01243361808    0.6288716143      -0.7679792238     
                  0.6288716143      -0.7679792238     -0.01377238283    -0.01933046187    
72000000          -0.005813888528   -0.01241357463    0.6192409131      -0.7757270778     
                  0.6192409131      -0.7757270778     -0.01455487595    -0.01905956028    
73000000          -0.0060392536     -0.01249292603    0.6095031882      -0.783327205      
                  0.6095031882      -0.783327205      -0.0146678546     -0.01934668475    
74000000          -0.006307584476   -0.01256274957    0.5997069569      -0.7908012466     
                  0.5997069569      -0.7908012466     -0.01527975481    -0.01919107293    
75000000          -0.006577186577   -0.01264381889    0.5898412911      -0.7981639085     
                  0.5898412911      -0.7981639085     -0.01553925555    -0.01937845973    
76000000          -0.006909606663   -0.01261144328    0.5798274293      -0.8054054172     
                  0.5798274293      -0.8054054172     -0.01612517162    -0.01957194196    
77000000          -0.007264527375   -0.01261984351    0.56975492        -0.8124937432     
                  0.56975492        -0.8124937432     -0.01649243483    -0.01932665757    
78000000          -0.007507955096   -0.01265458408    0.559589496       -0.819473206      
                  0.559589496       -0.819473206      -0.01675559781    -0.01954012834    
79000000          -0.007819938399   -0.01264123057    0.5493434797      -0.8263128588     
                  0.5493434797      -0.8263128588     -0.01742869996    -0.0196467124     
80000000          -0.008000068708   -0.01265873447    0.5390132757      -0.8330507167     
                  0.5390132757      -0.8330507167     -0.01734857059    -0.01911370066    
81000000          -0.008449633521   -0.01269391408    0.5285666655      -0.8396597514     
                  0.5285666655      -0.8396597514     -0.01819760047    -0.01974633275    
82000000          -0.008714296675   -0.01250609177    0.5181344449      -0.8460904194     
                  0.5181344449      -0.8460904194     -0.01870354894    -0.01943038355    
83000000          -0.008988553863   -0.01253789265    0.5075231003      -0.8524377095     
                  0.5075231003      -0.8524377095     -0.01894668707    -0.01931517289    
84000000          -0.009317056289   -0.01255578814    0.4969173345      -0.8586611898     
                  0.4969173345      -0.8586611898     -0.01942389213    -0.01936361716    
85000000          -0.009499764878   -0.01256692756    0.4862067975      -0.86473323       
                  0.4862067975      -0.86473323       -0.01983629508    -0.01928116562    
86000000          -0.009847518454   -0.01253574674    0.4753882506      -0.8706707845     
                  0.4753882506      -0.8706707845     -0.02039425616    -0.01940169961    
87000000          -0.0101761758     -0.01252940558    0.4644873476      -0.8764935743     
                  0.4644873476      -0.8764935743     -0.02075435061    -0.01921298974    
88000000          -0.0104651394     -0.01241438673    0.4535825453      -0.8821463984     
                  0.4535825453      -0.8821463984     -0.02106924924    -0.01923651693    
89000000          -0.01078168203    -0.01237288824    0.4425780922      -0.8876977634     
                  0.4425780922      -0.8876977634     -0.02143018558    -0.01924645042    
90000000          -0.01099695936    -0.01222700681    0.4315187377      -0.8930633148     
                  0.4315187377      -0.8930633148     -0.02162715705    -0.01892474582    
91000000          -0.01131334843    -0.01219352053    0.420372028       -0.8983542157     
                  0.420372028       -0.8983542157     -0.02236123937    -0.01879276763    
92000000          -0.01155573804    -0.01211884732    0.4091879072      -0.9034550669     
                  0.4091879072      -0.9034550669     -0.02252557338    -0.01879226743    
93000000          -0.01191547592    -0.01203790863    0.3978979662      -0.9084474565     
                  0.3978979662      -0.9084474565     -0.02295006242    -0.01864069987    
94000000          -0.01215194418    -0.01191133845    0.386549492       -0.9132934628     
                  0.386549492       -0.9132934628     -0.02341631538    -0.01849832908    
95000000          -0.01241744119    -0.01182227891    0.375228726       -0.9179444257     
                  0.375228726       -0.9179444257     -0.02370765862    -0.01842753434    
96000000          -0.01267032786    -0.01168739495    0.3637751091      -0.9225531481     
                  0.3637751091      -0.9225531481     -0.02535380394    -0.01893575123    
97000000          -0.01299359953    -0.01164763965    0.3523007603      -0.9269248586     
                  0.3523007603      -0.9269248586     -0.02432913798    -0.01829328532    
98000000          -0.0131656891     -0.01147794488    0.3407350096      -0.9312047205     
                  0.3407350096      -0.9312047205     -0.02451672796    -0.01785850582    
99000000          -0.01350467603    -0.01137716362    0.329163486       -0.9353536275     
                  0.329163486       -0.9353536275     -0.02505242387    -0.0176586314     
100000000         -0.0137807364     -0.01121335592    0.3174699263      -0.9393540797     
                  0.3174699263      -0.9393540797     -0.02551896955    -0.01746865688    
101000000         -0.01402849808    -0.01107627925    0.3057867668      -0.9432017489     
                  0.3057867668      -0.9432017489     -0.02583928213    -0.01736331259    
102000000         -0.01425128112    -0.01097880922    0.2940394445      -0.9469196936     
                  0.2940394445      -0.9469196936     -0.02624752961    -0.01719730275    
103000000         -0.01452516863    -0.01089087343    0.2822714511      -0.9504918712     
                  0.2822714511      -0.9504918712     -0.0265079322     -0.01700519848    
104000000         -0.01479274366    -0.01068778525    0.2704117068      -0.9538433523     
                  0.2704117068      -0.9538433523     -0.02696529575    -0.01678699547    
105000000         -0.01502565068    -0.0105431096     0.2585321084      -0.9570729387     
                  0.2585321084      -0.9570729387     -0.02728891285    -0.01656137863    
106000000         -0.01528879849    -0.01040018055    0.2466338017      -0.9602057298     
                  0.2466338017      -0.9602057298     -0.02762386201    -0.01641808714    
107000000         -0.01547663083    -0.01021676966    0.2346956782      -0.9631689349     
                  0.2346956782      -0.9631689349     -0.02783377103    -0.01603880664    
108000000         -0.01572217664    -0.01001110114    0.2227367084      -0.966012354      
                  0.2227367084      -0.966012354      -0.0280875407     -0.0157775356     
109000000         -0.01596208771    -0.009857000656   0.2107029277      -0.9686846336     
                  0.2107029277      -0.9686846336     -0.0284872988     -0.0155294139     
110000000         -0.01619563264    -0.009673372375   0.1986806577      -0.9711788287     
                  0.1986806577      -0.9711788287     -0.02858601766    -0.01536905883    
111000000         -0.01638858558    -0.009444727219   0.1866119763      -0.9735557074     
                  0.1866119763      -0.9735557074     -0.02894078463    -0.01491900812    
112000000         -0.01661910499    -0.009274266844   0.174462128       -0.9757529234     
                  0.174462128       -0.9757529234     -0.02924714739    -0.01478502645    
113000000         -0.01679700088    -0.009125679423   0.1623160832      -0.9778361243     
                  0.1623160832      -0.9778361243     -0.02947349296    -0.01437387624    
114000000         -0.01701360935    -0.008863635994   0.1502220889      -0.9797583905     
                  0.1502220889      -0.9797583905     -0.02982679566    -0.0140337254     
115000000         -0.01721232098    -0.008653857896   0.1380409702      -0.981520921      
                  0.1380409702      -0.981520921      -0.03012298315    -0.01379239339    
116000000         -0.01740993964    -0.008407691955   0.1258049021      -0.9831431258     
                  0.1258049021      -0.9831431258     -0.03037027853    -0.01331163125    
117000000         -0.01758775983    -0.008186677417   0.1136319597      -0.9845964775     
                  0.1136319597      -0.9845964775     -0.03060553385    -0.01303644268    
118000000         -0.01781054625    -0.007975635943   0.1014045888      -0.9859409222     
                  0.1014045888      -0.9859409222     -0.030869389      -0.01258762886    
119000000         -0.01794072046    -0.007751422167   0.08917281914     -0.987069811      
                  0.08917281914     -0.987069811      -0.03088731905    -0.01243125942    
120000000         -0.01814926868    -0.007486559842   0.07688491399     -0.9880756634     
                  0.07688491399     -0.9880756634     -0.03105169002    -0.01200938518    
121000000         -0.01823446502    -0.007233132979   0.0645113106      -0.9890586457     
                  0.0645113106      -0.9890586457     -0.03167586636    -0.01170699805    
122000000         -0.0183643489     -0.007052588858   0.05219719086     -0.9896950589     
                  0.05219719086     -0.9896950589     -0.03172153473    -0.01134563636    
123000000         -0.01851988229    -0.006764108086   0.03990036022     -0.9902472763     
                  0.03990036022     -0.9902472763     -0.03200308092    -0.01087699511    
124000000         -0.01867566507    -0.006557848159   0.02755747535     -0.9906273156     
                  0.02755747535     -0.9906273156     -0.03208023447    -0.01061366511    
125000000         -0.01880373551    -0.006315570373   0.01522425515     -0.9908910698     
                  0.01522425515     -0.9908910698     -0.03232052784    -0.0102391083     
126000000         -0.01891804106    -0.005997296209   0.002934772756    -0.9909555109     
                  0.002934772756    -0.9909555109     -0.03249839791    -0.009797859137   
127000000         -0.01905875099    -0.005773617019   -0.00937455987    -0.990869994      
                  -0.00937455987    -0.990869994      -0.03249550219    -0.009511371764   
128000000         -0.01919443184    -0.005486525201   -0.02169668805    -0.9906541658     
                  -0.02169668805    -0.9906541658     -0.03271461605    -0.009092923549   
129000000         -0.01924286112    -0.005180257463   -0.03399209045    -0.9903180142     
                  -0.03399209045    -0.9903180142     -0.03279245373    -0.008647177983   
130000000         -0.01936587868    -0.004946273973   -0.04630496858    -0.9897929324     
                  -0.04630496858    -0.9897929324     -0.03291600874    -0.008403748417   
131000000         -0.01949749238    -0.004653174016   -0.05855648949    -0.989109947      
                  -0.05855648949    -0.989109947      -0.03303859955    -0.008046326489   
132000000         -0.01953258232    -0.004372027738   -0.07080670055    -0.988290334      
                  -0.07080670055    -0.988290334      -0.03311369237    -0.007551577932   
133000000         -0.01963093944    -0.004166102579   -0.08304853008    -0.9873020282     
                  -0.08304853008    -0.9873020282     -0.03307529108    -0.007302291369   
134000000         -0.01964943878    -0.003848295      -0.09530604112    -0.9862011819     
                  -0.09530604112    -0.9862011819     -0.03316037856    -0.006800758143   
135000000         -0.01972609725    -0.003576186109   -0.1075039728     -0.9848825522     
                  -0.1075039728     -0.9848825522     -0.03324259059    -0.006333545806   
136000000         -0.01980444712    -0.003262366016   -0.119636285      -0.9834640484     
                  -0.119636285      -0.9834640484     -0.03333753793    -0.006024121318   
137000000         -0.01984124265    -0.002966369871   -0.1318401591     -0.9818858114     
                  -0.1318401591     -0.9818858114     -0.03334723897    -0.005458409162   
138000000         -0.01990198948    -0.002712869047   -0.1439897235     -0.9801437484     
                  -0.1439897235     -0.9801437484     -0.03321609231    -0.005215005212   
139000000         -0.01990418292    -0.002409762303   -0.1561477461     -0.9782357395     
                  -0.1561477461     -0.9782357395     -0.03335792353    -0.004801897461   
140000000         -0.01994461495    -0.002127248322   -0.1682256363     -0.9762239907     
                  -0.1682256363     -0.9762239907     -0.03337673085    -0.004359318922   
141000000         -0.01996738583    -0.001846189711   -0.180267421      -0.9740543107     
                  -0.180267421      -0.9740543107     -0.03328556147    -0.004069911745   
142000000         -0.02001158649    -0.001577139751   -0.1923555917     -0.9716986505     
                  -0.1923555917     -0.9716986505     -0.03336851812    -0.003727448897   
143000000         -0.02002041759    -0.001263998437   -0.204361967      -0.9692104891     
                  -0.204361967      -0.9692104891     -0.03338430871    -0.003229924227   
144000000         -0.02000466931    -0.0009614000595  -0.216323611      -0.9666011961     
                  -0.216323611      -0.9666011961     -0.03343736232    -0.002818410841   
145000000         -0.02001022665    -0.0006902180755  -0.228288303      -0.9637807502     
                  -0.228288303      -0.9637807502     -0.03336050971    -0.00243530585    
146000000         -0.02002653245    -0.0003941451651  -0.2402216028     -0.9608327339     
                  -0.2402216028     -0.9608327339     -0.03346149509    -0.001995232395   
147000000         -0.02000464838    -7.694212535e-05  -0.2520940183     -0.9578033852     
                  -0.2520940183     -0.9578033852     -0.03338435256    -0.001712370645   
148000000         -0.01999395151    0.0002261466425   -0.2639335775     -0.9545657477     
                  -0.2639335775     -0.9545657477     -0.03351956639    -0.001268893499   
149000000         -0.01993695062    0.0005086362696   -0.2756976408     -0.9511983034     
                  -0.2756976408     -0.9511983034     -0.03332598924    -0.0008590477369  
150000000         -0.01991327211    0.0007533011883   -0.2874440333     -0.9476447314     
                  -0.2874440333     -0.9476447314     -0.03312282736    -0.0004448803243  
