! RsaToolbox (C) 2015 Rohde & Schwarz America
! 
! Number of points: 911
! Number of ports: 2
! Balanced ports?: No
! 
! 
# Hz S RI R 50
9900000000        0.9891920331      -0.6013103201     -0.8569623602     0.02976403431     -0.8569623602     0.02976403431     0.2232612194      0.75363912        
9910000000        1.002412947       -0.605492935      -0.8628958797     0.05386174768     -0.8628958797     0.05386174768     0.2463488505      0.7367305066      
9920000000        1.015110201       -0.6001449968     -0.8681069447     0.07843950653     -0.8681069447     0.07843950653     0.2697730193      0.7187918456      
9930000000        1.022130509       -0.5843062517     -0.8723564308     0.1024798041      -0.8723564308     0.1024798041      0.2904909887      0.7021895964      
9940000000        1.020533386       -0.5589584078     -0.8751568714     0.126657563       -0.8751568714     0.126657563       0.3101313628      0.6832472821      
9950000000        1.008821033       -0.5281481187     -0.8770599354     0.1511269601      -0.8770599354     0.1511269601      0.3295801218      0.6640169474      
9960000000        0.9885615751      -0.4970777088     -0.8781078341     0.1752337104      -0.8781078341     0.1752337104      0.3474373978      0.6448283201      
9970000000        0.9632433671      -0.4716400152     -0.8783250434     0.1991014966      -0.8783250434     0.1991014966      0.3639145054      0.6253081405      
9980000000        0.9376626687      -0.4558356677     -0.8775739755     0.2227955198      -0.8775739755     0.2227955198      0.3797296842      0.6057089612      
9990000000        0.917176333       -0.4515494123     -0.8757792933     0.2463086891      -0.8757792933     0.2463086891      0.3941036152      0.5853336882      
1e+10             0.9056936631      -0.4581512254     -0.8730620131     0.2695862083      -0.8730620131     0.2695862083      0.4074311049      0.5646997905      
1.001e+10         0.9051360116      -0.4714173783     -0.8696993886     0.2925457952      -0.8696993886     0.2925457952      0.4198949932      0.5442361785      
1.002e+10         0.9145091976      -0.486813047      -0.8655298258     0.3147108159      -0.8655298258     0.3147108159      0.43012318        0.524033769       
1.003e+10         0.9310161116      -0.4986052954     -0.8606058516     0.3369516963      -0.8606058516     0.3369516963      0.4407054502      0.5037380845      
1.004e+10         0.9502531599      -0.5018008784     -0.8550656667     0.3588114229      -0.8550656667     0.3588114229      0.4500650141      0.4832196793      
1.005e+10         0.9668682812      -0.493941327      -0.8487817985     0.3796163116      -0.8487817985     0.3796163116      0.4570575586      0.4632913287      
1.006e+10         0.9763982946      -0.4751666419     -0.8418963392     0.4004575986      -0.8418963392     0.4004575986      0.4642736733      0.4430514881      
1.007e+10         0.9759612738      -0.4486836883     -0.8343011812     0.4205641665      -0.8343011812     0.4205641665      0.4700855632      0.4234245786      
1.008e+10         0.9650554644      -0.419506723      -0.8261127893     0.4404185747      -0.8261127893     0.4404185747      0.4751440557      0.4033634886      
1.009e+10         0.9459776258      -0.3935745459     -0.817643552      0.4599524204      -0.817643552      0.4599524204      0.4796994845      0.3840702605      
1.01e+10          0.9230592188      -0.3756989068     -0.8084958359     0.4785462003      -0.8084958359     0.4785462003      0.4823110657      0.3649030401      
1.011e+10         0.9015091987      -0.368577264      -0.7993346291     0.4969120984      -0.7993346291     0.4969120984      0.485296039       0.3470034318      
1.012e+10         0.8858819766      -0.372911107      -0.7891624294     0.5147859948      -0.7891624294     0.5147859948      0.4865667595      0.328088352       
1.013e+10         0.8795379014      -0.3862049694     -0.7790534608     0.532321956       -0.7790534608     0.532321956       0.4881378333      0.3102109037      
1.014e+10         0.8834423322      -0.404037604      -0.7686854204     0.549216503       -0.7686854204     0.549216503       0.4888097547      0.2931425288      
1.015e+10         0.8966086728      -0.4207612909     -0.7577723934     0.5655957874      -0.7577723934     0.5655957874      0.4889357924      0.2760894634      
1.016e+10         0.9150926421      -0.4308286652     -0.7467565772     0.5816867814      -0.7467565772     0.5816867814      0.4884922198      0.2596284966      
1.017e+10         0.933997708       -0.4310652254     -0.7352352906     0.5972021817      -0.7352352906     0.5972021817      0.4877637761      0.2430908024      
1.018e+10         0.9481154136      -0.4200596836     -0.7234659315     0.6121167531      -0.7234659315     0.6121167531      0.4861258463      0.2270426574      
1.019e+10         0.9535600059      -0.3996112233     -0.7119284339     0.6268012811      -0.7119284339     0.6268012811      0.4849042856      0.2123049501      
1.02e+10          0.9487831047      -0.3741780742     -0.6999281115     0.640732487       -0.6999281115     0.640732487       0.4821297783      0.1973298225      
1.021e+10         0.9344906366      -0.3488651382     -0.6876148487     0.6544421186      -0.6876148487     0.6544421186      0.4795438588      0.1825860908      
1.022e+10         0.9139017775      -0.3290386902     -0.6751087031     0.6678258736      -0.6751087031     0.6678258736      0.4764501315      0.1682273617      
1.023e+10         0.8915229093      -0.3186890205     -0.6626560289     0.6807279507      -0.6626560289     0.6807279507      0.4731621465      0.1546607526      
1.024e+10         0.8723749911      -0.3196696268     -0.6500818012     0.6932355406      -0.6500818012     0.6932355406      0.4695710781      0.1416008807      
1.025e+10         0.8609152244      -0.3310024644     -0.6374381929     0.7054056083      -0.6374381929     0.7054056083      0.465703351       0.1289099837      
1.026e+10         0.8594674923      -0.3489522853     -0.624562783      0.7172811962      -0.624562783      0.7172811962      0.4620187277      0.1168552873      
1.027e+10         0.867756278       -0.3678860888     -0.6115730913     0.7286611614      -0.6115730913     0.7286611614      0.457528971       0.104806224       
1.028e+10         0.8831706892      -0.3826831077     -0.5984216266     0.7398122925      -0.5984216266     0.7398122925      0.4529333934      0.09293409299     
1.029e+10         0.9017660068      -0.3891816858     -0.5853511664     0.7503675779      -0.5853511664     0.7503675779      0.448185907       0.08163923667     
1.03e+10          0.918435575       -0.3845624601     -0.5720150254     0.7605797427      -0.5720150254     0.7605797427      0.4430764184      0.07074003082     
1.031e+10         0.9283733791      -0.3686655516     -0.5587829153     0.7704837296      -0.5587829153     0.7704837296      0.4378335993      0.06017784444     
1.032e+10         0.9287940617      -0.3453539171     -0.5454419602     0.7801962914      -0.5454419602     0.7801962914      0.432685087       0.04969531848     
1.033e+10         0.9193011167      -0.3193521672     -0.5319678087     0.7895390371      -0.5319678087     0.7895390371      0.427035146       0.03984345017     
1.034e+10         0.9014426104      -0.2963088134     -0.5184376911     0.7984844217      -0.5184376911     0.7984844217      0.4214730801      0.03015506853     
1.035e+10         0.879284936       -0.2811791198     -0.5049842603     0.8071893298      -0.5049842603     0.8071893298      0.4158044146      0.02096240532     
1.036e+10         0.8576434115      -0.2771082945     -0.4912490632     0.815737014       -0.4912490632     0.815737014       0.4102330409      0.01200447356     
1.037e+10         0.841712446       -0.2843663747     -0.4774689351     0.8240509775      -0.4774689351     0.8240509775      0.4045745779      0.003267570996    
1.038e+10         0.834352655       -0.3001948375     -0.4639118696     0.8319029545      -0.4639118696     0.8319029545      0.3987795906      -0.004562568076   
1.039e+10         0.8369885564      -0.3202054494     -0.4503266375     0.8396488497      -0.4503266375     0.8396488497      0.393219662       -0.01230557753    
1.04e+10          0.8485794032      -0.3387817467     -0.4364993474     0.8469191339      -0.4364993474     0.8469191339      0.387259343       -0.02007850394    
1.041e+10         0.8661859783      -0.3503000233     -0.4227647703     0.8540037621      -0.4227647703     0.8540037621      0.3814199834      -0.02748777664    
1.042e+10         0.8845276296      -0.3510960666     -0.4090745488     0.8607149144      -0.4090745488     0.8607149144      0.3752382754      -0.03457125081    
1.043e+10         0.8986582554      -0.340401927      -0.3954560699     0.8672285318      -0.3954560699     0.8672285318      0.3690772991      -0.04121541614    
1.044e+10         0.9048250963      -0.3197423387     -0.38174098       0.8733069555      -0.38174098       0.8733069555      0.3625700095      -0.04778856394    
1.045e+10         0.9012700596      -0.2933341956     -0.3678801998     0.8792420123      -0.3678801998     0.8792420123      0.3563206773      -0.05432929002    
1.046e+10         0.8881857446      -0.2667648876     -0.3540327876     0.8851904718      -0.3540327876     0.8851904718      0.3502766222      -0.06035673478    
1.047e+10         0.8680698998      -0.245934517      -0.3400981456     0.8906721403      -0.3400981456     0.8906721403      0.3441227425      -0.06636820887    
1.048e+10         0.8456771839      -0.234802533      -0.3263798765     0.8959544477      -0.3263798765     0.8959544477      0.3376833274      -0.07171465137    
1.049e+10         0.8257486239      -0.2352210036     -0.3124318234     0.9009234169      -0.3124318234     0.9009234169      0.3313828847      -0.07718870055    
1.05e+10          0.8127313893      -0.2462040255     -0.2985157846     0.9057964877      -0.2985157846     0.9057964877      0.3254088822      -0.08238127449    
1.051e+10         0.8089823427      -0.2640051482     -0.2846333723     0.9103575668      -0.2846333723     0.9103575668      0.3192303135      -0.08745645932    
1.052e+10         0.8148443288      -0.2837873775     -0.2708177944     0.9148751368      -0.2708177944     0.9148751368      0.3130069115      -0.09204482908    
1.053e+10         0.828681776       -0.2992940324     -0.2570757499     0.9189668741      -0.2570757499     0.9189668741      0.3068561627      -0.09637536197    
1.054e+10         0.8463317365      -0.3059553757     -0.2432622334     0.9227531388      -0.2432622334     0.9227531388      0.3004948016      -0.1008135964     
1.055e+10         0.8628264589      -0.3013508798     -0.2294319812     0.9264564744      -0.2294319812     0.9264564744      0.2943240091      -0.1050264312     
1.056e+10         0.8740153375      -0.2859235369     -0.2156128884     0.9299112779      -0.2156128884     0.9299112779      0.2882717625      -0.1089228133     
1.057e+10         0.8767704121      -0.2623542509     -0.2016936537     0.9332323243      -0.2016936537     0.9332323243      0.282345793       -0.1125672427     
1.058e+10         0.8699818727      -0.2357953974     -0.1879994842     0.9363010342      -0.1879994842     0.9363010342      0.2762356926      -0.1161260463     
1.059e+10         0.8550950482      -0.2123967084     -0.1741148667     0.9392482446      -0.1741148667     0.9392482446      0.2705183496      -0.1193701635     
1.06e+10          0.8353523764      -0.1965771007     -0.1603415181     0.9418314337      -0.1603415181     0.9418314337      0.2645929076      -0.1225765183     
1.061e+10         0.8154630204      -0.1916530611     -0.146564202      0.9444472521      -0.146564202      0.9444472521      0.2587694683      -0.1255386361     
1.062e+10         0.7997333352      -0.1978593924     -0.1328315823     0.9466288978      -0.1328315823     0.9466288978      0.2529820924      -0.1284938556     
1.063e+10         0.7917158793      -0.2128331634     -0.1191139066     0.9485122304      -0.1191139066     0.9485122304      0.247028134       -0.1314166859     
1.064e+10         0.7933759562      -0.2318151932     -0.1055039758     0.9504078528      -0.1055039758     0.9504078528      0.2411366463      -0.1338702077     
1.065e+10         0.8037129147      -0.248949629      -0.09195313745    0.9519975435      -0.09195313745    0.9519975435      0.2352067971      -0.136297543      
1.066e+10         0.8197645873      -0.2591954136     -0.07836521415    0.9534793613      -0.07836521415    0.9534793613      0.2294073534      -0.1383556814     
1.067e+10         0.8375019698      -0.2595657538     -0.06473805401    0.9547572184      -0.06473805401    0.9547572184      0.2237415804      -0.1405724202     
1.068e+10         0.8524774891      -0.2483617247     -0.05117237242    0.9557387384      -0.05117237242    0.9557387384      0.2179169012      -0.1426919214     
1.069e+10         0.8606063428      -0.2274758025     -0.03751155589    0.9566283033      -0.03751155589    0.9566283033      0.2125372173      -0.1445188067     
1.07e+10          0.8596276498      -0.2013245753     -0.02387338595    0.9573517356      -0.02387338595    0.9573517356      0.2071354966      -0.1461071053     
1.071e+10         0.8494421732      -0.1752954862     -0.01029948565    0.957857171       -0.01029948565    0.957857171       0.2017690803      -0.1477561234     
1.072e+10         0.8323786494      -0.1552100069     0.003272171918    0.9581428332      0.003272171918    0.9581428332      0.1965074537      -0.1492137922     
1.073e+10         0.8124576056      -0.1451745195     0.01671929101     0.9581779507      0.01671929101     0.9581779507      0.1911571787      -0.1507157267     
1.074e+10         0.7943609101      -0.1469751801     0.03008178323     0.9580290918      0.03008178323     0.9580290918      0.185923266       -0.1519324494     
1.075e+10         0.7823245683      -0.1591105546     0.04351449082     0.9577407986      0.04351449082     0.9577407986      0.1808008562      -0.1529727853     
1.076e+10         0.7791644627      -0.1781569241     0.0568697453      0.9573755171      0.0568697453      0.9573755171      0.1756148571      -0.153792416      
1.077e+10         0.7857371193      -0.1984426747     0.07008312153     0.9568229356      0.07008312153     0.9568229356      0.1703014473      -0.1546329994     
1.078e+10         0.8003678923      -0.2140677928     0.0832220631      0.9560124732      0.0832220631      0.9560124732      0.1652446925      -0.1554128341     
1.079e+10         0.8193210936      -0.2205930078     0.09641784034     0.9550033147      0.09641784034     0.9550033147      0.1603526734      -0.156130589      
1.08e+10          0.8382917925      -0.2154526748     0.1095387161      0.9539247652      0.1095387161      0.9539247652      0.1553911017      -0.1565256735     
1.081e+10         0.8524889359      -0.1989215551     0.1227503851      0.9525072211      0.1227503851      0.9525072211      0.1507209072      -0.1571659513     
1.082e+10         0.8587781276      -0.1745087847     0.1359020959      0.9510088833      0.1359020959      0.9510088833      0.1461772964      -0.1575383093     
1.083e+10         0.8556681223      -0.1469970174     0.1488590476      0.9492963652      0.1488590476      0.9492963652      0.1413895429      -0.1579804102     
1.084e+10         0.8439222531      -0.1223426433     0.1618154168      0.9474106028      0.1618154168      0.9474106028      0.1370020137      -0.1582397349     
1.085e+10         0.8262555241      -0.105389489      0.1746322802      0.9453135162      0.1746322802      0.9453135162      0.1322783277      -0.1584157499     
1.086e+10         0.8068693888      -0.09979733955    0.1874886929      0.9431424715      0.1874886929      0.9431424715      0.1277544531      -0.1584558755     
1.087e+10         0.7907887379      -0.1058271436     0.2001877512      0.94077753        0.2001877512      0.94077753        0.1232293643      -0.1583801309     
1.088e+10         0.7817023276      -0.1212327498     0.2127729768      0.9382281391      0.2127729768      0.9382281391      0.1185458461      -0.1583113603     
1.089e+10         0.781999012       -0.1413530254     0.2254678475      0.9354582902      0.2254678475      0.9354582902      0.1141725974      -0.1580447703     
1.09e+10          0.7917485301      -0.1603027117     0.2380406868      0.9326439158      0.2380406868      0.9326439158      0.1098071727      -0.1577527419     
1.091e+10         0.8087321426      -0.1724289689     0.2505189154      0.9296020794      0.2505189154      0.9296020794      0.1054912429      -0.1574293218     
1.092e+10         0.8286152613      -0.1739678635     0.2630424247      0.9263663411      0.2630424247      0.9263663411      0.1015976027      -0.1571740711     
1.093e+10         0.8466618579      -0.1637552861     0.2754819729      0.9230315609      0.2754819729      0.9230315609      0.09774307489     -0.156540227      
1.094e+10         0.8585636226      -0.143572066      0.2879122305      0.9194903931      0.2879122305      0.9194903931      0.09396649496     -0.1560423548     
1.095e+10         0.8619758375      -0.1174811752     0.3001061677      0.9157880885      0.3001061677      0.9157880885      0.09000373102     -0.1555754461     
1.096e+10         0.8557151874      -0.09110820318    0.3122594083      0.9120926188      0.3122594083      0.9120926188      0.08615215171     -0.154967653      
1.097e+10         0.8416634707      -0.07009097697    0.3243214876      0.9081301597      0.3243214876      0.9081301597      0.08249309647     -0.154176956      
1.098e+10         0.8232038265      -0.05863181611    0.3361610974      0.903931936       0.3361610974      0.903931936       0.07857127521     -0.1535025738     
1.099e+10         0.8049795399      -0.05902997669    0.3481125861      0.8997226311      0.3481125861      0.8997226311      0.07481842991     -0.1524808222     
1.1e+10           0.7913429072      -0.07013423421    0.3599409675      0.8953454408      0.3599409675      0.8953454408      0.07110257696     -0.1515195529     
1.101e+10         0.7856537249      -0.08897455047    0.3716384985      0.8908216513      0.3716384985      0.8908216513      0.06737983993     -0.1505090863     
1.102e+10         0.7898091358      -0.1103045858     0.3832604811      0.8861421524      0.3832604811      0.8861421524      0.0639324165      -0.14954265       
1.103e+10         0.8026310036      -0.1278026996     0.3949892007      0.8812661572      0.3949892007      0.8812661572      0.06072666515     -0.1484448196     
1.104e+10         0.8215242145      -0.1368330242     0.4064648609      0.8761631889      0.4064648609      0.8761631889      0.05736422796     -0.14742547       
1.105e+10         0.8420861645      -0.1347027992     0.4180178815      0.8709538162      0.4180178815      0.8709538162      0.05438878646     -0.1463223672     
1.106e+10         0.8594947031      -0.1211821496     0.4294043817      0.8657258786      0.4294043817      0.8657258786      0.05127894278     -0.1451638153     
1.107e+10         0.8696616526      -0.09919857229    0.4406034602      0.8602449627      0.4406034602      0.8602449627      0.04823117261     -0.1441213756     
1.108e+10         0.8706521226      -0.07338054936    0.4517161051      0.8546724259      0.4517161051      0.8546724259      0.04523134808     -0.1429100329     
1.109e+10         0.8624335339      -0.04938938134    0.462730732       0.8489454035      0.462730732       0.8489454035      0.04213068192     -0.1416011778     
1.11e+10          0.8473011816      -0.03252164183    0.4736985286      0.8431673459      0.4736985286      0.8431673459      0.03921596621     -0.1402090269     
