! RsaToolbox (C) 2015 Rohde & Schwarz America
! 
! Number of points: 911
! Number of ports: 2
! Balanced ports?: No
! 
! 
# Hz S RI R 50
9900000000        1.021722469       -0.5640138951     -0.8892759897     0.04241089717     -0.8892759897     0.04241089717     0.2381304147      0.7503337023      
9910000000        1.012570434       -0.5363018341     -0.8951399994     0.06744634409     -0.8951399994     0.06744634409     0.2608945961      0.7335031161      
9920000000        0.9958360432      -0.5065272035     -0.8997720828     0.09252727578     -0.8997720828     0.09252727578     0.2828373159      0.7158196693      
9930000000        0.9735817871      -0.4793428951     -0.9030179914     0.1177077257      -0.9030179914     0.1177077257      0.3027753541      0.6973149071      
9940000000        0.9494503553      -0.4592562584     -0.905376839      0.1427172383      -0.905376839      0.1427172383      0.3219116952      0.6783355114      
9950000000        0.9281865395      -0.4489212158     -0.9067725122     0.1676444323      -0.9067725122     0.1676444323      0.340124722       0.659059141       
9960000000        0.9134779627      -0.4485244099     -0.9068812597     0.1922581073      -0.9068812597     0.1922581073      0.3560555611      0.6388893188      
9970000000        0.9079199091      -0.4560404781     -0.9061138881     0.2169875501      -0.9061138881     0.2169875501      0.3716387059      0.6184404295      
9980000000        0.9117587567      -0.4671635987     -0.9046604484     0.2414296165      -0.9046604484     0.2414296165      0.3858583166      0.5984042867      
9990000000        0.923178752       -0.477557997      -0.9017384401     0.2655224403      -0.9017384401     0.2655224403      0.3985522407      0.5771186623      
1e+10             0.9386792627      -0.4818190801     -0.8987060986     0.2889909563      -0.8987060986     0.2889909563      0.410453865       0.5572840754      
1.001e+10         0.9537923697      -0.4771388842     -0.8944820885     0.3124874426      -0.8944820885     0.3124874426      0.4215139227      0.5360987636      
1.002e+10         0.9642004874      -0.4630447706     -0.8895423938     0.3354219978      -0.8895423938     0.3354219978      0.4314468253      0.5154875145      
1.003e+10         0.9675563069      -0.4411469067     -0.883799342      0.3577235713      -0.883799342      0.3577235713      0.4398378835      0.4949570334      
1.004e+10         0.9622431904      -0.4152040571     -0.8770761436     0.3796139254      -0.8770761436     0.3796139254      0.4465338833      0.4740217571      
1.005e+10         0.9490669879      -0.3897787553     -0.8698663561     0.4010364099      -0.8698663561     0.4010364099      0.4529231439      0.4536814383      
1.006e+10         0.9311432323      -0.3699505314     -0.8621473796     0.4221369157      -0.8621473796     0.4221369157      0.4587373017      0.4334110427      
1.007e+10         0.9126102295      -0.3592483475     -0.8539839975     0.4425487401      -0.8539839975     0.4425487401      0.4633508394      0.4136824441      
1.008e+10         0.898024837       -0.3587968459     -0.8450765171     0.4625601256      -0.8450765171     0.4625601256      0.467219701       0.3942008864      
1.009e+10         0.8903924966      -0.3667300263     -0.8357919207     0.4820334312      -0.8357919207     0.4820334312      0.4704491879      0.3750914908      
1.01e+10          0.8917159691      -0.3800680978     -0.8259051332     0.5010194474      -0.8259051332     0.5010194474      0.4724911324      0.3558309631      
1.011e+10         0.9016252054      -0.3937538722     -0.8157222135     0.5192620472      -0.8157222135     0.5192620472      0.4733697396      0.3378352369      
1.012e+10         0.9172005801      -0.4024169631     -0.8053862036     0.5375460004      -0.8053862036     0.5375460004      0.4756586008      0.3196652141      
1.013e+10         0.9341228217      -0.4031290958     -0.7946773384     0.5549109312      -0.7946773384     0.5549109312      0.4758965451      0.3022379299      
1.014e+10         0.9481107749      -0.3938973739     -0.7833610229     0.5718791047      -0.7833610229     0.5718791047      0.4756119038      0.2847335743      
1.015e+10         0.9550530977      -0.3753110413     -0.7719767684     0.5883929952      -0.7719767684     0.5883929952      0.4754423476      0.2678451031      
1.016e+10         0.952924337       -0.3515207852     -0.7602727445     0.6042672083      -0.7602727445     0.6042672083      0.4736427404      0.2516067183      
1.017e+10         0.9419716832      -0.3270273463     -0.7481231955     0.6197529076      -0.7481231955     0.6197529076      0.4720277503      0.2353570379      
1.018e+10         0.9245962032      -0.3066345184     -0.7360183214     0.6347881808      -0.7360183214     0.6347881808      0.4699118559      0.2203440003      
1.019e+10         0.9043253094      -0.2948288126     -0.7234169092     0.649198171       -0.7234169092     0.649198171       0.4670242296      0.2050171987      
1.02e+10          0.886066946       -0.2933688888     -0.7108646532     0.6634070806      -0.7108646532     0.6634070806      0.4640986638      0.1907397363      
1.021e+10         0.8738705615      -0.3017065513     -0.6981590794     0.6770675797      -0.6981590794     0.6770675797      0.4607526649      0.1765890089      
1.022e+10         0.8705097302      -0.317142686      -0.6851193015     0.6901660346      -0.6851193015     0.6901660346      0.4567383186      0.1626210117      
1.023e+10         0.8765927161      -0.3348940242     -0.6720453231     0.7032101307      -0.6720453231     0.7032101307      0.4532049974      0.1495578947      
1.024e+10         0.8902797217      -0.3495994163     -0.6588071896     0.7156920305      -0.6588071896     0.7156920305      0.4490109358      0.1366001168      
1.025e+10         0.9079618424      -0.3569990506     -0.6454458898     0.7277679866      -0.6454458898     0.7277679866      0.4445889022      0.1236923939      
1.026e+10         0.9248102935      -0.3541198818     -0.6321023335     0.7394089763      -0.6321023335     0.7394089763      0.4398146152      0.111555659       
1.027e+10         0.9361669977      -0.3408934689     -0.6186128859     0.7505775445      -0.6186128859     0.7505775445      0.4350485077      0.09990628459     
1.028e+10         0.9393108148      -0.3197979942     -0.604954146      0.7614337718      -0.604954146      0.7614337718      0.4298169927      0.08855255221     
1.029e+10         0.9325521485      -0.2951763692     -0.5911654443     0.7719308093      -0.5911654443     0.7719308093      0.4245107744      0.07730396528     
1.03e+10          0.9173638001      -0.2725695084     -0.5775099039     0.7822805294      -0.5775099039     0.7822805294      0.4194779016      0.06677349406     
1.031e+10         0.8972636542      -0.2568899619     -0.5637424262     0.7920990562      -0.5637424262     0.7920990562      0.4138759003      0.05657384492     
1.032e+10         0.8766985         -0.2510955064     -0.5498917029     0.8015774206      -0.5498917029     0.8015774206      0.4082579441      0.04668223726     
1.033e+10         0.8604346276      -0.256054807      -0.5359334889     0.8109030339      -0.5359334889     0.8109030339      0.4028813435      0.03720016072     
1.034e+10         0.851813417       -0.2697227182     -0.5218705157     0.819829043       -0.5218705157     0.819829043       0.3969814448      0.02773696895     
1.035e+10         0.8527819133      -0.2879531053     -0.5079905676     0.8285195998      -0.5079905676     0.8285195998      0.3911233476      0.01894030169     
1.036e+10         0.8626845561      -0.3054538752     -0.4940720773     0.8368345686      -0.4940720773     0.8368345686      0.3851748918      0.0104958079      
1.037e+10         0.8785085955      -0.3166988349     -0.4800209464     0.8447298206      -0.4800209464     0.8447298206      0.3790515509      0.002150096357    
1.038e+10         0.8958197113      -0.3181641731     -0.4660965552     0.8523432092      -0.4660965552     0.8523432092      0.3728740537      -0.005576911022   
1.039e+10         0.9098491197      -0.308771822      -0.4519875306     0.8598461688      -0.4519875306     0.8598461688      0.3667593436      -0.01325347002    
1.04e+10          0.9165235383      -0.2899295024     -0.4379049999     0.8667708775      -0.4379049999     0.8667708775      0.3603284439      -0.02087589141    
1.041e+10         0.913937281       -0.2653488613     -0.4238663663     0.8737159056      -0.4238663663     0.8737159056      0.354391692       -0.02787448486    
1.042e+10         0.9019147289      -0.2407654191     -0.4096923026     0.8802201494      -0.4096923026     0.8802201494      0.3479904727      -0.03477357505    
1.043e+10         0.8831769302      -0.2213514808     -0.3954013273     0.8865773519      -0.3954013273     0.8865773519      0.3420071879      -0.04153077043    
1.044e+10         0.8617301215      -0.2111562974     -0.381243075      0.8927969817      -0.381243075      0.8927969817      0.3358971687      -0.04779122744    
1.045e+10         0.8423345379      -0.2124145562     -0.3670991504     0.8986451411      -0.3670991504     0.8986451411      0.3296921572      -0.05391481904    
1.046e+10         0.8296465976      -0.2240030081     -0.3528789927     0.9041913336      -0.3528789927     0.9041913336      0.3234093628      -0.05993139692    
1.047e+10         0.8264410098      -0.2422361336     -0.3389241172     0.9095149993      -0.3389241172     0.9095149993      0.316971257       -0.06520793406    
1.048e+10         0.8330531266      -0.2619244042     -0.3246878439     0.9146655232      -0.3246878439     0.9146655232      0.3107425194      -0.07051519914    
1.049e+10         0.8472033167      -0.2771216866     -0.3106785316     0.9193616887      -0.3106785316     0.9193616887      0.3040804993      -0.07556055956    
1.05e+10          0.8654503556      -0.2834998862     -0.296617563      0.9239321263      -0.296617563      0.9239321263      0.2976864873      -0.08039451152    
1.051e+10         0.8829829207      -0.2782033709     -0.2825699113     0.9281709755      -0.2825699113     0.9281709755      0.2910970088      -0.08509795797    
1.052e+10         0.8942215074      -0.2614843431     -0.2683004297     0.9322939988      -0.2683004297     0.9322939988      0.2850614685      -0.08977342851    
1.053e+10         0.8968204925      -0.2371984329     -0.2541201528     0.9361824324      -0.2541201528     0.9361824324      0.278882917       -0.09416183668    
1.054e+10         0.8896082404      -0.2101449202     -0.2400093904     0.9399238157      -0.2400093904     0.9399238157      0.2727743577      -0.09817006581    
1.055e+10         0.8736816867      -0.1863356504     -0.2259044166     0.9433757378      -0.2259044166     0.9433757378      0.2667325861      -0.1020511884     
1.056e+10         0.8528759927      -0.1706817942     -0.2119468853     0.9466834396      -0.2119468853     0.9466834396      0.2605546586      -0.1056852545     
1.057e+10         0.8316025254      -0.1662795359     -0.1978147854     0.9496960138      -0.1978147854     0.9496960138      0.2547372344      -0.1093178374     
1.058e+10         0.8149333701      -0.1733353919     -0.1838300154     0.9526023196      -0.1838300154     0.9526023196      0.2487454089      -0.1124833698     
1.059e+10         0.8063530373      -0.1895496097     -0.1699697192     0.9551798629      -0.1699697192     0.9551798629      0.2425868372      -0.1156415971     
1.06e+10          0.8080134064      -0.2100204175     -0.1559878959     0.9576610389      -0.1559878959     0.9576610389      0.236604311       -0.1185189483     
1.061e+10         0.8189516649      -0.228518265      -0.1421995977     0.9596785211      -0.1421995977     0.9596785211      0.23047889        -0.1214352119     
1.062e+10         0.8363630529      -0.2398853275     -0.1283374324     0.961642297       -0.1283374324     0.961642297       0.2245187456      -0.1241291226     
1.063e+10         0.8554488566      -0.2399695786     -0.1144154513     0.963331945       -0.1144154513     0.963331945       0.2186070865      -0.12670128       
1.064e+10         0.8713999306      -0.2282093946     -0.1005667642     0.9648942048      -0.1005667642     0.9648942048      0.2126501606      -0.1291767217     
1.065e+10         0.8801518719      -0.2067096607     -0.08666077471    0.9663189897      -0.08666077471    0.9663189897      0.2070156313      -0.131443899      
1.066e+10         0.8791451654      -0.1797614563     -0.07273346913    0.9674982588      -0.07273346913    0.9674982588      0.2014591754      -0.1336721331     
1.067e+10         0.8685101663      -0.1536089809     -0.05891854611    0.9685402558      -0.05891854611    0.9685402558      0.1960906915      -0.1356340615     
1.068e+10         0.851026972       -0.1337621242     -0.04511943067    0.9695446824      -0.04511943067    0.9695446824      0.1907096452      -0.1371673833     
1.069e+10         0.8306645434      -0.1238509488     -0.03144901658    0.9703229981      -0.03144901658    0.9703229981      0.1853316545      -0.1386891746     
1.07e+10          0.8120290386      -0.1257748373     -0.01770962312    0.9706419979      -0.01770962312    0.9706419979      0.1800199516      -0.1403190867     
1.071e+10         0.7998739841      -0.1381770176     -0.004202574202   0.9708482324      -0.004202574202   0.9708482324      0.1746288482      -0.1417716405     
1.072e+10         0.7970735218      -0.1570865241     0.009382983446    0.97093243        0.009382983446    0.97093243        0.1693934736      -0.142975031      
1.073e+10         0.8042021555      -0.1762787218     0.02286097835     0.9707378627      0.02286097835     0.9707378627      0.163935479       -0.1442031049     
1.074e+10         0.8191306665      -0.1901887554     0.03624495002     0.9703247825      0.03624495002     0.9703247825      0.1584016206      -0.1453564193     
1.075e+10         0.8382401211      -0.1944626708     0.04969750703     0.9697385449      0.04969750703     0.9697385449      0.1532115306      -0.1466558013     
1.076e+10         0.8565345577      -0.1868455223     0.06313947879     0.969055282       0.06313947879     0.969055282       0.1481436471      -0.1475163551     
1.077e+10         0.8688277772      -0.1685552537     0.07662990426     0.9681598717      0.07662990426     0.9681598717      0.1434354878      -0.1482861642     
1.078e+10         0.872253345       -0.1432725018     0.0900574234      0.967150654       0.0900574234      0.967150654       0.1385237514      -0.1492120768     
1.079e+10         0.8660066583      -0.1168369322     0.1033717352      0.9660714573      0.1033717352      0.9660714573      0.1338628019      -0.1496033758     
1.08e+10          0.8514679689      -0.09485641426    0.1166215865      0.9646988881      0.1166215865      0.9646988881      0.1291224292      -0.1500014329     
1.081e+10         0.8322782502      -0.08212236367    0.1297588201      0.9632520263      0.1297588201      0.9632520263      0.1245509349      -0.1502446689     
1.082e+10         0.81288689        -0.08133200011    0.1428112419      0.9615740618      0.1428112419      0.9615740618      0.1197532401      -0.1503674138     
1.083e+10         0.7983780798      -0.09233494682    0.1557510386      0.9597443692      0.1557510386      0.9597443692      0.114993488       -0.1503008918     
1.084e+10         0.7927297105      -0.1116005518     0.1686220504      0.957680986       0.1686220504      0.957680986       0.1102617031      -0.1503456292     
1.085e+10         0.7975956901      -0.1331166512     0.1814240114      0.955497847       0.1814240114      0.955497847       0.1055834174      -0.1502296778     
1.086e+10         0.8114995439      -0.1510804937     0.1942443445      0.9529841946      0.1942443445      0.9529841946      0.101188981       -0.1502533964     
1.087e+10         0.8317394311      -0.1603465507     0.207099185       0.9504048944      0.207099185       0.9504048944      0.09690703104     -0.1500200567     
1.088e+10         0.8534367462      -0.1576506567     0.2199379696      0.9476719652      0.2199379696      0.9476719652      0.09285912143     -0.1499545644     
1.089e+10         0.87137175        -0.1424616913     0.2327220872      0.9447857664      0.2327220872      0.9447857664      0.0891155634      -0.1496016561     
1.09e+10          0.8813475825      -0.117859097      0.2454332396      0.9417322035      0.2454332396      0.9417322035      0.08535038284     -0.1493869457     
1.091e+10         0.8809676935      -0.08887593993    0.2580474128      0.9385496284      0.2580474128      0.9385496284      0.08162037477     -0.1489288137     
1.092e+10         0.8704427049      -0.0621028681     0.270491881       0.9353109351      0.270491881       0.9353109351      0.07769282416     -0.148355256      
1.093e+10         0.8526243211      -0.04308450912    0.2827959763      0.9317895765      0.2827959763      0.9317895765      0.07369118718     -0.1479112101     
1.094e+10         0.8318611766      -0.03557354871    0.2949791822      0.9281372803      0.2949791822      0.9281372803      0.069686964       -0.1473489215     
1.095e+10         0.8131180918      -0.04075998447    0.3070471828      0.9244237119      0.3070471828      0.9244237119      0.06565957187     -0.146444402      
1.096e+10         0.8010403469      -0.05677143352    0.319168887       0.920495384       0.319168887       0.920495384       0.06175828541     -0.145734624      
1.097e+10         0.7992601334      -0.07895076556    0.3311404185      0.9163280168      0.3311404185      0.9163280168      0.05783253804     -0.144816801      
1.098e+10         0.808155312       -0.1008516976     0.3430772618      0.9121078094      0.3430772618      0.9121078094      0.0540246066      -0.1440062468     
1.099e+10         0.8253407864      -0.1162003455     0.3550472767      0.9076844541      0.3550472767      0.9076844541      0.05058830324     -0.142994824      
1.1e+10           0.8467527817      -0.1210121176     0.3669654639      0.9031094069      0.3669654639      0.9031094069      0.0474123868      -0.1419710838     
1.101e+10         0.8677920884      -0.1137654669     0.3788376046      0.898418842       0.3788376046      0.898418842       0.04427161148     -0.1409016175     
1.102e+10         0.8834138254      -0.09546421194    0.3906049371      0.8936425929      0.3906049371      0.8936425929      0.04126800573     -0.1398031427     
1.103e+10         0.8895089057      -0.06992990556    0.4022617038      0.8886722329      0.4022617038      0.8886722329      0.03818799541     -0.1387094341     
1.104e+10         0.8852828253      -0.04352332023    0.4137927413      0.8836419888      0.4137927413      0.8836419888      0.03517595773     -0.1375122962     
1.105e+10         0.8722250774      -0.02227965748    0.4251972134      0.8784364617      0.4251972134      0.8784364617      0.03202508687     -0.1361909842     
1.106e+10         0.853860405       -0.01095059831    0.4364453384      0.8730451419      0.4364453384      0.8730451419      0.02891189118     -0.1348747647     
1.107e+10         0.8352613281      -0.01200209211    0.4476568703      0.8676097208      0.4476568703      0.8676097208      0.02579102622     -0.1335231492     
1.108e+10         0.8215253093      -0.02417415264    0.4587010797      0.8619605397      0.4587010797      0.8619605397      0.02268077202     -0.1322061761     
1.109e+10         0.816401122       -0.04395141819    0.4696442784      0.856141158       0.4696442784      0.856141158       0.01972810868     -0.130876835      
1.11e+10          0.8215087021      -0.06562277026    0.4807006987      0.8501921507      0.4807006987      0.8501921507      0.01714869661     -0.1294348974     
