#  HZ   S   DB   R     50.00 
! Rohde & Schwarz Vector Network Analyzer 
! Rohde-Schwarz,ZNB8-4Port,1311601044101761,1.95
! Created: UTC 2/26/2014, 9:17:47 AM
! freq[Hz]                db:S11                  ang:S11                 db:S21                  ang:S21                 db:S12                  ang:S12                 db:S22                  ang:S22
 3.000000000000000E5    -4.188833615880738E1     1.033749468000669E2     2.736209473993972E-2   -2.995660615374313E-1    2.706524960927361E-2   -3.030383886639267E-1   -4.372717493178739E1     8.611237012855496E1
 2.029925000000000E7    -5.616530818944824E1    -8.629254983769614E1    -1.768900759740575E-2   -6.315675261377879E-1   -1.888177311174022E-2   -6.206164105761298E-1   -4.449910255099504E1     1.744048300618102E1
 4.029850000000000E7    -4.953306067963034E1    -9.937635411352879E1    -2.017487399885901E-2   -1.195919926431341      -1.547697646277598E-2   -1.160311950775004      -4.266289602575645E1     6.344780921251354
 6.029775000000000E7    -5.007843376470067E1    -9.805132089185206E1    -2.458615172966584E-2   -1.754206654414088      -2.105583424522218E-2   -1.747143520206683      -4.095912302030492E1    -1.520515315723204
 8.029700000000000E7    -5.242495700919945E1    -8.562927777622723E1    -3.015189734367266E-2   -2.337363842314817      -2.518685230583255E-2   -2.329985509562222      -3.995101795520426E1    -1.115589836452880
 1.002962500000000E8    -5.410602246983466E1    -8.838651261083381E1    -2.976828560836449E-2   -2.923865351679006      -2.723129420109777E-2   -2.909144012985585      -3.953634418723540E1    -8.660531551453418E-2
 1.202955000000000E8    -5.455795246318998E1    -8.045732566288066E1    -3.123186133233512E-2   -3.485272598649581      -3.036860278215780E-2   -3.470246548130355      -3.960781203959981E1    -4.807959098746475E-1
 1.402947500000000E8    -5.523975809755739E1    -1.022999434306154E2    -2.979995205889144E-2   -4.044875613430317      -2.830902112728258E-2   -4.030988838350863      -4.002741891081940E1    -1.963185690492839
 1.602940000000000E8    -5.682956632791895E1    -1.167047118651912E2    -2.860997032965616E-2   -4.632055626410734      -2.842499788285607E-2   -4.615434706437152      -4.041064758316090E1    -3.099124165898657
 1.802932500000000E8    -5.728691812236006E1    -1.149330145112768E2    -2.909447242106423E-2   -5.207658068946787      -2.903478472327192E-2   -5.198648731796792      -4.051966336289748E1    -1.906547822597872
 2.002925000000000E8    -5.874074235188932E1    -1.080424036023184E2    -3.155001236590082E-2   -5.800417464492260      -2.921176148160969E-2   -5.797266327638676      -4.085186597782516E1    -1.137828003589089
 2.202917500000000E8    -5.579051531962602E1    -9.234495573238822E1    -3.177881643168154E-2   -6.385916741651426      -3.097086968862628E-2   -6.385397531888017      -4.085212998357449E1    -3.718455563819310
 2.402910000000000E8    -5.375636473654882E1    -9.880167422219202E1    -2.996286597443745E-2   -6.991274209909967      -3.039366180863927E-2   -6.974071779549645      -4.152231913288930E1    -6.920834617070296
 2.602902500000000E8    -5.311013064489202E1    -9.380634981265875E1    -2.884656551724709E-2   -7.587147281252745      -2.879213140464856E-2   -7.558666707832577      -4.186767470833387E1    -8.474855270175949
 2.802895000000000E8    -5.337910617985271E1    -9.724186469899993E1    -2.846425667282379E-2   -8.171054897783259      -2.778977280470955E-2   -8.143328922709248      -4.185941045972112E1    -9.405117771007348
 3.002887500000000E8    -5.233379481730212E1    -9.175290598802106E1    -2.929520397896988E-2   -8.749064923391282      -2.625645826020480E-2   -8.725275079618600      -4.220365119513151E1    -1.179456831568074E1
 3.202880000000000E8    -5.122162612932696E1    -8.962507190065699E1    -2.846904264836474E-2   -9.334667246716705      -2.779810726434872E-2   -9.313051570143342      -4.237996718067456E1    -1.290431760882200E1
 3.402872500000000E8    -5.102710822959361E1    -8.963124546207618E1    -2.904851715983162E-2   -9.926379268722112      -2.715043823344403E-2   -9.897930142549534      -4.266471995832728E1    -1.480423027439591E1
 3.602865000000000E8    -5.045524180714325E1    -9.982009636334209E1    -2.901670552483998E-2   -1.052509984630617E1    -2.829316177441738E-2   -1.047824887041369E1    -4.321865278917102E1    -1.635885004008732E1
 3.802857500000000E8    -5.023943009016388E1    -9.959904814890098E1    -2.945323170927684E-2   -1.109186160517914E1    -2.771855955816570E-2   -1.105258734500037E1    -4.409554108279637E1    -1.916042906386547E1
 4.002850000000000E8    -4.934819179292052E1    -1.041821887946020E2    -2.848957497857980E-2   -1.166943029757032E1    -2.713674443933356E-2   -1.162893609476311E1    -4.432715402672694E1    -2.079807758978917E1
 4.202842500000000E8    -4.979223465813888E1    -1.004789001045781E2    -2.948859381741690E-2   -1.224643725570926E1    -2.890503664250870E-2   -1.221524794805698E1    -4.511922338912832E1    -1.968922005749463E1
 4.402835000000000E8    -4.936502909284035E1    -9.565293037679129E1    -3.113303624756972E-2   -1.282583996028686E1    -2.961869402880872E-2   -1.279700673858657E1    -4.582957120197729E1    -2.326257944599821E1
 4.602827500000000E8    -4.858872839294916E1    -8.844642883180512E1    -2.962428778554651E-2   -1.341866853588507E1    -2.765676355520680E-2   -1.338341716490006E1    -4.651682156926879E1    -2.281196557105049E1
 4.802820000000000E8    -4.896964433482236E1    -9.054733730886183E1    -3.024396157457506E-2   -1.401458874451350E1    -2.867118698840585E-2   -1.396929984531731E1    -4.748501232991301E1    -2.560427321803254E1
 5.002812500000000E8    -4.830404907674237E1    -9.313395352266365E1    -2.975456184529519E-2   -1.460058633059751E1    -2.876298301929852E-2   -1.456494670386711E1    -4.873280088204004E1    -2.901124876288704E1
 5.202805000000000E8    -4.768648380827862E1    -9.354101604807744E1    -2.996911423414640E-2   -1.518878628181780E1    -2.965332892711883E-2   -1.515150708701800E1    -4.916176594500747E1    -3.837835061320919E1
 5.402797500000000E8    -4.693262026385217E1    -9.391212392104811E1    -3.242456612457810E-2   -1.577277749928541E1    -3.043633375178911E-2   -1.574447712819367E1    -4.985194342766887E1    -3.523536608440373E1
 5.602790000000000E8    -4.621063706203592E1    -9.563995873162902E1    -3.197497256518039E-2   -1.636374935212193E1    -3.044750855678626E-2   -1.632502674976208E1    -5.077187521229228E1    -4.962060548704796E1
 5.802782500000000E8    -4.623236621970069E1    -9.150741948790669E1    -3.231732175464584E-2   -1.695125304378561E1    -3.019498411686942E-2   -1.690796386765479E1    -5.184192849358847E1    -5.140943765252148E1
 6.002775000000000E8    -4.640928193237127E1    -9.141760073835124E1    -3.279529568124618E-2   -1.752978142040522E1    -3.090822434834961E-2   -1.748028709929867E1    -5.287554433047528E1    -5.869484994568851E1
 6.202767500000000E8    -4.564483273860538E1    -9.149746272761102E1    -3.257444100959250E-2   -1.810970884416919E1    -3.083772959397571E-2   -1.806125150278438E1    -5.404403347800571E1    -7.741215393393826E1
 6.402760000000000E8    -4.481083498533630E1    -9.254937246048557E1    -3.299968050936916E-2   -1.868436729336215E1    -3.087080467112612E-2   -1.864136199657684E1    -5.395916831086574E1    -9.061443846938899E1
 6.602752500000000E8    -4.394977834698025E1    -9.245921059529893E1    -3.417798834375002E-2   -1.927402959108805E1    -3.233895687090448E-2   -1.923181513570954E1    -5.366729300736162E1    -9.890951246200247E1
 6.802745000000000E8    -4.369042037511532E1    -9.233981746322647E1    -3.594184095370532E-2   -1.986081009739839E1    -3.184509084707476E-2   -1.981378287762867E1    -5.240913338794339E1    -1.142634413985941E2
 7.002737500000000E8    -4.335366438716824E1    -9.262502988665744E1    -3.582751107830763E-2   -2.044377139846863E1    -3.196473357990590E-2   -2.039705013962930E1    -5.078385417134527E1    -1.187739378432058E2
 7.202730000000000E8    -4.326790960619020E1    -9.285416945879508E1    -3.430998064892035E-2   -2.100682189262205E1    -3.174260137820920E-2   -2.097205047181771E1    -5.039141690261203E1    -1.232578412397949E2
 7.402722500000000E8    -4.337825250944297E1    -9.429476012832016E1    -3.484058143009403E-2   -2.159628075618923E1    -3.259432820427947E-2   -2.155712103694742E1    -4.905201037569516E1    -1.258944266735504E2
 7.602715000000000E8    -4.293350075165678E1    -9.757923954573418E1    -3.506705185552907E-2   -2.217338489400452E1    -3.239796360331253E-2   -2.213419386237932E1    -4.824826617288416E1    -1.294768643198998E2
 7.802707500000000E8    -4.298324026227839E1    -9.768754638656981E1    -3.444798921936750E-2   -2.275495332409523E1    -3.271609804100268E-2   -2.271907989236452E1    -4.776450877437984E1    -1.342639552162469E2
 8.002700000000000E8    -4.237501879989343E1    -9.911949633829326E1    -3.512178054199886E-2   -2.335251170359915E1    -3.362854322346291E-2   -2.331599988913185E1    -4.668458513817481E1    -1.373279907890105E2
 8.202692500000000E8    -4.193232081820711E1    -9.980621733256798E1    -3.439534270362253E-2   -2.392930342940029E1    -3.397397855970872E-2   -2.389817342464203E1    -4.558087208606654E1    -1.400172267718626E2
 8.402685000000000E8    -4.141000292898024E1    -9.907641171367553E1    -3.520223240757910E-2   -2.452286486677926E1    -3.266957755410815E-2   -2.447215524717869E1    -4.480603026033368E1    -1.435433602004514E2
 8.602677500000000E8    -4.143070967057409E1    -9.579819441274331E1    -3.551567814863015E-2   -2.510677032371147E1    -3.335362993180392E-2   -2.506101626135357E1    -4.421115050732546E1    -1.474361267341792E2
 8.802670000000000E8    -4.083950517256933E1    -9.582008260858498E1    -3.567349617288080E-2   -2.569296745972054E1    -3.290340860611711E-2   -2.564431605614641E1    -4.359138291194529E1    -1.513008675602335E2
 9.002662500000000E8    -4.088874378755156E1    -9.352516232741255E1    -3.565727003415897E-2   -2.626603286572989E1    -3.419301045007006E-2   -2.623839247184754E1    -4.307535256646438E1    -1.514044549418743E2
 9.202655000000000E8    -4.055425181573877E1    -9.706380778469438E1    -3.703899877168789E-2   -2.685885367971960E1    -3.470046133021604E-2   -2.681575052202046E1    -4.235729438813100E1    -1.518618633552197E2
 9.402647500000000E8    -4.032629655074436E1    -9.728059319352866E1    -3.738786979209561E-2   -2.743462055010343E1    -3.410477091541671E-2   -2.738541422732368E1    -4.189065807736913E1    -1.501493665239526E2
 9.602640000000000E8    -4.020353218331442E1    -9.835863687492513E1    -3.739487958919160E-2   -2.801959480478396E1    -3.540823360434472E-2   -2.797179296901108E1    -4.165122376028054E1    -1.509730694306719E2
 9.802632500000000E8    -4.021529543165268E1    -9.994593378877180E1    -3.793672322609383E-2   -2.860593916401643E1    -3.495809565727422E-2   -2.855653085739981E1    -4.161613228753169E1    -1.497483375146805E2
 1.000262500000000E9    -4.037141158433435E1    -1.007154164291307E2    -3.843589470322096E-2   -2.917067762581167E1    -3.671555295487968E-2   -2.913233361772860E1    -4.128313706534280E1    -1.485762427038546E2
 1.020261750000000E9    -3.996453258471918E1    -1.023148367457902E2    -3.961201616850162E-2   -2.977276261888258E1    -3.529493219958644E-2   -2.971904682928165E1    -4.095752804498319E1    -1.499029985854103E2
 1.040261000000000E9    -3.959559268990364E1    -1.051118623739272E2    -3.869611744430195E-2   -3.034812364735263E1    -3.645054476023032E-2   -3.030148693414047E1    -4.047677357697233E1    -1.490498872294690E2
 1.060260250000000E9    -3.926762093157048E1    -1.079921274705121E2    -3.972760929867139E-2   -3.093237928768892E1    -3.634854225094397E-2   -3.087645209472929E1    -4.019902216993831E1    -1.483026135244519E2
 1.080259500000000E9    -3.934429663961482E1    -1.095298375263400E2    -4.101999888222549E-2   -3.151200861704986E1    -3.941225091164444E-2   -3.146357232641896E1    -3.994179203085749E1    -1.475206894254572E2
 1.100258750000000E9    -3.905295156981335E1    -1.079701179336090E2    -3.975104119450169E-2   -3.209100659054984E1    -3.839302334376900E-2   -3.205233122585837E1    -3.941988960811760E1    -1.488769999849547E2
 1.120258000000000E9    -3.896311707561705E1    -1.066258281009707E2    -3.977937067048306E-2   -3.269377879396780E1    -3.701755679664506E-2   -3.262330370350804E1    -3.903893722765238E1    -1.462069687161628E2
 1.140257250000000E9    -3.888396225166833E1    -1.063372688255698E2    -3.910924974057541E-2   -3.327043695184027E1    -3.898341757981737E-2   -3.320876504227992E1    -3.869676546715077E1    -1.477165046343165E2
 1.160256500000000E9    -3.859173964961865E1    -1.066856936533074E2    -3.821122643762011E-2   -3.384652221171545E1    -3.699575717588384E-2   -3.379149439890470E1    -3.830472417704814E1    -1.468515273895265E2
 1.180255750000000E9    -3.816559552526148E1    -1.082589085060427E2    -4.027847339750085E-2   -3.443762981466205E1    -3.781094213689571E-2   -3.438049600128312E1    -3.784854739888709E1    -1.483748400434701E2
 1.200255000000000E9    -3.765105696932086E1    -1.088859674721476E2    -4.009181808390418E-2   -3.501468245091235E1    -3.749782229737182E-2   -3.495926208708359E1    -3.753077404719120E1    -1.479320838595998E2
 1.220254250000000E9    -3.769996429176905E1    -1.101918210298288E2    -3.998412250094650E-2   -3.560382130706693E1    -3.864912424498211E-2   -3.553365263231069E1    -3.717326221647249E1    -1.472596168192220E2
 1.240253500000000E9    -3.736505805773464E1    -1.121884390264291E2    -3.976260541737345E-2   -3.617969316373731E1    -3.856188354801834E-2   -3.612097795392389E1    -3.710177068512460E1    -1.464415396555745E2
 1.260252750000000E9    -3.716313465087547E1    -1.122700436911642E2    -3.801602376982204E-2   -3.675700871650874E1    -3.702345572588026E-2   -3.669186369681943E1    -3.703166879047256E1    -1.450401348605095E2
 1.280252000000000E9    -3.719171666649771E1    -1.133451540701639E2    -4.014439021219018E-2   -3.734362298261561E1    -3.889012166497693E-2   -3.727832270098417E1    -3.693280287545981E1    -1.450255154044042E2
 1.300251250000000E9    -3.700098571897496E1    -1.153840564024059E2    -4.106685849438765E-2   -3.793369355835553E1    -3.758179116918130E-2   -3.786177755034918E1    -3.692034928856307E1    -1.457346853261507E2
 1.320250500000000E9    -3.704196743077696E1    -1.151682608850004E2    -4.060109807670123E-2   -3.850716214188893E1    -3.872978471345363E-2   -3.845032883429651E1    -3.670145992315187E1    -1.434642430822212E2
 1.340249750000000E9    -3.705628601763059E1    -1.171018347771791E2    -4.276640806380021E-2   -3.908274467151289E1    -3.919131791191478E-2   -3.903835723224099E1    -3.648689123032710E1    -1.431974673992881E2
 1.360249000000000E9    -3.693558347855854E1    -1.171216789755348E2    -3.957204078890469E-2   -3.966768040675140E1    -3.916353379160970E-2   -3.961942846997023E1    -3.630827467982014E1    -1.424138770782217E2
 1.380248250000000E9    -3.702078741140613E1    -1.171471027296822E2    -4.019920668209145E-2   -4.025582984253020E1    -3.804538859157736E-2   -4.020842362079446E1    -3.605225744721338E1    -1.417760789743124E2
 1.400247500000000E9    -3.685364946082981E1    -1.187867591025936E2    -4.059844135419619E-2   -4.083864803125285E1    -3.915412152034339E-2   -4.078530795558062E1    -3.590904857745790E1    -1.405337008941123E2
 1.420246750000000E9    -3.678610511248554E1    -1.198477184711180E2    -4.170139399305634E-2   -4.141677406113799E1    -3.892448417430619E-2   -4.136704936758289E1    -3.570081532162348E1    -1.414859173928510E2
 1.440246000000000E9    -3.637782522711333E1    -1.216336709759922E2    -4.215049199183501E-2   -4.200367712453394E1    -3.980886766642772E-2   -4.195545202321252E1    -3.529895846280770E1    -1.401997652645408E2
 1.460245250000000E9    -3.598223244097652E1    -1.235350006723865E2    -4.238480766408741E-2   -4.257334505624699E1    -4.141325580474153E-2   -4.254140790738356E1    -3.506234630683747E1    -1.413019912398045E2
 1.480244500000000E9    -3.568331647832321E1    -1.242622456616383E2    -4.291342250526260E-2   -4.317705166219410E1    -3.987600969354874E-2   -4.311304397640824E1    -3.491739968799352E1    -1.398398125568439E2
 1.500243750000000E9    -3.547298275639427E1    -1.253615232626692E2    -4.401642573854815E-2   -4.374685077790885E1    -4.214985122316442E-2   -4.370016247326651E1    -3.472631870602250E1    -1.387103645862721E2
 1.520243000000000E9    -3.534085581911673E1    -1.253756742438765E2    -4.343701089690392E-2   -4.432190262980838E1    -4.048409786401919E-2   -4.427610407977882E1    -3.452006078140912E1    -1.377237496698781E2
 1.540242250000000E9    -3.541705507828747E1    -1.262027080741863E2    -4.262377789385600E-2   -4.489406406137542E1    -4.122658912188027E-2   -4.484999561969546E1    -3.446677521508977E1    -1.376596247412007E2
 1.560241500000000E9    -3.531494722169425E1    -1.258876348561057E2    -4.296153137365789E-2   -4.548923290612179E1    -4.039018476789234E-2   -4.543278969358669E1    -3.438818014608380E1    -1.364239858952263E2
 1.580240750000000E9    -3.515735073741591E1    -1.278567511731170E2    -4.352978596877929E-2   -4.607960107692129E1    -4.214919728585925E-2   -4.602131286914303E1    -3.410746289512679E1    -1.356017816996261E2
 1.600240000000000E9    -3.510151293364665E1    -1.290267534774364E2    -4.488807132354344E-2   -4.666535366423629E1    -4.334059391331399E-2   -4.662220183358819E1    -3.405726893260993E1    -1.356373932430498E2
 1.620239250000000E9    -3.488282874382188E1    -1.301470979723082E2    -4.481442052022166E-2   -4.724718551653098E1    -4.253471283319479E-2   -4.719668522704305E1    -3.393543476453596E1    -1.351422986364141E2
 1.640238500000000E9    -3.477501598964798E1    -1.306502430925933E2    -4.573600812025977E-2   -4.783552175090508E1    -4.254774269575887E-2   -4.777882465342803E1    -3.367442102371405E1    -1.352386773648874E2
 1.660237750000000E9    -3.473111111508681E1    -1.316279930602881E2    -4.614221084835170E-2   -4.841119905878207E1    -4.316203312549258E-2   -4.836401176621201E1    -3.351766183729734E1    -1.347391176702678E2
 1.680237000000000E9    -3.459983811413557E1    -1.321163049714330E2    -4.567822676598176E-2   -4.897685509456356E1    -4.215863888091814E-2   -4.894266322198360E1    -3.346795266878347E1    -1.346140078974543E2
 1.700236250000000E9    -3.429836443168740E1    -1.326464826791466E2    -4.681355177545199E-2   -4.955818350891990E1    -4.238375230503151E-2   -4.952221537692994E1    -3.331877029607305E1    -1.332147680962298E2
 1.720235500000000E9    -3.415924372186461E1    -1.325314224895293E2    -4.582992946134423E-2   -5.014493805983791E1    -4.298160843948387E-2   -5.010563391136245E1    -3.316258892344620E1    -1.344373953244558E2
 1.740234750000000E9    -3.383124156153242E1    -1.342656242933313E2    -4.634561786608121E-2   -5.072507297187129E1    -4.442547605342789E-2   -5.068959415739182E1    -3.297742556253834E1    -1.345719666122170E2
 1.760234000000000E9    -3.367938743076224E1    -1.341797157337652E2    -4.657317015815371E-2   -5.132174683842465E1    -4.435254905559585E-2   -5.127559111843932E1    -3.277256671505461E1    -1.336153101433681E2
 1.780233250000000E9    -3.365111384499998E1    -1.355874665309578E2    -4.733451999140686E-2   -5.190909216278509E1    -4.371694687200654E-2   -5.186533402050225E1    -3.270420796451292E1    -1.334188901375451E2
 1.800232500000000E9    -3.362902710802771E1    -1.365282518367037E2    -4.731669125937041E-2   -5.249076936111343E1    -4.419995746412838E-2   -5.244594186927120E1    -3.259397873501305E1    -1.338696908585197E2
