#  HZ   S   DB   R     50.00 
! Rohde & Schwarz Vector Network Analyzer 
! Rohde-Schwarz,ZNB8-4Port,1311601044101761,1.95
! Created: UTC 2/26/2014, 9:19:17 AM
! freq[Hz]                db:S11                  ang:S11                 db:S21                  ang:S21                 db:S12                  ang:S12                 db:S22                  ang:S22
 3.000000000000000E5    -4.168669545129213E1     1.000298729357027E2     2.341576848211308E-2   -5.253393596441847E-1    2.426731434750361E-2   -5.319389732995073E-1   -4.337973750913804E1     8.278647091299814E1
 2.029925000000000E7    -4.691675510730858E1    -6.266617346939617E1    -4.455850408127974E-2   -1.491738661037083E1    -4.413276589146662E-2   -1.490867162258910E1    -4.118553293818884E1    -2.114176102209428E1
 4.029850000000000E7    -4.060884044349723E1    -9.941252236208487E1    -5.614923760462076E-2   -2.947100137830070E1    -5.239420636704583E-2   -2.941879423596973E1    -3.799462576276299E1    -6.204350501301995E1
 6.029775000000000E7    -3.771912052456807E1    -1.149650335879657E2    -6.960396471361133E-2   -4.398394548603901E1    -6.595387885979712E-2   -4.395979697037021E1    -3.532601348053128E1    -9.188503843868500E1
 8.029700000000000E7    -3.580968670973930E1    -1.279460578858716E2    -8.363363474576877E-2   -5.852023676242476E1    -7.829252965701779E-2   -5.850383474831781E1    -3.369083020784767E1    -1.145087526473037E2
 1.002962500000000E8    -3.471686518236007E1    -1.439705754845467E2    -9.029130819611021E-2   -7.305353994305065E1    -8.758268433954689E-2   -7.303537110478841E1    -3.280264834873636E1    -1.365834786551298E2
 1.202955000000000E8    -3.394644155148490E1    -1.604169942287709E2    -9.787352489387856E-2   -8.755415114375533E1    -9.656802744780536E-2   -8.751642391356272E1    -3.226118102856772E1    -1.581745540942377E2
 1.402947500000000E8    -3.405116109418820E1    -1.760203323089265E2    -1.021048107106461E-1   -1.020496061257373E2    -9.865479706208997E-2   -1.020251867639792E2    -3.223907054303298E1    -1.788940147897058E2
 1.602940000000000E8    -3.433423930764413E1     1.685776730938565E2    -1.064884759891176E-1   -1.165610589220983E2    -1.036724665786051E-1   -1.165366821457327E2    -3.250189062301870E1     1.602136012084296E2
 1.802932500000000E8    -3.498925878201642E1     1.513949372003161E2    -1.109866675422284E-1   -1.310677730587709E2    -1.092032178458373E-1   -1.310582290028521E2    -3.309680858409915E1     1.388694979799620E2
 2.002925000000000E8    -3.618912857401069E1     1.344767967510219E2    -1.169964553203104E-1   -1.455806792377912E2    -1.125321363355193E-1   -1.455685389092542E2    -3.403601108544367E1     1.165994996498763E2
 2.202917500000000E8    -3.860295674043660E1     1.146387703790254E2    -1.202703957958574E-1   -1.600980750312606E2    -1.151564865924379E-1   -1.600786950311214E2    -3.540007405631408E1     8.945240936109346E1
 2.402910000000000E8    -4.278267899793821E1     9.452067783090681E1    -1.216597756160715E-1   -1.746355419562048E2    -1.198032622262783E-1   -1.746029302353795E2    -3.744847749480095E1     5.932714124481826E1
 2.602902500000000E8    -5.063489961262111E1     5.353209743597832E1    -1.230843835786975E-1    1.708418131781502E2    -1.220515421952918E-1    1.708793661820419E2    -3.905109635292774E1     1.986524945729327E1
 2.802895000000000E8    -5.001718503690896E1    -6.572537417384105E1    -1.262420869785855E-1    1.563288314617722E2    -1.228063409168836E-1    1.563646705273304E2    -3.888832486613931E1    -2.526960303258317E1
 3.002887500000000E8    -4.205047622556713E1    -1.015919905749879E2    -1.288793523573359E-1    1.418139952076390E2    -1.260437758299798E-1    1.418542126241558E2    -3.728688011688150E1    -6.548886292089175E1
 3.202880000000000E8    -3.798726656014588E1    -1.227120746849007E2    -1.329828457014697E-1    1.272968728385717E2    -1.297110584863082E-1    1.273362496757408E2    -3.537200449600612E1    -9.589978625538424E1
 3.402872500000000E8    -3.580939309458941E1    -1.404239231614349E2    -1.359892649406122E-1    1.127751580123886E2    -1.342057632654045E-1    1.128215355363462E2    -3.377089457846209E1    -1.214820216286650E2
 3.602865000000000E8    -3.454329993455075E1    -1.578425153538652E2    -1.404813220805654E-1    9.825958154810343E1    -1.386972604146714E-1    9.830736084160048E1    -3.269465164872399E1    -1.435120287004168E2
 3.802857500000000E8    -3.378575511543293E1    -1.738842918348572E2    -1.432902141814620E-1    8.376122531129207E1    -1.426777150659370E-1    8.381426501881549E1    -3.207682690470348E1    -1.640781003513112E2
 4.002850000000000E8    -3.361098108415711E1     1.689114494884651E2    -1.478291780520501E-1    6.926400831875547E1    -1.453615676067970E-1    6.931204754081280E1    -3.174086871837216E1     1.761627196593190E2
 4.202842500000000E8    -3.361941401481294E1     1.527799759706326E2    -1.518798141579962E-1    5.477264818307958E1    -1.502686090638621E-1    5.481816923827075E1    -3.179000668970171E1     1.583771891236935E2
 4.402835000000000E8    -3.415022441932350E1     1.357775241147184E2    -1.542525954536635E-1    4.027167041403119E1    -1.528247579127513E-1    4.030995473307052E1    -3.240499640415613E1     1.396624657745301E2
 4.602827500000000E8    -3.517864248251884E1     1.168637685785427E2    -1.558080172385545E-1    2.576558290244450E1    -1.528850733798973E-1    2.580493388131582E1    -3.327101420908139E1     1.209783439611077E2
 4.802820000000000E8    -3.695263270290464E1     9.848566854704565E1    -1.587987174400735E-1    1.124868774604984E1    -1.577012251493992E-1    1.130191047848764E1    -3.474622544626683E1     1.017649936740737E2
 5.002812500000000E8    -3.983692485301391E1     7.625610879954601E1    -1.591767036165000E-1   -3.255636301702912      -1.587905316980699E-1   -3.210868180069251      -3.685241119855887E1     8.108625109271470E1
 5.202805000000000E8    -4.414266336145970E1     4.201545499659796E1    -1.613346181073727E-1   -1.777239046340944E1    -1.619051437019357E-1   -1.771844816455849E1    -4.020548277988888E1     5.332461904695677E1
 5.402797500000000E8    -4.759145782522605E1    -2.477082888530439E1    -1.647761968214490E-1   -3.227923908860159E1    -1.638397154274814E-1   -3.223758663065519E1    -4.360003547894901E1     8.976508689781737
 5.602790000000000E8    -4.377910455349714E1    -8.740459198105793E1    -1.669045648238628E-1   -4.679178725054029E1    -1.658207429678233E-1   -4.672933609779098E1    -4.437124451509023E1    -5.797453009125535E1
 5.802782500000000E8    -3.990875645429510E1    -1.165983048342529E2    -1.708028483386744E-1   -6.130817999199067E1    -1.678447613156818E-1   -6.124999656048601E1    -4.065556471100877E1    -1.010553914106711E2
 6.002775000000000E8    -3.744643664332048E1    -1.387782108229922E2    -1.734476700864110E-1   -7.581731366372463E1    -1.708407034258731E-1   -7.574621852235582E1    -3.769343340492726E1    -1.297223703401535E2
 6.202767500000000E8    -3.579043295714319E1    -1.594469765232730E2    -1.767741903765581E-1   -9.031547394126393E1    -1.743062554634012E-1   -9.024123863033385E1    -3.577088721341033E1    -1.514194049618478E2
 6.402760000000000E8    -3.497842205097885E1    -1.791688057717581E2    -1.792777214424185E-1   -1.048095749476520E2    -1.775146925562743E-1   -1.047556803589524E2    -3.442767125488724E1    -1.695049212718338E2
 6.602752500000000E8    -3.469732891222930E1     1.613591578929686E2    -1.838731351248489E-1   -1.193095094821253E2    -1.817934738320293E-1   -1.192530958260942E2    -3.365145934283898E1     1.737015491408940E2
 6.802745000000000E8    -3.491471929317481E1     1.426187585402636E2    -1.880726577467395E-1   -1.338172079577701E2    -1.852727737126013E-1   -1.337522081565921E2    -3.352914326339149E1     1.574403090940799E2
 7.002737500000000E8    -3.552763953227976E1     1.222948969892604E2    -1.895419864022491E-1   -1.483167803512696E2    -1.879965211262227E-1   -1.482581730282054E2    -3.383080915499820E1     1.415866091081500E2
 7.202730000000000E8    -3.651025302237017E1     1.011945281407277E2    -1.913569171710311E-1   -1.627931630779264E2    -1.896529190430256E-1   -1.627499693763436E2    -3.439970194754493E1     1.266250441963781E2
 7.402722500000000E8    -3.787551812127419E1     7.875346220494663E1    -1.939490883437476E-1   -1.772945605646418E2    -1.919748000868485E-1   -1.772495428230226E2    -3.558763025603879E1     1.112320085183412E2
 7.602715000000000E8    -3.972396300681361E1     5.158985969579618E1    -1.955670304475956E-1    1.682119019726148E2    -1.933025024509857E-1    1.682534338700945E2    -3.724234897858946E1     9.703083602043780E1
 7.802707500000000E8    -4.114172961918708E1     1.862625423233660E1    -1.969478391471315E-1    1.537077806942973E2    -1.958137205379769E-1    1.537535946111763E2    -3.951340132385183E1     8.486372941792297E1
 8.002700000000000E8    -4.201536157050462E1    -2.310013237451587E1    -1.993504372187224E-1    1.391936355875199E2    -1.964991703258701E-1    1.392458666164945E2    -4.321709794049379E1     7.604886729369835E1
 8.202692500000000E8    -4.128554981085627E1    -6.210359653931504E1    -1.996557574511395E-1    1.246952199601253E2    -1.988291375108547E-1    1.247343340562410E2    -4.951005435247264E1     8.080502249603033E1
 8.402685000000000E8    -3.996653688719395E1    -9.628359823747680E1    -2.021820582511557E-1    1.101823763677897E2    -2.010576384753343E-1    1.102324805392546E2    -5.341779976341081E1     1.503299729362541E2
 8.602677500000000E8    -3.852979956561618E1    -1.222863564734614E2    -2.047102139971710E-1    9.568224547348162E1    -2.019458642082310E-1    9.572818010075010E1    -4.686822163757231E1     1.782466430932905E2
 8.802670000000000E8    -3.779867734462799E1    -1.481684159235404E2    -2.079764026784823E-1    8.116341201819739E1    -2.044303858598773E-1    8.122773107115039E1    -4.218683843100966E1     1.766196223083309E2
 9.002662500000000E8    -3.716174641333603E1    -1.711946845774790E2    -2.101827730098392E-1    6.666959196632189E1    -2.079836347975365E-1    6.672390840121076E1    -3.960229890003016E1     1.690966124455998E2
 9.202655000000000E8    -3.739200390611634E1     1.636095232319510E2    -2.117471047464760E-1    5.217221492395784E1    -2.095356083509617E-1    5.222765767626242E1    -3.810694670061344E1     1.596592030135241E2
 9.402647500000000E8    -3.769025506569811E1     1.394192331777097E2    -2.145328317445199E-1    3.767653504214096E1    -2.126492156681029E-1    3.773244373423423E1    -3.729415526434812E1     1.492023591377700E2
 9.602640000000000E8    -3.837977549190222E1     1.131819826950122E2    -2.166275993917839E-1    2.317645781976099E1    -2.169423739334006E-1    2.323064572392948E1    -3.694237064796999E1     1.407757114571295E2
 9.802632500000000E8    -3.909565625727592E1     8.498680018355141E1    -2.179163503908889E-1    8.673895521478034      -2.168225730871949E-1    8.732752047039037      -3.694653074742148E1     1.306150497523418E2
 1.000262500000000E9    -3.939272437070110E1     5.597573304991929E1    -2.193364608863857E-1   -5.825080098026708      -2.202358969012774E-1   -5.763558590425647      -3.737085999733716E1     1.210998841217929E2
 1.020261750000000E9    -3.961444289994802E1     2.362980061381502E1    -2.216790759981737E-1   -2.032494615319839E1    -2.212560064577526E-1   -2.025202767573099E1    -3.780198624327583E1     1.140632220556943E2
 1.040261000000000E9    -3.957914106555186E1    -8.071925827686142      -2.252537266718737E-1   -3.481797910529104E1    -2.236786197523919E-1   -3.476304236861417E1    -3.862746937847309E1     1.085671299247519E2
 1.060260250000000E9    -3.925664107621252E1    -3.757844212255647E1    -2.282716584841643E-1   -4.931373431490243E1    -2.268515026778064E-1   -4.925861216894243E1    -3.957617147656242E1     1.044894451887000E2
 1.080259500000000E9    -3.845692647277127E1    -6.245885193008832E1    -2.301636299714918E-1   -6.381350590657272E1    -2.295876280638957E-1   -6.375783228326343E1    -4.042130783708731E1     1.013520851373287E2
 1.100258750000000E9    -3.754309460922116E1    -8.696150435136670E1    -2.296502130324276E-1   -7.830598966037151E1    -2.305916304514719E-1   -7.826016539778921E1    -4.081008321537144E1     9.924743973773795E1
 1.120258000000000E9    -3.710558605566323E1    -1.095375430310913E2    -2.322772970940348E-1   -9.281398478524609E1    -2.292585519566434E-1   -9.275372266852006E1    -4.134387597236759E1     1.003130488897201E2
 1.140257250000000E9    -3.705311013098858E1    -1.318260775191253E2    -2.327631324937275E-1   -1.073212113055810E2    -2.341379901276864E-1   -1.072455576030406E2    -4.201779163131813E1     9.737755919134963E1
 1.160256500000000E9    -3.748427835124004E1    -1.550892092862319E2    -2.349578516404956E-1   -1.218143861791489E2    -2.356584178564058E-1   -1.217431491079575E2    -4.236556624755144E1     9.912791486185988E1
 1.180255750000000E9    -3.882367484232732E1    -1.793363685487499E2    -2.371419512688716E-1   -1.363150390849017E2    -2.355036149277100E-1   -1.362438879503864E2    -4.310259910677153E1     1.013337907072411E2
 1.200255000000000E9    -4.053721105711725E1     1.519165210607030E2    -2.391294349563058E-1   -1.508039760277145E2    -2.383514205221988E-1   -1.507421301081245E2    -4.364937236474678E1     1.087386480695160E2
 1.220254250000000E9    -4.244557028707401E1     1.185755061409686E2    -2.409368167259122E-1   -1.653142802311457E2    -2.403401736537163E-1   -1.652365230079151E2    -4.390216650296754E1     1.200168596120779E2
 1.240253500000000E9    -4.371907284374143E1     7.322084152222149E1    -2.427272924191515E-1   -1.798076196096301E2    -2.420185604399353E-1   -1.797436579193826E2    -4.252646284985847E1     1.278399253431958E2
 1.260252750000000E9    -4.214745627074180E1     2.919182676571439E1    -2.422034185460217E-1    1.656883989731715E2    -2.425702898095913E-1    1.657676318278317E2    -4.113211929420528E1     1.277651001276466E2
 1.280252000000000E9    -3.996138068790997E1    -1.833637507956027      -2.446615426375426E-1    1.511935826554002E2    -2.459485699300694E-1    1.512591300202499E2    -3.950286009264434E1     1.241752063517337E2
 1.300251250000000E9    -3.828791508804190E1    -2.622418652504514E1    -2.484979186259037E-1    1.366844952088415E2    -2.465769336189359E-1    1.367675779040332E2    -3.797117367796582E1     1.162478184101075E2
 1.320250500000000E9    -3.671471261391423E1    -4.572620540301526E1    -2.504126596683800E-1    1.222020346444183E2    -2.496459106434557E-1    1.222695396910053E2    -3.726760342779212E1     1.074490014722633E2
 1.340249750000000E9    -3.590081506711185E1    -6.282335592208001E1    -2.525563665918517E-1    1.077056824980158E2    -2.513731013332556E-1    1.077677433267855E2    -3.654550979631929E1     9.718595733161538E1
 1.360249000000000E9    -3.535309810206706E1    -8.030714707839606E1    -2.516254418015321E-1    9.320570203069180E1    -2.524443255274685E-1    9.327379873425669E1    -3.619114463383558E1     8.421868399137509E1
 1.380248250000000E9    -3.529262857966367E1    -9.642742834270860E1    -2.560047265829131E-1    7.870462841038831E1    -2.538939116958336E-1    7.876552522444048E1    -3.601125201556944E1     7.096928209470909E1
 1.400247500000000E9    -3.591753826782971E1    -1.123025464461444E2    -2.566433582657123E-1    6.420261134049038E1    -2.559433542254775E-1    6.427420584861100E1    -3.641368288415897E1     5.840450543555836E1
 1.420246750000000E9    -3.691247652899840E1    -1.287280665386078E2    -2.574755811467275E-1    4.971597267161512E1    -2.572918724598067E-1    4.976766706787236E1    -3.717337521866693E1     4.412744387904092E1
 1.440246000000000E9    -3.913496666743806E1    -1.436566761647581E2    -2.592683547797863E-1    3.521196715022182E1    -2.587850179063138E-1    3.528631201452471E1    -3.863851345111118E1     2.953645833113384E1
 1.460245250000000E9    -4.257665776824212E1    -1.569211537519914E2    -2.622453136337773E-1    2.071207558998160E1    -2.615793981111043E-1    2.077135888116349E1    -4.162657026151859E1     1.290433090768990E1
 1.480244500000000E9    -5.020348189895069E1    -1.689941158524774E2    -2.636501742473841E-1    6.211578371186135      -2.616860452235684E-1    6.288436564263781      -4.684313443053355E1    -4.988397606994352
 1.500243750000000E9    -5.876562542597099E1    -3.148265962893071E1    -2.654667611784385E-1   -8.282913104046228      -2.635261283903618E-1   -8.216642327545566      -5.718001321568798E1    -6.640236121794943E1
 1.520243000000000E9    -4.514343450062868E1    -2.707046271139404E1    -2.666294682275194E-1   -2.277937470432825E1    -2.636349435233320E-1   -2.271237626088065E1    -4.968503175028487E1    -1.785644137786113E2
 1.540242250000000E9    -4.053995935047049E1    -3.588454901308832E1    -2.672012892020346E-1   -3.726419999352036E1    -2.668610870416741E-1   -3.720141406843400E1    -4.308921259416926E1     1.516455350241382E2
 1.560241500000000E9    -3.745374548393306E1    -4.821750087427154E1    -2.696856549664352E-1   -5.177927998388520E1    -2.676396310912894E-1   -5.169681252189951E1    -3.969377978064433E1     1.315063431091137E2
 1.580240750000000E9    -3.584006764965754E1    -6.087221220272210E1    -2.718422711916646E-1   -6.628590495026198E1    -2.707906053515485E-1   -6.620879589352718E1    -3.734562561374168E1     1.150304134541826E2
 1.600240000000000E9    -3.466896309363095E1    -7.232667009541935E1    -2.749421659774344E-1   -8.078597581122961E1    -2.737272619073850E-1   -8.072306532228146E1    -3.570844955582644E1     9.637598258272209E1
 1.620239250000000E9    -3.405777749569918E1    -8.400022619264686E1    -2.767892820193972E-1   -9.528588394730390E1    -2.749761277197017E-1   -9.520832522806344E1    -3.459883961886976E1     7.909520621825401E1
 1.640238500000000E9    -3.379582995305772E1    -9.553797881072072E1    -2.793702773119557E-1   -1.097807172691244E2    -2.768636138809775E-1   -1.097021816371347E2    -3.381299313062614E1     6.057899405395184E1
 1.660237750000000E9    -3.401184140818043E1    -1.052689899461507E2    -2.818012229375444E-1   -1.242752942009242E2    -2.780075697434898E-1   -1.241950155300632E2    -3.351166899334939E1     4.291848768878487E1
 1.680237000000000E9    -3.471714399005779E1    -1.147802560287639E2    -2.830853175070974E-1   -1.387494423092186E2    -2.793483827957626E-1   -1.386789863678754E2    -3.375337218390082E1     2.440342021231743E1
 1.700236250000000E9    -3.615846084412895E1    -1.214333136341513E2    -2.832191233591516E-1   -1.532401430734140E2    -2.805587146531611E-1   -1.531772304306977E2    -3.453219237991159E1     6.316159373110623
 1.720235500000000E9    -3.815999718325968E1    -1.249353109654489E2    -2.842662610069764E-1   -1.677369454202029E2    -2.811905058913688E-1   -1.676803313938071E2    -3.571816921610937E1    -1.602521210978057E1
 1.740234750000000E9    -3.991193853028172E1    -1.167785569374058E2    -2.849040589859559E-1    1.777585036587674E2    -2.839008082676978E-1    1.778216281374223E2    -3.762050619147204E1    -4.113399064216493E1
 1.760234000000000E9    -4.089720263576237E1    -9.863972629553967E1    -2.863577617333577E-1    1.632577401501324E2    -2.843634143422149E-1    1.633193608147421E2    -3.971394492974716E1    -7.245150401412228E1
 1.780233250000000E9    -3.979275896553799E1    -8.320418757551070E1    -2.891351823309303E-1    1.487528011563452E2    -2.868031142800285E-1    1.488185815796884E2    -4.158451789578975E1    -1.154108207327301E2
 1.800232500000000E9    -3.778901533026874E1    -7.565030575047679E1    -2.900300944644620E-1    1.342464128869576E2    -2.872453179110734E-1    1.343176436154725E2    -4.123862569367098E1    -1.646184087246857E2
