#  HZ   S   DB   R     50.00 
! Rohde & Schwarz Vector Network Analyzer 
! Rohde-Schwarz,ZNB8-4Port,1311601044101761,1.95
! Created: UTC 2/26/2014, 9:20:15 AM
! freq[Hz]                db:S11                  ang:S11                 db:S21                  ang:S21                 db:S12                  ang:S12                 db:S22                  ang:S22
 3.000000000000000E5    -4.168332662213742E1     9.998339819721149E1     2.397024494549076E-2   -5.283868522814286E-1    2.401950612620160E-2   -5.359175899318772E-1   -4.328277970919768E1     8.238859379504686E1
 2.029925000000000E7    -4.806604294381412E1    -2.961833334169008E1    -5.094884606114486E-2   -1.513841588765802E1    -5.179518610179196E-2   -1.513989751669329E1    -4.049055906758721E1    -5.866567238207083
 4.029850000000000E7    -4.382632708604028E1    -7.796725425274370E1    -6.468504228363872E-2   -2.987760711080487E1    -6.340863822366882E-2   -2.982104150537065E1    -3.829777263284628E1    -4.262447779352025E1
 6.029775000000000E7    -4.082152089547198E1    -9.643441995142054E1    -8.193263713906017E-2   -4.457318477195606E1    -7.973855898640841E-2   -4.454549371650768E1    -3.664944916724625E1    -7.413547140990286E1
 8.029700000000000E7    -3.876955235923852E1    -1.116574647785058E2    -9.680503461308791E-2   -5.928518872409811E1    -9.288301411094165E-2   -5.926540144273002E1    -3.553099898296479E1    -9.904245581439083E1
 1.002962500000000E8    -3.775030530873459E1    -1.294365466930254E2    -1.053518025016946E-1   -7.399255667663782E1    -1.034903360704562E-1   -7.397369574309772E1    -3.502104095167113E1    -1.233501973258206E2
 1.202955000000000E8    -3.699016055564925E1    -1.488632200373654E2    -1.144057063139040E-1   -8.867192789760320E1    -1.133560947010097E-1   -8.864068133297722E1    -3.477484055702872E1    -1.481491890576641E2
 1.402947500000000E8    -3.722659276437661E1    -1.654488504543218E2    -1.184657521203420E-1   -1.033447982150022E2    -1.161685487950107E-1   -1.033140946470704E2    -3.499358612923555E1    -1.715177684561396E2
 1.602940000000000E8    -3.755991227223750E1     1.778475619446854E2    -1.251651029273165E-1   -1.180441345277923E2    -1.226699602302304E-1   -1.180082380097413E2    -3.535765530949285E1     1.639535600069019E2
 1.802932500000000E8    -3.826930052545142E1     1.584258977826932E2    -1.307614060967430E-1   -1.327226168976868E2    -1.290859159332930E-1   -1.327083056036734E2    -3.590165007196272E1     1.391721742408786E2
 2.002925000000000E8    -3.946492840956653E1     1.391306914946345E2    -1.376974429088811E-1   -1.474169148420209E2    -1.336488539507359E-1   -1.474004167009420E2    -3.655691501754933E1     1.130516738988312E2
 2.202917500000000E8    -4.212553225223034E1     1.156788729612681E2    -1.405654944775940E-1   -1.621029660455201E2    -1.388216003682920E-1   -1.620820887905517E2    -3.728860484521463E1     8.214577558421028E1
 2.402910000000000E8    -4.640004257426277E1     9.011030315883883E1    -1.440267368455465E-1   -1.768136621262725E2    -1.428486004691919E-1   -1.767813674220818E2    -3.831304603170604E1     5.099625037414216E1
 2.602902500000000E8    -5.214991233320261E1     3.296652244343530E1    -1.475780634256338E-1    1.684861904549321E2    -1.447222745595400E-1    1.685265803592517E2    -3.877464045144698E1     1.652726350229559E1
 2.802895000000000E8    -4.964410354330642E1    -5.015189718992508E1    -1.497157437776865E-1    1.537995466661145E2    -1.471251083232158E-1    1.538338903942413E2    -3.838218855686320E1    -1.815627535167168E1
 3.002887500000000E8    -4.384999020811704E1    -8.667368181096053E1    -1.541479107476074E-1    1.391135460415967E2    -1.505997938685899E-1    1.391513483019813E2    -3.777795100740392E1    -5.087835621826963E1
 3.202880000000000E8    -4.042815169468899E1    -1.110966072286350E2    -1.580442314276372E-1    1.244259066054315E2    -1.550461792345564E-1    1.244616140185147E2    -3.691079786867045E1    -7.960285398531849E1
 3.402872500000000E8    -3.850471977045611E1    -1.304050165821782E2    -1.610456118363114E-1    1.097267372962682E2    -1.591091689526911E-1    1.097679022036220E2    -3.622310627521976E1    -1.067461976189824E2
 3.602865000000000E8    -3.746987409434610E1    -1.487662442785981E2    -1.648229503434245E-1    9.503374493969663E1    -1.631722460728832E-1    9.508279082992365E1    -3.569350557728684E1    -1.307446147643391E2
 3.802857500000000E8    -3.676879256298770E1    -1.659104607587087E2    -1.697738737705689E-1    8.035673677466804E1    -1.669857139855635E-1    8.040408945008079E1    -3.557051216218689E1    -1.535505464561136E2
 4.002850000000000E8    -3.673211290343679E1     1.757043097839519E2    -1.724945682651064E-1    6.568540385805073E1    -1.704114551262344E-1    6.573754679372787E1    -3.563584650030288E1    -1.762571686427154E2
 4.202842500000000E8    -3.666887973958252E1     1.588264132168409E2    -1.767003851764656E-1    5.101982533997937E1    -1.755604582979205E-1    5.105998066747133E1    -3.592571499699837E1     1.635649150435991E2
 4.402835000000000E8    -3.716181045177102E1     1.410398534847670E2    -1.802138766557412E-1    3.633936649839129E1    -1.789561459692922E-1    3.637531372539475E1    -3.695304229340496E1     1.421302368255749E2
 4.602827500000000E8    -3.818873475663642E1     1.211305075066036E2    -1.847999266338990E-1    2.166425195929440E1    -1.813116709052999E-1    2.169713232682260E1    -3.812952281889168E1     1.196802928633016E2
 4.802820000000000E8    -3.984952947716358E1     1.026427818819895E2    -1.854096890758838E-1    6.966998360285081      -1.839145693552491E-1    7.022968264564339      -3.996868144057015E1     9.574471011296781E1
 5.002812500000000E8    -4.255002943099004E1     8.189907652136934E1    -1.872296757311779E-1   -7.719238950581328      -1.867508412706113E-1   -7.676126036648023      -4.240019655736732E1     6.693844129930754E1
 5.202805000000000E8    -4.659753525278771E1     5.206439544577916E1    -1.899597517751540E-1   -2.240110519541122E1    -1.890346861838873E-1   -2.236580037448615E1    -4.529641311895919E1     2.233914374616793E1
 5.402797500000000E8    -5.116381308450893E1    -3.926549640872164      -1.959245103943788E-1   -3.708734941429912E1    -1.925649636257251E-1   -3.704928555484946E1    -4.476089038978263E1    -2.873297305157765E1
 5.602790000000000E8    -4.930526955181919E1    -7.587797746391274E1    -1.980030624800890E-1   -5.177059727594590E1    -1.954393506207367E-1   -5.171785803096403E1    -4.282128809242293E1    -7.396569411939410E1
 5.802782500000000E8    -4.530811401363825E1    -1.083590882964106E2    -2.008558539050076E-1   -6.646237044016162E1    -1.976607734373126E-1   -6.640536025132299E1    -4.040878887018575E1    -1.020013096404914E2
 6.002775000000000E8    -4.286148121648374E1    -1.329224708720049E2    -2.030165110897444E-1   -8.113632487389620E1    -2.019454663024711E-1   -8.108048222132938E1    -3.864099120773793E1    -1.269268949255561E2
 6.202767500000000E8    -4.132531933008302E1    -1.574299404171440E2    -2.063837528001584E-1   -9.581629815046313E1    -2.025789237535183E-1   -9.576296686076285E1    -3.751638257047660E1    -1.473768156482093E2
 6.402760000000000E8    -4.082397042571304E1    -1.798830419087300E2    -2.090113675803687E-1   -1.104893892278288E2    -2.078495771533855E-1   -1.104381105874210E2    -3.669468579352804E1    -1.658284849082535E2
 6.602752500000000E8    -4.084591264233286E1     1.554716349657323E2    -2.132210544236354E-1   -1.251629877883602E2    -2.121396358662967E-1   -1.251110156722726E2    -3.624879480998541E1     1.767501102676851E2
 6.802745000000000E8    -4.133033588212450E1     1.321878225122562E2    -2.166798522922567E-1   -1.398404971153965E2    -2.143957481760654E-1   -1.397895564255063E2    -3.647479374201901E1     1.600434781028111E2
 7.002737500000000E8    -4.212822393654818E1     1.047764194039771E2    -2.178028358536878E-1   -1.545139997602249E2    -2.190916301103581E-1   -1.544720817020839E2    -3.711016642475008E1     1.437267604365713E2
 7.202730000000000E8    -4.285183141055909E1     7.630766719603798E1    -2.215243797942191E-1   -1.691885605630365E2    -2.186376635992269E-1   -1.691310480764509E2    -3.788084070000393E1     1.275736749823256E2
 7.402722500000000E8    -4.329558483410487E1     4.668385247193296E1    -2.232061997574150E-1    1.761375219935132E2    -2.223227217323670E-1    1.761907526955400E2    -3.948297987064714E1     1.109156558808310E2
 7.602715000000000E8    -4.347759304789778E1     1.355333436241035E1    -2.264188250002807E-1    1.614716407753346E2    -2.236428184880595E-1    1.615188192155052E2    -4.152916786702537E1     9.538859128952200E1
 7.802707500000000E8    -4.256694424428971E1    -1.602363266828647E1    -2.272154326805864E-1    1.467857177308996E2    -2.264870437535497E-1    1.468391447984282E2    -4.416353029031943E1     8.008992283331807E1
 8.002700000000000E8    -4.165750410168405E1    -4.538084526117159E1    -2.306107101369096E-1    1.320971520394622E2    -2.275356759033048E-1    1.321504298259603E2    -4.863699249398979E1     6.757012152382927E1
 8.202692500000000E8    -4.080778460702546E1    -6.867909200854817E1    -2.315271765015147E-1    1.174332855698861E2    -2.309245152585768E-1    1.174699249410422E2    -5.835658601552238E1     6.501218891673526E1
 8.402685000000000E8    -4.026422583254467E1    -9.156020188730675E1    -2.336056191444135E-1    1.027451653412111E2    -2.323320275308146E-1    1.027952973211065E2    -5.897088103611534E1    -1.607469989235342E2
 8.602677500000000E8    -3.980837289551383E1    -1.110074222230085E2    -2.348488704059035E-1    8.806733168111983E1    -2.340511724884015E-1    8.812766207604864E1    -5.048987633557489E1    -1.591976437938884E2
 8.802670000000000E8    -4.041543199419458E1    -1.316318100461970E2    -2.386969439286367E-1    7.337791963200404E1    -2.371134914333965E-1    7.344780434075905E1    -4.561140647512582E1    -1.688638185875197E2
 9.002662500000000E8    -4.107728412947307E1    -1.532307379894302E2    -2.425997383953507E-1    5.870359537579790E1    -2.405523981420695E-1    5.876343827555773E1    -4.295009470329254E1    -1.792425224612654E2
 9.202655000000000E8    -4.339780393347080E1    -1.766072987278096E2    -2.450557201994200E-1    4.402788382850041E1    -2.426561375339731E-1    4.409438928991924E1    -4.128318417838091E1     1.709328690469401E2
 9.402647500000000E8    -4.633039966391711E1     1.545726473919764E2    -2.474656797767919E-1    2.936217572207469E1    -2.464023513782215E-1    2.941443109137590E1    -4.025200421869930E1     1.602310410963712E2
 9.602640000000000E8    -4.993782268698219E1     1.081024622061448E2    -2.495369895577320E-1    1.468408940507731E1    -2.486239410284288E-1    1.474385014856760E1    -3.945649179963039E1     1.510574877595957E2
 9.802632500000000E8    -4.953815376225865E1     4.594164977779639E1    -2.513458787627790E-1    3.213753841402346E-3   -2.502155105083876E-1    6.876986760575785E-2   -3.913066860826911E1     1.388422323525365E2
 1.000262500000000E9    -4.633070540090560E1     8.791967090527939      -2.546004802581774E-1   -1.466343566072018E1    -2.546886985768750E-1   -1.460248699059550E1    -3.925366273789595E1     1.271283882352604E2
 1.020261750000000E9    -4.371700978736088E1    -1.993679513458335E1    -2.575297332915657E-1   -2.934135138520700E1    -2.560522928485353E-1   -2.926395926907743E1    -3.919470235958613E1     1.156330624507100E2
 1.040261000000000E9    -4.223766875763538E1    -4.312658282445164E1    -2.598801925242597E-1   -4.401229196671996E1    -2.579986600087590E-1   -4.395383507829514E1    -3.963823707951580E1     1.041230037451946E2
 1.060260250000000E9    -4.144734873352346E1    -6.190364455458771E1    -2.629391816324461E-1   -5.868315564870720E1    -2.613083015059164E-1   -5.862016717978387E1    -4.035383201331007E1     9.151543865832637E1
 1.080259500000000E9    -4.065064200980599E1    -7.571036848372589E1    -2.650505729463794E-1   -7.336333885688175E1    -2.650475257552242E-1   -7.329852187790417E1    -4.124137917117589E1     7.617149931931751E1
 1.100258750000000E9    -4.008266713034455E1    -9.281207335721098E1    -2.642429523081111E-1   -8.802652409573923E1    -2.657173496158966E-1   -8.797409963635889E1    -4.189100446037980E1     6.104365783089194E1
 1.120258000000000E9    -4.022082789445353E1    -1.089406163998988E2    -2.670828946685739E-1   -1.027211965662109E2    -2.647291635327497E-1   -1.026454461177678E2    -4.329417299435860E1     4.683713228046280E1
 1.140257250000000E9    -4.105784561186985E1    -1.258907679781537E2    -2.689086813773876E-1   -1.173918603850370E2    -2.697324634148304E-1   -1.173124160321900E2    -4.492084659273467E1     2.502613940690616E1
 1.160256500000000E9    -4.310391423840655E1    -1.443203740357605E2    -2.697257252166044E-1   -1.320549227241562E2    -2.698694843508239E-1   -1.319850592101543E2    -4.775165088013164E1     4.038965670851587
 1.180255750000000E9    -4.779932409251666E1    -1.600476845024421E2    -2.737017058395438E-1   -1.467402962153482E2    -2.703428455572731E-1   -1.466662499237262E2    -5.112275930367880E1    -4.098206206406270E1
 1.200255000000000E9    -6.226134155487574E1     1.640344068024881E2    -2.758965714182672E-1   -1.614211446601567E2    -2.729504811582422E-1   -1.613422256565387E2    -5.045323831924921E1    -1.061002022748136E2
 1.220254250000000E9    -5.220834633420496E1    -6.851686306882223E-1   -2.782334957648790E-1   -1.760936322641889E2    -2.762805116568657E-1   -1.760128941247191E2    -4.565505668996148E1    -1.458309580908766E2
 1.240253500000000E9    -4.477093853372409E1    -1.946059942520490E1    -2.796706423962974E-1    1.692369452614903E2    -2.784925813424346E-1    1.693091700857216E2    -4.283039876647931E1    -1.726516031357099E2
 1.260252750000000E9    -4.099093445799924E1    -3.166424602767471E1    -2.804023493890914E-1    1.545734985555289E2    -2.781308774905602E-1    1.546447197763758E2    -4.098572493977186E1     1.668929831374079E2
 1.280252000000000E9    -3.900218373605157E1    -4.250045295606248E1    -2.834479259286660E-1    1.398865239905333E2    -2.825809111592667E-1    1.399619755924251E2    -3.959040625778282E1     1.466635685973751E2
 1.300251250000000E9    -3.789605460835115E1    -5.383189755792715E1    -2.857244374927205E-1    1.252071682609288E2    -2.837570796768316E-1    1.252851603312988E2    -3.860841661698273E1     1.255845040181589E2
 1.320250500000000E9    -3.700005000075883E1    -6.366224620750641E1    -2.875779876294408E-1    1.105481757038078E2    -2.862017623445123E-1    1.106172146274093E2    -3.831659429333046E1     1.074159305927094E2
 1.340249750000000E9    -3.671310337541620E1    -7.269998292645070E1    -2.920558570834522E-1    9.587417006766928E1    -2.874597194093747E-1    9.594001760826255E1    -3.804579400967558E1     8.749268489046305E1
 1.360249000000000E9    -3.667240422794598E1    -8.294486411574138E1    -2.910852532531975E-1    8.120590930078734E1    -2.901724159838750E-1    8.127600775654420E1    -3.809402126223065E1     6.531639258505028E1
 1.380248250000000E9    -3.704890188339937E1    -9.221994153925247E1    -2.931626526600569E-1    6.652703997855699E1    -2.911572037803842E-1    6.659177485499886E1    -3.817226963639658E1     4.366806323846516E1
 1.400247500000000E9    -3.810305719355351E1    -9.948717768627229E1    -2.945852302246644E-1    5.184682068196543E1    -2.936268444695857E-1    5.192287979282061E1    -3.883600139344826E1     2.243723708253720E1
 1.420246750000000E9    -3.951266346294786E1    -1.054753959609783E2    -2.975705383837798E-1    3.717716864182880E1    -2.945858684042995E-1    3.725149974444462E1    -3.977144167718245E1    -1.306676807251703
 1.440246000000000E9    -4.150646931642748E1    -1.004839207224991E2    -2.980199111537792E-1    2.250715419153144E1    -2.964241747843860E-1    2.258011770047417E1    -4.110613293520043E1    -2.936653586292411E1
 1.460245250000000E9    -4.253334607572343E1    -8.597586987352712E1    -3.007281813911923E-1    7.833383103743497      -2.991185660170017E-1    7.901950434188657      -4.259180709988887E1    -6.844093500634567E1
 1.480244500000000E9    -4.147899424036013E1    -6.861656256840631E1    -3.024381253901189E-1   -6.848267471901020      -3.007364605536693E-1   -6.767353601711412      -4.291902396512052E1    -1.123732725277947E2
 1.500243750000000E9    -3.935286062014033E1    -6.321543071949163E1    -3.039637033767749E-1   -2.151534749108651E1    -3.038622020881207E-1   -2.144579934188403E1    -4.135410390408535E1    -1.504022508801936E2
 1.520243000000000E9    -3.733826799002439E1    -6.345156058461555E1    -3.049645959498761E-1   -3.618875065918083E1    -3.041680256326831E-1   -3.611746027634909E1    -3.962733461398868E1     1.783847192681071E2
 1.540242250000000E9    -3.599094041956111E1    -6.639930064933137E1    -3.060348981875966E-1   -5.084377133466418E1    -3.077830351725404E-1   -5.077866803266953E1    -3.814947409352720E1     1.498301231774903E2
 1.560241500000000E9    -3.479748501890684E1    -7.189981156519222E1    -3.085510101006239E-1   -6.553131151113009E1    -3.090919662820505E-1   -6.544964631877437E1    -3.711255281602539E1     1.239943538085723E2
 1.580240750000000E9    -3.422889701669975E1    -7.852207627860534E1    -3.108296519108233E-1   -8.020755976045854E1    -3.109182396979630E-1   -8.012588407096895E1    -3.615313649715310E1     1.012270642708463E2
 1.600240000000000E9    -3.383855709563302E1    -8.451632844442177E1    -3.137603756806747E-1   -9.488497193134509E1    -3.140166992399882E-1   -9.481327555540149E1    -3.556081518003564E1     7.609023473070714E1
 1.620239250000000E9    -3.371926149438325E1    -9.026884576144302E1    -3.150716376791073E-1   -1.095582674740983E2    -3.148708240454001E-1   -1.094797471518990E2    -3.511759584983854E1     5.233354561490735E1
 1.640238500000000E9    -3.377088535717763E1    -9.632618251283530E1    -3.181046363653597E-1   -1.242303868602145E2    -3.171627881414177E-1   -1.241521423097297E2    -3.464303494761020E1     2.757313360446275E1
 1.660237750000000E9    -3.405542105118882E1    -1.003366631074660E2    -3.205435258730234E-1   -1.388945050415757E2    -3.183192395993006E-1   -1.388196575456959E2    -3.452306949675027E1     3.777852692716976
 1.680237000000000E9    -3.458455708421896E1    -1.035760859821710E2    -3.214568351117340E-1   -1.535538053751470E2    -3.198414322754150E-1   -1.534827544447909E2    -3.474016868857115E1    -2.165410826290325E1
 1.700236250000000E9    -3.527479636135990E1    -1.032017411960261E2    -3.230219782624347E-1   -1.682216163757633E2    -3.210517958167866E-1   -1.681549743447076E2    -3.526650378028165E1    -4.715147356753410E1
 1.720235500000000E9    -3.581353849874121E1    -1.008931250890057E2    -3.248296193994415E-1    1.770994030723596E2    -3.222802669793262E-1    1.771672531189958E2    -3.556409559267673E1    -7.741328006180881E1
 1.740234750000000E9    -3.551132767240401E1    -9.748585681493667E1    -3.257110443261768E-1    1.624319404469839E2    -3.255821728574116E-1    1.624906963577394E2    -3.573627620412981E1    -1.094806612015622E2
 1.760234000000000E9    -3.500191065770591E1    -9.416220588477977E1    -3.273013250261910E-1    1.477498359607278E2    -3.254901592727274E-1    1.478138174930397E2    -3.549189912920181E1    -1.403945646731722E2
 1.780233250000000E9    -3.450799498433150E1    -9.355612337485630E1    -3.301278753395509E-1    1.330688820509169E2    -3.284580920042682E-1    1.331424199959014E2    -3.504280006312480E1    -1.714044418103290E2
 1.800232500000000E9    -3.402392518876987E1    -9.427339298562961E1    -3.313845358495414E-1    1.183924621591474E2    -3.301309103854143E-1    1.184664150847862E2    -3.439046707869605E1     1.594330502794641E2
