#  HZ   S   DB   R     50.00 
! Rohde & Schwarz Vector Network Analyzer 
! Rohde-Schwarz,ZNB8-4Port,1311601044101761,1.95
! Created: UTC 2/26/2014, 9:18:24 AM
! freq[Hz]                db:S11                  ang:S11                 db:S21                  ang:S21                 db:S12                  ang:S12                 db:S22                  ang:S22
 3.000000000000000E5    -4.192098921412536E1     1.035864021804817E2     2.694319416403133E-2   -2.915600193552279E-1    2.759761864575156E-2   -2.974539283211368E-1   -4.374599986191324E1     8.600585234872776E1
 2.029925000000000E7    -5.701148534091271E1    -9.018520254512275E1    -1.690022463324244E-2   -3.408953912270774E-1   -1.719494628983302E-2   -3.357710838831763E-1   -4.460975973100985E1     1.906557259078886E1
 4.029850000000000E7    -4.988325107840325E1    -1.021651219823907E2    -1.774427766097068E-2   -6.292294821605778E-1   -1.368057334182490E-2   -5.821040060828780E-1   -4.289663587332314E1     8.868431765010842
 6.029775000000000E7    -5.098662195836813E1    -1.018590797275122E2    -2.299100758730995E-2   -9.124382168969550E-1   -1.803988713317806E-2   -8.900769357440332E-1   -4.120761599813244E1     1.431724297989362
 8.029700000000000E7    -5.450586669338973E1    -9.034639009305452E1    -2.880387436763056E-2   -1.209323664172730      -2.282329666594013E-2   -1.195368915229056      -4.015194861402108E1     3.560696561289733
 1.002962500000000E8    -5.759009485435626E1    -9.488987027819566E1    -2.829302601651400E-2   -1.518683377247243      -2.547932087319075E-2   -1.496491797927691      -3.976111596862594E1     5.371432850136468
 1.202955000000000E8    -5.969177453326522E1    -8.368392036100093E1    -3.011546034849113E-2   -1.804457820512790      -2.833919489079628E-2   -1.770039672597261      -3.982372577729618E1     6.434744700591359
 1.402947500000000E8    -6.027045849274963E1    -1.273868407414667E2    -2.850494980286852E-2   -2.079424573777869      -2.553880395960570E-2   -2.055649844454694      -4.032994238313290E1     6.706511284996759
 1.602940000000000E8    -6.100234900410621E1    -1.656878640916104E2    -2.843242102158007E-2   -2.383605402120603      -2.625427334487817E-2   -2.357013768876725      -4.071890702016742E1     7.046564664923382
 1.802932500000000E8    -6.252612248565499E1    -1.721684676028150E2    -2.751870640157720E-2   -2.679569901948053      -2.722489153724050E-2   -2.669659659258942      -4.089706341255537E1     9.186637586262000
 2.002925000000000E8    -6.469611381040826E1     1.597502187126130E2    -3.049484702784119E-2   -2.992505800729284      -2.525477971436511E-2   -2.972646390803080      -4.120500658056513E1     1.241059490208141E1
 2.202917500000000E8    -7.211429939436981E1    -1.401137523632865E2    -2.984151378619486E-2   -3.296433332558730      -2.646032681658194E-2   -3.276515982305871      -4.133298562891171E1     1.066983213847170E1
 2.402910000000000E8    -6.517754191028344E1    -1.283864320415620E2    -2.880179034795524E-2   -3.623767979430638      -2.750954541575131E-2   -3.592873889840268      -4.216800106963140E1     9.593537535089720
 2.602902500000000E8    -6.663385435092030E1    -1.134950090301591E2    -2.809237826895716E-2   -3.937134558750786      -2.559647653433406E-2   -3.895709680844149      -4.258067587258272E1     1.007447040417891E1
 2.802895000000000E8    -6.730662909787064E1    -1.386711304819845E2    -2.728506160600152E-2   -4.240642220105233      -2.343686163087684E-2   -4.195695873338688      -4.268542301360614E1     1.057194940263678E1
 3.002887500000000E8    -6.885630854396155E1    -9.727795098509493E1    -2.673391588162580E-2   -4.531856127699919      -2.337523282646387E-2   -4.486794195015966      -4.315554894145645E1     1.024265668718646E1
 3.202880000000000E8    -6.493648368883736E1    -8.169993887362276E1    -2.708901419440266E-2   -4.837346359369901      -2.385967596469036E-2   -4.795864468935756      -4.345026670881070E1     1.026158601164578E1
 3.402872500000000E8    -6.487929694439558E1    -8.563949022783068E1    -2.612749466111427E-2   -5.158982880959445      -2.376122892798425E-2   -5.108102394736214      -4.378307750842051E1     1.112118665897843E1
 3.602865000000000E8    -6.242137626346606E1    -1.203776462942684E2    -2.733367866333814E-2   -5.470723111066254      -2.387842799080264E-2   -5.410153107288340      -4.450472367003367E1     1.289258708920606E1
 3.802857500000000E8    -6.217656889077784E1    -1.231547591168114E2    -2.694000592835460E-2   -5.763807441561884      -2.391057457873422E-2   -5.706879346981177      -4.563994806845013E1     1.524909436942553E1
 4.002850000000000E8    -5.964029363398119E1    -1.260271350315047E2    -2.546308889434417E-2   -6.060075860669878      -2.175257624586422E-2   -6.011647643633853      -4.609716631356784E1     1.548282326821466E1
 4.202842500000000E8    -6.335267647499922E1    -1.231760142183457E2    -2.683159011708516E-2   -6.362285664073458      -2.395024519313826E-2   -6.309350726155113      -4.681828217605259E1     2.309295458767456E1
 4.402835000000000E8    -6.516045122722734E1    -9.381229957348228E1    -2.814045886735854E-2   -6.655468024736958      -2.490468891114965E-2   -6.616719423634430      -4.791057596140430E1     2.481504248414196E1
 4.602827500000000E8    -6.269848338282736E1    -5.254713740651546E1    -2.631489594949750E-2   -6.960644813304296      -2.408863907225301E-2   -6.923480074446642      -4.840455377320876E1     3.164295509355770E1
 4.802820000000000E8    -6.573385985074928E1    -4.654753474600729E1    -2.653937798178577E-2   -7.280940246633895      -2.476998829967268E-2   -7.232943614775381      -4.968360960681743E1     3.803441577742544E1
 5.002812500000000E8    -6.464833260190459E1    -6.473092583117651E1    -2.608000550678724E-2   -7.586341250769303      -2.457969959757927E-2   -7.545516553068797      -5.073928391069472E1     4.774408215011706E1
 5.202805000000000E8    -6.274741948155044E1    -6.534962372385863E1    -2.564343925282559E-2   -7.905508574770273      -2.449705742279367E-2   -7.851764072008897      -5.216550799651191E1     5.218090945489661E1
 5.402797500000000E8    -6.009641710401866E1    -7.033851532331022E1    -2.844513471597518E-2   -8.207143589604613      -2.581091925411592E-2   -8.167666714632171      -5.149171342497412E1     6.199096238273291E1
 5.602790000000000E8    -5.801513822484991E1    -7.918603472586867E1    -2.781630056617642E-2   -8.512862615063591      -2.430048688471818E-2   -8.456006996511702      -5.337315730950120E1     7.576887122124492E1
 5.802782500000000E8    -5.895610112207748E1    -5.940003937597103E1    -2.767723906815806E-2   -8.817720122013672      -2.418847286927428E-2   -8.760396964632651      -5.232234986036473E1     8.478317979393371E1
 6.002775000000000E8    -5.988947077179360E1    -5.278904010716131E1    -2.810282007109178E-2   -9.120315188577369      -2.531718931298148E-2   -9.064170443198732      -5.185065090110086E1     9.457432107955258E1
 6.202767500000000E8    -5.742880786981493E1    -5.513837899753322E1    -2.836077546025453E-2   -9.421420335090986      -2.492495456462824E-2   -9.369199542216858      -5.127147114974189E1     1.094231218219258E2
 6.402760000000000E8    -5.565643608888748E1    -6.019181848540738E1    -2.756880017866535E-2   -9.716086742139048      -2.557644486453063E-2   -9.666513048954810      -5.043998858611602E1     1.191586511615213E2
 6.602752500000000E8    -5.353280832029491E1    -6.120845405219563E1    -2.832470692021580E-2   -1.001261972582422E1    -2.623741820897609E-2   -9.971308404611735      -4.991792856932633E1     1.226789676616710E2
 6.802745000000000E8    -5.330938284681039E1    -6.038276156218371E1    -3.013961418104999E-2   -1.033391527258317E1    -2.677709218941881E-2   -1.028110521299480E1    -4.921551659672277E1     1.328983669553397E2
 7.002737500000000E8    -5.285462322806119E1    -5.808745712580288E1    -3.091213307720295E-2   -1.063723479058222E1    -2.751209579888957E-2   -1.058090853639390E1    -4.920156466405288E1     1.400379835768072E2
 7.202730000000000E8    -5.292181010231874E1    -5.677605157500334E1    -2.985217443482943E-2   -1.092327766843660E1    -2.579054956309077E-2   -1.087868259795972E1    -4.851693945849944E1     1.415699900260175E2
 7.402722500000000E8    -5.395643772644802E1    -5.883189841902175E1    -3.008432589609290E-2   -1.123026912635285E1    -2.646720340467866E-2   -1.118317417204195E1    -4.849223591982682E1     1.474038663913439E2
 7.602715000000000E8    -5.329756578610283E1    -6.661945378762556E1    -2.944399314553099E-2   -1.152244700316949E1    -2.546493301757236E-2   -1.148848411004497E1    -4.818118930919047E1     1.506234445263340E2
 7.802707500000000E8    -5.414086274391345E1    -6.421620134800972E1    -2.864852659576030E-2   -1.182108304503723E1    -2.564063897196891E-2   -1.177778292395773E1    -4.717215536259809E1     1.524372821185485E2
 8.002700000000000E8    -5.250507050249748E1    -7.031946790081571E1    -2.955215115326208E-2   -1.213902619694799E1    -2.660782154535850E-2   -1.210027312275278E1    -4.652795336504144E1     1.567938508452464E2
 8.202692500000000E8    -5.168865114979418E1    -7.447921021575071E1    -2.930243085062077E-2   -1.244353872882312E1    -2.668149653376574E-2   -1.241007809617224E1    -4.596869763409021E1     1.610628532060413E2
 8.402685000000000E8    -5.056149147189781E1    -7.203231608914484E1    -2.937603171122591E-2   -1.275619785758504E1    -2.595452920411088E-2   -1.270900689062791E1    -4.526073578154816E1     1.642091249472557E2
 8.602677500000000E8    -5.079791131612297E1    -6.022331211622066E1    -2.907049746286687E-2   -1.306129186121110E1    -2.568009610615821E-2   -1.300849787825333E1    -4.439102053016078E1     1.653504966111930E2
 8.802670000000000E8    -4.952429818224814E1    -6.109123408058551E1    -2.937526166042995E-2   -1.338169956121724E1    -2.610833669023215E-2   -1.331781030520854E1    -4.364967263433319E1     1.650947275397008E2
 9.002662500000000E8    -4.977934153532633E1    -5.294864527673395E1    -3.065159749611135E-2   -1.367222567258880E1    -2.590535478430419E-2   -1.363236313231711E1    -4.333563469753547E1     1.668261207665972E2
 9.202655000000000E8    -4.926486648092330E1    -6.031058104594224E1    -2.923178134916172E-2   -1.397510530714533E1    -2.716529921910026E-2   -1.392890828495456E1    -4.294298048073796E1     1.696784525624790E2
 9.402647500000000E8    -4.919796151925471E1    -6.010349523234647E1    -2.959450793757480E-2   -1.427938670647001E1    -2.730981125708104E-2   -1.421963151971530E1    -4.291833445492400E1     1.722742659759889E2
 9.602640000000000E8    -4.914453859844148E1    -6.047950000950631E1    -2.937218140325675E-2   -1.457989852378665E1    -2.855168514625695E-2   -1.453386079247756E1    -4.272153572890212E1     1.729111877171688E2
 9.802632500000000E8    -4.946281367199538E1    -6.214042106150063E1    -2.888152153773577E-2   -1.489231272230893E1    -2.632532828722658E-2   -1.483419007323978E1    -4.292805228671836E1     1.731251524356434E2
 1.000262500000000E9    -5.044933422665608E1    -6.038128570320136E1    -2.893135401534150E-2   -1.518757010350548E1    -2.839626945434151E-2   -1.513623407384792E1    -4.296380378899318E1     1.749696993467831E2
 1.020261750000000E9    -4.964045940475964E1    -6.413565678851832E1    -2.995626762408845E-2   -1.549218740667067E1    -2.875706903217905E-2   -1.543842280995380E1    -4.271941405558913E1     1.753880801944181E2
 1.040261000000000E9    -4.934835710029864E1    -6.991500279316369E1    -2.994716057471539E-2   -1.579408250177207E1    -2.814302074764215E-2   -1.574697136365576E1    -4.262349634205924E1     1.774434440345486E2
 1.060260250000000E9    -4.886250587494303E1    -7.748356390708054E1    -3.071791975305784E-2   -1.609262913916966E1    -2.802854453525859E-2   -1.604115700487271E1    -4.257764541761653E1     1.791641000587370E2
 1.080259500000000E9    -4.953115146297611E1    -8.312707065907493E1    -3.143549574211876E-2   -1.640085568427644E1    -2.946962850672770E-2   -1.635797260978849E1    -4.261608626519912E1    -1.787035105636327E2
 1.100258750000000E9    -4.904618152408957E1    -7.523495369706961E1    -2.974238933629192E-2   -1.670474252740484E1    -2.932996057906135E-2   -1.666687817232357E1    -4.217207006245920E1    -1.760744522350077E2
 1.120258000000000E9    -4.931595242314612E1    -7.275972341521779E1    -3.046850247107187E-2   -1.700770218793678E1    -2.749622078308318E-2   -1.695968645533156E1    -4.237688739206846E1    -1.716433088140122E2
 1.140257250000000E9    -4.934122595342306E1    -6.869168456779744E1    -2.802530873619848E-2   -1.731926693719622E1    -2.887885576653294E-2   -1.725593021231130E1    -4.205416246837628E1    -1.712121756539093E2
 1.160256500000000E9    -4.915575064819556E1    -6.842969732968876E1    -2.841212263087093E-2   -1.761660073810392E1    -2.721233413866495E-2   -1.755636901439981E1    -4.194850674452073E1    -1.681642673904189E2
 1.180255750000000E9    -4.801083375135356E1    -7.357312508294223E1    -2.994047439779296E-2   -1.793365248131502E1    -2.719908052818018E-2   -1.786591688844907E1    -4.148854555683376E1    -1.674021973142965E2
 1.200255000000000E9    -4.697308717047910E1    -7.530944062114456E1    -2.984509475697601E-2   -1.822923278256974E1    -2.740528724071986E-2   -1.816831299645893E1    -4.135929400867188E1    -1.654150879862908E2
 1.220254250000000E9    -4.715085624733944E1    -7.758733379825659E1    -2.965242965157650E-2   -1.853310693037474E1    -2.824502921407418E-2   -1.846737212631516E1    -4.109414607979232E1    -1.620950968876979E2
 1.240253500000000E9    -4.651340520964733E1    -8.138279797911119E1    -2.898352698574530E-2   -1.883252894738287E1    -2.793848400603755E-2   -1.877493520535543E1    -4.134716236340996E1    -1.612444932058499E2
 1.260252750000000E9    -4.629230318491743E1    -7.974020036671834E1    -2.736366092478579E-2   -1.914591760800816E1    -2.596477242285086E-2   -1.907440162501864E1    -4.170748073468782E1    -1.592715749677575E2
 1.280252000000000E9    -4.631617588948315E1    -8.014438402782656E1    -2.713141368470202E-2   -1.943404379379598E1    -2.774473922291642E-2   -1.937814532319654E1    -4.169929967393929E1    -1.576493714787559E2
 1.300251250000000E9    -4.610697936677329E1    -8.405926844513267E1    -2.822608735883544E-2   -1.975437737508979E1    -2.746544559109133E-2   -1.968119116222317E1    -4.170947928798100E1    -1.584947144888710E2
 1.320250500000000E9    -4.667122391484390E1    -8.195010172222033E1    -2.838428761649919E-2   -2.005169091652727E1    -2.740594029628590E-2   -1.999143546256219E1    -4.217256468514407E1    -1.548173063088544E2
 1.340249750000000E9    -4.698585107446677E1    -8.470953814778956E1    -2.942190405495355E-2   -2.034759972287816E1    -2.765450682584905E-2   -2.029132990800807E1    -4.205830469648746E1    -1.529120337552841E2
 1.360249000000000E9    -4.710848655676631E1    -8.359225165803889E1    -2.771625625279862E-2   -2.065104067464356E1    -2.735390656046677E-2   -2.060107824070413E1    -4.216141552171655E1    -1.498325224845409E2
 1.380248250000000E9    -4.787325469951769E1    -8.181464681316948E1    -2.883787041707938E-2   -2.096442888881379E1    -2.531609153169118E-2   -2.090524245816297E1    -4.206957420032072E1    -1.462542933702368E2
 1.400247500000000E9    -4.796177213519221E1    -8.524042951101295E1    -2.833012929527486E-2   -2.126007149301682E1    -2.482779401991021E-2   -2.120831695397441E1    -4.237524891182443E1    -1.432809361104249E2
 1.420246750000000E9    -4.831456007468159E1    -8.774219457927049E1    -2.836193505007380E-2   -2.157613166639622E1    -2.461680818375133E-2   -2.150818015089602E1    -4.220400969783502E1    -1.431046216552205E2
 1.440246000000000E9    -4.733222662641438E1    -9.221386935864976E1    -2.788846517121366E-2   -2.187654969598998E1    -2.643646822367049E-2   -2.181811593931743E1    -4.191130110376512E1    -1.375324447044860E2
 1.460245250000000E9    -4.649692308327300E1    -9.661130525929957E1    -2.809287377465139E-2   -2.217756585353930E1    -2.812982421095220E-2   -2.212294286975352E1    -4.159969099549964E1    -1.380454708956117E2
 1.480244500000000E9    -4.579579899104091E1    -9.618475611874327E1    -2.871412599900602E-2   -2.247748334185341E1    -2.682996290897135E-2   -2.241786951292280E1    -4.174721087406461E1    -1.349118443811126E2
 1.500243750000000E9    -4.533411723348772E1    -9.800933497111764E1    -3.035170969280130E-2   -2.278380139566297E1    -2.774150292987177E-2   -2.273378877736500E1    -4.165344294423428E1    -1.310731028075084E2
 1.520243000000000E9    -4.518150715660845E1    -9.675998072752492E1    -2.962085561152282E-2   -2.308554305610599E1    -2.595376845837850E-2   -2.303170860055007E1    -4.156603574599828E1    -1.272166871690743E2
 1.540242250000000E9    -4.574210574639815E1    -9.867546803979478E1    -2.862674715935000E-2   -2.337123956205205E1    -2.671173939222414E-2   -2.331938004815593E1    -4.163318051627322E1    -1.254962132009125E2
 1.560241500000000E9    -4.574134919371770E1    -9.606288101625593E1    -2.765957250859268E-2   -2.368903860653391E1    -2.612900636403501E-2   -2.362698880454885E1    -4.189066933174456E1    -1.216743965101021E2
 1.580240750000000E9    -4.524589212765598E1    -9.946969169492380E1    -2.787518143812832E-2   -2.400264734284746E1    -2.695816727218440E-2   -2.393905160534149E1    -4.166288767284080E1    -1.174894203009498E2
 1.600240000000000E9    -4.542590316980194E1    -1.021386523548342E2    -2.873809201915907E-2   -2.430756278977499E1    -2.720861177056875E-2   -2.425948107033543E1    -4.177133058834139E1    -1.169675849009582E2
 1.620239250000000E9    -4.507126831208724E1    -1.029968564462357E2    -2.925245369090924E-2   -2.461649364309121E1    -2.695044860981339E-2   -2.455808501055612E1    -4.175165471092634E1    -1.145966524726045E2
 1.640238500000000E9    -4.518200415012882E1    -1.028753757356458E2    -2.918450323601739E-2   -2.492276424034462E1    -2.703187711402261E-2   -2.486111647225633E1    -4.134871419690015E1    -1.128192368712596E2
 1.660237750000000E9    -4.538993730917166E1    -1.048819424768330E2    -3.076981568410508E-2   -2.522607168225006E1    -2.719630258824403E-2   -2.516176603987161E1    -4.122334746390813E1    -1.096929042304837E2
 1.680237000000000E9    -4.533410540037973E1    -1.043969999278737E2    -2.977154668027890E-2   -2.551129034039180E1    -2.687572853812929E-2   -2.546325468828410E1    -4.138780671488868E1    -1.082329342252613E2
 1.700236250000000E9    -4.474106386550960E1    -1.028189546618237E2    -3.015930547750913E-2   -2.581385646502164E1    -2.608562148787161E-2   -2.576188273363017E1    -4.139046713613027E1    -1.042217049250763E2
 1.720235500000000E9    -4.491723414572016E1    -1.010625420999662E2    -2.880287947687205E-2   -2.612381862903962E1    -2.596115796156378E-2   -2.607121265042145E1    -4.107278427314705E1    -1.056673872416341E2
 1.740234750000000E9    -4.408629349924341E1    -1.051695621190253E2    -2.903018325238975E-2   -2.641741374472532E1    -2.696217674696555E-2   -2.638434173467154E1    -4.098759980504784E1    -1.049190723818292E2
 1.760234000000000E9    -4.386782623163856E1    -1.029049013822630E2    -2.901343268608209E-2   -2.673363157812800E1    -2.646103120834553E-2   -2.668782947410038E1    -4.079058048134782E1    -1.020796763504857E2
 1.780233250000000E9    -4.384875578411675E1    -1.061032893910665E2    -2.935932673708040E-2   -2.704390304974321E1    -2.581237056491426E-2   -2.699121994510188E1    -4.079624508568796E1    -1.007689749623308E2
 1.800232500000000E9    -4.381077146878713E1    -1.065296982475848E2    -2.942993345826925E-2   -2.735613972279669E1    -2.628897864778116E-2   -2.730051022278995E1    -4.066306820603654E1    -1.013428007051830E2
