! RsaToolbox (C) 2015 Rohde & Schwarz America
! 
! Number of points: 91
! Number of ports: 2
! Balanced ports?: No
! 
! 
# Hz S RI R 50
500000000         0.9918902963      -0.007336425541   0.6965832058      -0.1918886301     0.6965832058      -0.1918886301     0.004306265649    0.0004910638618   
550000000         0.9896621033      -0.001607424092   0.6912864048      -0.2103015324     0.6912864048      -0.2103015324     0.0045313124      -0.0006040187417  
600000000         0.9843721119      -0.002827081435   0.6851340994      -0.228631414      0.6851340994      -0.228631414      0.004499844881    -0.0004861530017  
650000000         0.9830229882      -0.00849246022    0.6787240176      -0.2466930793     0.6787240176      -0.2466930793     0.004530762396    -0.0003723127507  
700000000         0.988141203       -0.01168058119    0.6718212359      -0.2645972194     0.6718212359      -0.2645972194     0.005115551114    -0.000966229193   
750000000         0.9911678693      -0.0080726355     0.6644170125      -0.2824642887     0.6644170125      -0.2824642887     0.004875074672    -0.0004101965197  
800000000         0.9890471702      -0.003414444092   0.656654851       -0.2999114421     0.656654851       -0.2999114421     0.005123486366    -0.001071675895   
850000000         0.9843291732      -0.005326921948   0.6483997806      -0.3172982976     0.6483997806      -0.3172982976     0.005115938734    -0.0007425820363  
900000000         0.9855057005      -0.01174939136    0.6395553023      -0.3343589066     0.6395553023      -0.3343589066     0.005288412085    -0.0009994882751  
950000000         0.9908039009      -0.01305355213    0.6303432921      -0.3511823939     0.6303432921      -0.3511823939     0.004762562845    -0.001271767028   
1000000000        0.9941076712      -0.007694474016   0.6208252341      -0.3676927573     0.6208252341      -0.3676927573     0.005345329796    -0.001017260781   
1050000000        0.9899479859      -0.002908246559   0.6108365564      -0.3839685852     0.6108365564      -0.3839685852     0.005449239742    -0.001289204465   
1100000000        0.9833657127      -0.005730728892   0.6001865393      -0.4002062044     0.6001865393      -0.4002062044     0.004686732905    -0.001707482764   
1150000000        0.9845380734      -0.01389162367    0.5892204587      -0.416121946      0.5892204587      -0.416121946      0.005489941348    -0.0014207242     
1200000000        0.9924365973      -0.01536910947    0.5777370507      -0.4315460563     0.5777370507      -0.4315460563     0.004814072147    -0.001815048952   
1250000000        0.9966746413      -0.009084639789   0.5660807252      -0.4467385783     0.5660807252      -0.4467385783     0.005481405495    -0.0014572416     
1300000000        0.9915992226      -0.003036163437   0.5540442024      -0.4613723009     0.5540442024      -0.4613723009     0.005419942885    -0.002155014772   
1350000000        0.984025655       -0.006612728485   0.5415165333      -0.4759439938     0.5415165333      -0.4759439938     0.005089701413    -0.00175269579    
1400000000        0.9851867591      -0.01560919001    0.5286521609      -0.4900716966     0.5286521609      -0.4900716966     0.004416629363    -0.00162255441    
1450000000        0.9944930615      -0.01821426848    0.5155263199      -0.5039777997     0.5155263199      -0.5039777997     0.004458484991    -0.002877962609   
1500000000        0.9999815777      -0.01002993255    0.5019195681      -0.5172448171     0.5019195681      -0.5172448171     0.004615009371    -0.002527310813   
1550000000        0.9947210977      -0.002307417641   0.4879429315      -0.5303973725     0.4879429315      -0.5303973725     0.005689733576    -0.003416231964   
1600000000        0.9853297669      -0.005065877048   0.4735904258      -0.5432272897     0.4735904258      -0.5432272897     0.005184031045    -0.00320189677    
1650000000        0.9847797862      -0.01589005836    0.4590152452      -0.5556347409     0.4590152452      -0.5556347409     0.004938096081    -0.003550220983   
1700000000        0.9954724494      -0.0204081838     0.4440238166      -0.5675325458     0.4440238166      -0.5675325458     0.004973602058    -0.003890658399   
1750000000        1.003949091       -0.01234698663    0.4287343414      -0.5791630637     0.4287343414      -0.5791630637     0.004646710063    -0.004582468636   
1800000000        0.9995004359      -0.000490271634   0.413250694       -0.5903338548     0.413250694       -0.5903338548     0.005303827663    -0.004066100377   
1850000000        0.9857789981      -0.0005693299481  0.3974445933      -0.6010390618     0.3974445933      -0.6010390618     0.004047716819    -0.003960824253   
1900000000        0.9807135472      -0.01435773261    0.3813614634      -0.6112547159     0.3813614634      -0.6112547159     0.005508138226    -0.004895713389   
1950000000        0.9920014915      -0.02442342177    0.3646791419      -0.6212659318     0.3646791419      -0.6212659318     0.004663335798    -0.004757401464   
2000000000        1.006054099       -0.01806015906    0.3478644068      -0.6306623912     0.3478644068      -0.6306623912     0.004542334187    -0.005257476991   
2050000000        1.00498407        -0.002599780842   0.3308769511      -0.6398314956     0.3308769511      -0.6398314956     0.004081913987    -0.005661414515   
2100000000        0.9898241299      0.001474071711    0.3140433933      -0.6482044441     0.3140433933      -0.6482044441     0.004132874132    -0.006454460661   
2150000000        0.9807911414      -0.01267569699    0.2968806253      -0.6561608875     0.2968806253      -0.6561608875     0.005225282104    -0.006057013935   
2200000000        0.9915479944      -0.0267215881     0.2791770622      -0.6637627224     0.2791770622      -0.6637627224     0.004133605905    -0.006516565584   
2250000000        1.009358193       -0.02192673187    0.2611749515      -0.6710861083     0.2611749515      -0.6710861083     0.004066048791    -0.00593859786    
2300000000        1.01119593        -0.002562599324   0.2434014051      -0.6775298246     0.2434014051      -0.6775298246     0.004358669808    -0.006485581128   
2350000000        0.9919025523      0.005493201982    0.2251520649      -0.6838426287     0.2251520649      -0.6838426287     0.003248510732    -0.007186699534   
2400000000        0.9770525195      -0.01137446254    0.2069044091      -0.6894929765     0.2069044091      -0.6894929765     0.003365765203    -0.00728927664    
2450000000        0.9881960591      -0.03296629374    0.1882897019      -0.6948127082     0.1882897019      -0.6948127082     0.002340996353    -0.007590146462   
2500000000        1.014462348       -0.03139739558    0.1697036448      -0.6994947682     0.1697036448      -0.6994947682     0.002616302232    -0.006157466586   
2550000000        1.023175565       -0.005705610183   0.1513122248      -0.7037286625     0.1513122248      -0.7037286625     0.001458765513    -0.007631210141   
2600000000        1.001414896       0.01117637481     0.1326757494      -0.7073420237     0.1326757494      -0.7073420237     0.002864865705    -0.00635622335    
2650000000        0.9776539021      -0.004219259393   0.1136300739      -0.7106456271     0.1136300739      -0.7106456271     0.001373007133    -0.007119145229   
2700000000        0.9843028384      -0.03298608448    0.09467786458     -0.7133368814     0.09467786458     -0.7133368814     0.00136923203     -0.006510945029   
2750000000        1.01477569        -0.03777931644    0.0756371206      -0.7155798774     0.0756371206      -0.7155798774     0.0005540452591   -0.007118778793   
2800000000        1.02996743        -0.009923998831   0.05672860408     -0.7172923974     0.05672860408     -0.7172923974     0.0004434632002   -0.006333113651   
2850000000        1.007854942       0.01358249028     0.03749434491     -0.7185421326     0.03749434491     -0.7185421326     0.0001941722356   -0.006685941108   
2900000000        0.9769994774      -0.001203151643   0.01860800391     -0.7190720178     0.01860800391     -0.7190720178     -0.0002529067331  -0.006878175884   
2950000000        0.9805631569      -0.03766207907    -0.0005679077782  -0.7193632889     -0.0005679077782  -0.7193632889     -0.0009925008126  -0.006143404036   
3000000000        1.018326901       -0.04878285364    -0.01985362638    -0.7190606478     -0.01985362638    -0.7190606478     -0.0009026878624  -0.006464735969   
3050000000        1.043984307       -0.017143012      -0.03900724307    -0.7180886499     -0.03900724307    -0.7180886499     -0.001756891834   -0.006177423121   
3100000000        1.02294941        0.01884111202     -0.05793291662    -0.7167428926     -0.05793291662    -0.7167428926     -0.0020216594     -0.006387046245   
3150000000        0.9806786818      0.01132411108     -0.07678555603    -0.7149861649     -0.07678555603    -0.7149861649     -0.003054186791   -0.0062925879     
3200000000        0.9733065936      -0.03185277733    -0.0959571717     -0.7126107806     -0.0959571717     -0.7126107806     -0.002940294857   -0.006365916512   
3250000000        1.012747933       -0.05550676604    -0.1149443352     -0.7097107538     -0.1149443352     -0.7097107538     -0.002286996592   -0.006056274962   
3300000000        1.049778218       -0.02641245805    -0.1336810441     -0.7065791645     -0.1336810441     -0.7065791645     -0.002994555211   -0.005998503119   
3350000000        1.034775205       0.01933456901     -0.152423988      -0.7025866638     -0.152423988      -0.7025866638     -0.004361630344   -0.005834736854   
3400000000        0.985004528       0.02183693518     -0.171068888      -0.6980564227     -0.171068888      -0.6980564227     -0.004634977188   -0.005480488807   
3450000000        0.9640518662      -0.02508967862    -0.189506909      -0.6931720439     -0.189506909      -0.6931720439     -0.004342451907   -0.006544940477   
3500000000        1.001699702       -0.06390583495    -0.2078355571     -0.6878807576     -0.2078355571     -0.6878807576     -0.005234223335   -0.005776480355   
3550000000        1.052873787       -0.04388832248    -0.2260821155     -0.6822096899     -0.2260821155     -0.6822096899     -0.006195066916   -0.0049560743     
3600000000        1.053047492       0.01094461889     -0.2440855508     -0.6759246662     -0.2440855508     -0.6759246662     -0.006347388243   -0.005388623511   
3650000000        1.001919898       0.0320196262      -0.2617639534     -0.6692231835     -0.2617639534     -0.6692231835     -0.006396497415   -0.005167643779   
3700000000        0.9639020726      -0.008680204072   -0.2795832454     -0.661709893      -0.2795832454     -0.661709893      -0.0072323039     -0.004556196469   
3750000000        0.9890561146      -0.05915720299    -0.297140997      -0.6540237429     -0.297140997      -0.6540237429     -0.007172310932   -0.004849576519   
3800000000        1.04568355        -0.0541626363     -0.3144101479     -0.6458976866     -0.3144101479     -0.6458976866     -0.008733270487   -0.004315060997   
3850000000        1.061771383       0.0007715761212   -0.3314643155     -0.6372421068     -0.3314643155     -0.6372421068     -0.008515880858   -0.003415902086   
3900000000        1.015794778       0.03611626943     -0.3481818826     -0.6280958176     -0.3481818826     -0.6280958176     -0.00884122737    -0.002768993991   
3950000000        0.9649859382      0.006697248839    -0.3648696935     -0.6185280586     -0.3648696935     -0.6185280586     -0.009019642143   -0.003458095546   
4000000000        0.9741582098      -0.0512989323     -0.381114348      -0.6085216894     -0.381114348      -0.6085216894     -0.00945652562    -0.002537248342   
4050000000        1.031206785       -0.06443796703    -0.3971261032     -0.5981649016     -0.3971261032     -0.5981649016     -0.0106493493     -0.002503402046   
4100000000        1.063083441       -0.01771497111    -0.4128715985     -0.5873219915     -0.4128715985     -0.5873219915     -0.009775658819   -0.001948321448   
4150000000        1.028154303       0.02965265214     -0.4283196154     -0.5761030193     -0.4283196154     -0.5761030193     -0.01058069723    -0.001536623263   
4200000000        0.9686696936      0.01315443116     -0.4433896994     -0.5644657772     -0.4433896994     -0.5644657772     -0.009525708264   -0.001314142197   
4250000000        0.9631295946      -0.05067829278    -0.4582185212     -0.5524463518     -0.4582185212     -0.5524463518     -0.01125304553    -0.0002738501652  
4300000000        1.021918817       -0.08234220016    -0.47273204       -0.5399998633     -0.47273204       -0.5399998633     -0.01125499121    0.0007376383404   
4350000000        1.073453332       -0.04176128798    -0.4868514957     -0.5273555178     -0.4868514957     -0.5273555178     -0.01132131025    0.0005202046924   
4400000000        1.054549822       0.0208694433      -0.5006974965     -0.5141906685     -0.5006974965     -0.5141906685     -0.01111626232    0.001005237194    
4450000000        0.9879768656      0.02740462145     -0.514140945      -0.5007214507     -0.514140945      -0.5007214507     -0.01109505072    0.001414053387    
4500000000        0.9586045702      -0.03248171889    -0.5271679633     -0.4868377815     -0.5271679633     -0.4868377815     -0.01141725154    0.002070757999    
4550000000        1.004319328       -0.08340413502    -0.5397471904     -0.4725377721     -0.5397471904     -0.4725377721     -0.01217917095    0.003207491494    
4600000000        1.070072319       -0.06193200728    -0.5521400559     -0.4579982509     -0.5521400559     -0.4579982509     -0.01256384513    0.003592135695    
4650000000        1.074159723       0.006642386959    -0.5641284106     -0.4431185866     -0.5641284106     -0.4431185866     -0.01298646309    0.003819280042    
4700000000        1.010677085       0.0391271734      -0.5757456732     -0.4279483159     -0.5757456732     -0.4279483159     -0.01234263054    0.004854835429    
4750000000        0.9565074248      -0.005117209571   -0.5868780661     -0.4124849458     -0.5868780661     -0.4124849458     -0.01247925601    0.005994747707    
4800000000        0.9774367643      -0.07271210063    -0.5976762557     -0.396684221      -0.5976762557     -0.396684221      -0.01222575525    0.005631461251    
4850000000        1.047771673       -0.0816325687     -0.6077950809     -0.380544312      -0.6077950809     -0.380544312      -0.01272087695    0.00642546793     
4900000000        1.081726309       -0.021823342      -0.6177638091     -0.3640949811     -0.6177638091     -0.3640949811     -0.01259810249    0.007041150199    
4950000000        1.037318694       0.03255726727     -0.6271171929     -0.3477024584     -0.6271171929     -0.3477024584     -0.01251314067    0.0081576816      
5000000000        0.9705645155      0.0147197311      -0.6359534409     -0.3307484125     -0.6359534409     -0.3307484125     -0.01273928198    0.007907010208    
