! RsaToolbox (C) 2014 Rohde & Schwarz America
! 
! Number of points: 101
! Number of ports: 2
! Balanced ports?: No
! 
! 
# Hz S RI R 50
200000000         -0.009694048123   0.01034468102     -0.7837950963     -0.6031862675     
                  -0.7837950963     -0.6031862675     -0.01961942561    0.01351745178     
201000000         -0.009396191141   0.01030632387     -0.7912288695     -0.593300677      
                  -0.7912288695     -0.593300677      -0.01938936951    0.01360587202     
202000000         -0.009080248476   0.01036462743     -0.7986072218     -0.5832796131     
                  -0.7986072218     -0.5832796131     -0.01891082192    0.0138109463      
203000000         -0.008810867401   0.01036108839     -0.8057998718     -0.5732459563     
                  -0.8057998718     -0.5732459563     -0.01849544088    0.01368850156     
204000000         -0.008513492129   0.0103957679      -0.81285384       -0.5631637985     
                  -0.81285384       -0.5631637985     -0.01804343563    0.01382959194     
205000000         -0.008207784336   0.01037772194     -0.8197757143     -0.5529856115     
                  -0.8197757143     -0.5529856115     -0.01763446342    0.01394993728     
206000000         -0.007937238839   0.0104283899      -0.8266130866     -0.542741343      
                  -0.8266130866     -0.542741343      -0.01724214623    0.01400672263     
207000000         -0.007612120774   0.01043239803     -0.8332359868     -0.5323865794     
                  -0.8332359868     -0.5323865794     -0.01682514205    0.01400966833     
208000000         -0.007284371923   0.01041881022     -0.839780087      -0.5219866276     
                  -0.839780087      -0.5219866276     -0.01637498677    0.01401392011     
209000000         -0.007021221544   0.01039558476     -0.8461709164     -0.5114811187     
                  -0.8461709164     -0.5114811187     -0.01590633124    0.01403537409     
210000000         -0.006744871569   0.01037564198     -0.8524580141     -0.5009820823     
                  -0.8524580141     -0.5009820823     -0.01551676094    0.01410354707     
211000000         -0.006430368156   0.01031951282     -0.8586229247     -0.4903501026     
                  -0.8586229247     -0.4903501026     -0.01507152267    0.01413934608     
212000000         -0.006185343786   0.01035268511     -0.8645958541     -0.4797092013     
                  -0.8645958541     -0.4797092013     -0.01455264472    0.01413764303     
213000000         -0.005916023557   0.01024229237     -0.8704429573     -0.4690386691     
                  -0.8704429573     -0.4690386691     -0.01411865563    0.01417976903     
214000000         -0.005662564736   0.01019787527     -0.8761917245     -0.4582338216     
                  -0.8761917245     -0.4582338216     -0.01379986058    0.01413096145     
215000000         -0.005372469036   0.01017853957     -0.8818299273     -0.4473807602     
                  -0.8818299273     -0.4473807602     -0.01338770466    0.01411509811     
216000000         -0.005111584862   0.01012024983     -0.8872516124     -0.436511423      
                  -0.8872516124     -0.436511423      -0.01277625774    0.0140339581      
217000000         -0.004819622615   0.0100311826      -0.8925413459     -0.425436815      
                  -0.8925413459     -0.425436815      -0.01236999333    0.01394840398     
218000000         -0.004590904218   0.00994329717     -0.8977553999     -0.4143801831     
                  -0.8977553999     -0.4143801831     -0.0119380229     0.01405422354     
219000000         -0.004361332189   0.009804120078    -0.9028364265     -0.403243204      
                  -0.9028364265     -0.403243204      -0.01150327298    0.01394150444     
220000000         -0.004064907297   0.009824015059    -0.9077093934     -0.3920244831     
                  -0.9077093934     -0.3920244831     -0.01103202173    0.0138827983      
221000000         -0.003847111429   0.00969626473     -0.9124722826     -0.3807797693     
                  -0.9124722826     -0.3807797693     -0.01049295473    0.0137625159      
222000000         -0.003568369084   0.009637944897    -0.9170974732     -0.3694313619     
                  -0.9170974732     -0.3694313619     -0.009962387664   0.0136905146      
223000000         -0.003328601371   0.009509343901    -0.9216254208     -0.3580168517     
                  -0.9216254208     -0.3580168517     -0.009665895548   0.01353835317     
224000000         -0.003061628147   0.009435899339    -0.9259373021     -0.3466061758     
                  -0.9259373021     -0.3466061758     -0.009148599773   0.01320164229     
225000000         -0.00285434189    0.009236474837    -0.9301745174     -0.3350965363     
                  -0.9301745174     -0.3350965363     -0.008837300067   0.0132580236      
226000000         -0.002565855314   0.009148287801    -0.9342211555     -0.3235015922     
                  -0.9342211555     -0.3235015922     -0.00853793868    0.01297742169     
227000000         -0.002345377895   0.008988042633    -0.938116471      -0.3118577448     
                  -0.938116471      -0.3118577448     -0.008006097003   0.01296844832     
228000000         -0.002110397851   0.008877485651    -0.9419411205     -0.3002494847     
                  -0.9419411205     -0.3002494847     -0.007580437138   0.01267031224     
229000000         -0.001886701406   0.00869003255     -0.94557287       -0.2885621164     
                  -0.94557287       -0.2885621164     -0.007273690013   0.01248785672     
230000000         -0.001648764504   0.008604849077    -0.9490707308     -0.2768019011     
                  -0.9490707308     -0.2768019011     -0.006733471563   0.01223540724     
231000000         -0.001444683934   0.008445661086    -0.9524353522     -0.2650301731     
                  -0.9524353522     -0.2650301731     -0.006347661507   0.01208392541     
232000000         -0.001212287577   0.008232730839    -0.9556335952     -0.2532287735     
                  -0.9556335952     -0.2532287735     -0.005944952926   0.01180525884     
233000000         -0.001029099771   0.008080571884    -0.9586527817     -0.2413814035     
                  -0.9586527817     -0.2413814035     -0.005515427421   0.0115998833      
234000000         -0.0008059145165  0.007895709476    -0.9615603093     -0.2294775802     
                  -0.9615603093     -0.2294775802     -0.005103563691   0.0113049642      
235000000         -0.0006314124657  0.00774068265     -0.9643179033     -0.2175279899     
                  -0.9643179033     -0.2175279899     -0.004705167971   0.01105314933     
236000000         -0.0004014192005  0.007575047129    -0.9669563264     -0.2055901192     
                  -0.9669563264     -0.2055901192     -0.004375844298   0.01079046759     
237000000         -0.0002170872111  0.007392370004    -0.9694341424     -0.1935996062     
                  -0.9694341424     -0.1935996062     -0.003933772439   0.0105335293      
238000000         -5.88554131e-05   0.007149623891    -0.9717270432     -0.1815838166     
                  -0.9717270432     -0.1815838166     -0.003611051268   0.01022322753     
239000000         0.000152798805    0.006947985659    -0.9738879928     -0.169532794      
                  -0.9738879928     -0.169532794      -0.003276896503   0.009955457322    
240000000         0.0003244048242   0.006803555883    -0.9758982347     -0.1574083404     
                  -0.9758982347     -0.1574083404     -0.00281475798    0.009628568151    
241000000         0.0004769856178   0.006617014704    -0.9777402713     -0.1452642262     
                  -0.9777402713     -0.1452642262     -0.002515386668   0.009473117292    
242000000         0.0006779106341   0.006352054797    -0.9795082255     -0.133157592      
                  -0.9795082255     -0.133157592      -0.002237526072   0.008999869606    
243000000         0.0008108570783   0.006168954572    -0.9810631493     -0.1210013245     
                  -0.9810631493     -0.1210013245     -0.001827101278   0.008679037408    
244000000         0.0009933468934   0.005908062996    -0.9824733992     -0.1087839475     
                  -0.9824733992     -0.1087839475     -0.001685444946   0.008410456483    
245000000         0.001117835854    0.005737996465    -0.983728601      -0.09661951323    
                  -0.983728601      -0.09661951323    -0.001253809362   0.008081234765    
246000000         0.001261369289    0.005529796818    -0.9848601231     -0.08438065501    
                  -0.9848601231     -0.08438065501    -0.0009558067531  0.007656049135    
247000000         0.001378671524    0.005223128174    -0.9857742671     -0.07217330671    
                  -0.9857742671     -0.07217330671    -0.0007936919632  0.007413788664    
248000000         0.001562023449    0.005045946315    -0.9866027906     -0.05994393533    
                  -0.9866027906     -0.05994393533    -0.0004027849984  0.006927700802    
249000000         0.001653058091    0.004775816676    -0.9872381681     -0.04768846103    
                  -0.9872381681     -0.04768846103    -0.0001914795341  0.006642561459    
250000000         0.001805286       0.004553237687    -0.9877573436     -0.03540822592    
                  -0.9877573436     -0.03540822592    0.000118737796    0.006217353368    
251000000         0.00187145283     0.004316864158    -0.9881015262     -0.02316426924    
                  -0.9881015262     -0.02316426924    0.0003717439478   0.00594704368     
252000000         0.001982311678    0.004079726472    -0.9883033136     -0.01089712248    
                  -0.9883033136     -0.01089712248    0.0006213485421   0.005566688017    
253000000         0.002069985618    0.003822503019    -0.9883665189     0.001375303185    
                  -0.9883665189     0.001375303185    0.0007695230444   0.005191950945    
254000000         0.002169135565    0.003578452632    -0.988279327      0.01359103049     
                  -0.988279327      0.01359103049     0.001016791395    0.004773508268    
255000000         0.002257947371    0.003345187554    -0.9879871061     0.02587481746     
                  -0.9879871061     0.02587481746     0.001351337038    0.00432943391     
256000000         0.002317024518    0.003078543905    -0.9876306973     0.03815042593     
                  -0.9876306973     0.03815042593     0.001462697953    0.003966796987    
257000000         0.002358603264    0.002851157284    -0.9870100237     0.05037661877     
                  -0.9870100237     0.05037661877     0.00177826428     0.003660120887    
258000000         0.002438474529    0.002571504115    -0.9862922794     0.06266319159     
                  -0.9862922794     0.06266319159     0.001871935949    0.003250968344    
259000000         0.002489138084    0.002307716452    -0.9854444301     0.0748524186      
                  -0.9854444301     0.0748524186      0.002000135847    0.002759112055    
260000000         0.002540217956    0.002013051963    -0.9844430764     0.08705479424     
                  -0.9844430764     0.08705479424     0.00215536512     0.002422690489    
261000000         0.002566138684    0.001762092825    -0.9833121201     0.09926353873     
                  -0.9833121201     0.09926353873     0.002215187307    0.001888704183    
262000000         0.002619064407    0.001536130764    -0.9819678999     0.111468201       
                  -0.9819678999     0.111468201       0.002415815625    0.001537081448    
263000000         0.002559715528    0.001297870982    -0.9804760674     0.1235909594      
                  -0.9804760674     0.1235909594      0.00260123309     0.001147043992    
264000000         0.002636327293    0.001063075448    -0.9788863497     0.1357037569      
                  -0.9788863497     0.1357037569      0.002815796818    0.0006726907889   
265000000         0.002649921107    0.0007979070931   -0.9770926618     0.1478585281      
                  -0.9770926618     0.1478585281      0.002927869144    0.0002550778013   
266000000         0.002683434668    0.0004941271701   -0.9751755967     0.1599875863      
                  -0.9751755967     0.1599875863      0.00299944323     -0.000142129342   
267000000         0.002660073978    0.0002612569857   -0.9730975962     0.1720703227      
                  -0.9730975962     0.1720703227      0.003071386841    -0.0006025543129  
268000000         0.002640716652    -1.927638413e-05  -0.970860492      0.1840926556      
                  -0.970860492      0.1840926556      0.003014666298    -0.0010325494     
269000000         0.002625534031    -0.0002708132104  -0.9685276592     0.1961231356      
                  -0.9685276592     0.1961231356      0.00307531991     -0.00144541496    
270000000         0.002600218684    -0.0004592551937  -0.9659907527     0.2080879872      
                  -0.9659907527     0.2080879872      0.003312984127    -0.00189177302    
271000000         0.002544693151    -0.0007574900494  -0.9633080723     0.220047987       
                  -0.9633080723     0.220047987       0.003341591842    -0.002254795891   
272000000         0.002508417061    -0.00107210903    -0.9605169248     0.2319969635      
                  -0.9605169248     0.2319969635      0.003259233846    -0.002804144202   
273000000         0.002466403765    -0.001300217733   -0.957575644      0.2438679326      
                  -0.957575644      0.2438679326      0.00321279069     -0.003311747864   
274000000         0.002452803166    -0.001581853073   -0.9544076223     0.2557205967      
                  -0.9544076223     0.2557205967      0.003330165487    -0.003801987699   
275000000         0.00239859465     -0.001807610689   -0.9511649227     0.2675282584      
                  -0.9511649227     0.2675282584      0.00338417172     -0.004308963618   
276000000         0.002290262182    -0.002077921212   -0.9477906228     0.279291706       
                  -0.9477906228     0.279291706       0.00328938341     -0.00461201204    
277000000         0.002181320142    -0.002319892261   -0.9442124773     0.2910263137      
                  -0.9442124773     0.2910263137      0.003368866077    -0.004923849426   
278000000         0.002099930486    -0.002612913716   -0.9405524695     0.3027319086      
                  -0.9405524695     0.3027319086      0.003162606158    -0.005438506139   
279000000         0.002022481044    -0.002870197108   -0.9366708666     0.3143442522      
                  -0.9366708666     0.3143442522      0.003195320207    -0.005778013341   
280000000         0.001953947053    -0.003081432913   -0.9326931485     0.3258979841      
                  -0.9326931485     0.3258979841      0.003273331382    -0.006389634151   
281000000         0.001850043309    -0.003341215504   -0.9285653041     0.3374489717      
                  -0.9285653041     0.3374489717      0.003212244074    -0.006827674405   
282000000         0.001718426407    -0.003608774487   -0.9242890618     0.348972996       
                  -0.9242890618     0.348972996       0.003015660429    -0.007272156195   
283000000         0.001623103734    -0.003829951342   -0.9198866753     0.360399936       
                  -0.9198866753     0.360399936       0.002837782633    -0.007660735832   
284000000         0.001540536086    -0.004115442099   -0.9153453808     0.3717542355      
                  -0.9153453808     0.3717542355      0.002843950351    -0.008006830392   
285000000         0.001317413757    -0.004265227631   -0.9106071758     0.3830593864      
                  -0.9106071758     0.3830593864      0.002809904143    -0.008430176285   
286000000         0.001261109775    -0.004513947522   -0.9058010901     0.3943421314      
                  -0.9058010901     0.3943421314      0.0025957095      -0.008882454462   
287000000         0.001122886027    -0.004761273167   -0.9007871689     0.4055349243      
                  -0.9007871689     0.4055349243      0.002552167022    -0.009463415549   
288000000         0.0009623616632   -0.004953108507   -0.8956856399     0.4166696585      
                  -0.8956856399     0.4166696585      0.002432418325    -0.009749347269   
289000000         0.0008032342184   -0.00516907082    -0.890459822      0.4277391615      
                  -0.890459822      0.4277391615      0.002313577874    -0.01030616842    
290000000         0.0006892023747   -0.005366839031   -0.8850905795     0.4387131983      
                  -0.8850905795     0.4387131983      0.002150716991    -0.01065285036    
291000000         0.0004933055886   -0.005570154212   -0.8795226605     0.4496856121      
                  -0.8795226605     0.4496856121      0.002043098741    -0.010989659      
292000000         0.0003069950985   -0.005819566094   -0.8738846309     0.4605448285      
                  -0.8738846309     0.4605448285      0.001752859174    -0.01142726687    
293000000         0.0001650582582   -0.006031277793   -0.8680821166     0.4713716647      
                  -0.8680821166     0.4713716647      0.001586127518    -0.01173652059    
294000000         -3.488524276e-05  -0.006245418208   -0.862180535      0.4820778847      
                  -0.862180535      0.4820778847      0.001157740746    -0.01216257247    
295000000         -0.0002635515371  -0.006424895154   -0.8561128376     0.4927060025      
                  -0.8561128376     0.4927060025      0.001113977012    -0.01238344157    
296000000         -0.0003658864882  -0.006600196326   -0.8498806299     0.5032571489      
                  -0.8498806299     0.5032571489      0.00105508212     -0.01301080209    
297000000         -0.0005591267918  -0.006771903264   -0.8436099413     0.5137835743      
                  -0.8436099413     0.5137835743      0.0008184190927   -0.01322733358    
298000000         -0.0007571093651  -0.00701288865    -0.8371597338     0.5242357574      
                  -0.8371597338     0.5242357574      0.0005064097563   -0.01359071274    
299000000         -0.0009755234349  -0.007152640764   -0.8305601252     0.5345232751      
                  -0.8305601252     0.5345232751      0.0002082674324   -0.01390889139    
300000000         -0.001187963072   -0.007349546955   -0.8238614498     0.5447809297      
                  -0.8238614498     0.5447809297      5.615742809e-05   -0.01436032045    
