! RsaToolbox (C) 2014 Rohde & Schwarz America
! 
! Number of points: 101
! Number of ports: 2
! Balanced ports?: No
! 
! 
# Hz S RI R 50
200000000         -0.00605392994    0.004506632238    -0.7719150891     -0.6168630626     
                  -0.7719150891     -0.6168630626     -0.01041231003    0.007226783894    
201000000         -0.00579419256    0.004631823008    -0.7795221606     -0.6071336861     
                  -0.7795221606     -0.6071336861     -0.01021522969    0.007353649797    
202000000         -0.005626659897   0.004731002834    -0.7869411261     -0.597298872      
                  -0.7869411261     -0.597298872      -0.01016764687    0.007468810695    
203000000         -0.005425390255   0.004861527662    -0.7942465678     -0.587447426      
                  -0.7942465678     -0.587447426      -0.009806971761   0.007558076006    
204000000         -0.005213535754   0.004998408634    -0.8014473137     -0.5775382117     
                  -0.8014473137     -0.5775382117     -0.009706943482   0.007739329567    
205000000         -0.00500357272    0.00509520092     -0.8085118572     -0.5676284862     
                  -0.8085118572     -0.5676284862     -0.009541342958   0.007677990486    
206000000         -0.004840700238   0.005162898242    -0.8153957064     -0.5575507059     
                  -0.8153957064     -0.5575507059     -0.009414787069   0.008003899435    
207000000         -0.004646082569   0.005306703077    -0.8221640143     -0.5474898323     
                  -0.8221640143     -0.5474898323     -0.009146056867   0.007872296478    
208000000         -0.004420811451   0.005457312167    -0.8288565316     -0.5373170461     
                  -0.8288565316     -0.5373170461     -0.008964803064   0.00796280085     
209000000         -0.004283502917   0.005584076142    -0.835306704      -0.5270839617     
                  -0.835306704      -0.5270839617     -0.00882314819    0.008177933933    
210000000         -0.004022152155   0.005616845948    -0.841727813      -0.5167911789     
                  -0.841727813      -0.5167911789     -0.008573111651   0.008155775132    
211000000         -0.003901022047   0.005695495347    -0.8479759639     -0.5064863151     
                  -0.8479759639     -0.5064863151     -0.008347426166   0.008415221739    
212000000         -0.003713170861   0.005774535031    -0.8541405052     -0.4960929727     
                  -0.8541405052     -0.4960929727     -0.008167684458   0.008418321776    
213000000         -0.003491889556   0.005867795561    -0.8601400959     -0.4856566038     
                  -0.8601400959     -0.4856566038     -0.007831491054   0.008453120043    
214000000         -0.003308188217   0.005915145369    -0.8659747128     -0.475115738      
                  -0.8659747128     -0.475115738      -0.007716980019   0.008490015088    
215000000         -0.003149651234   0.005986475314    -0.8716942345     -0.4644959486     
                  -0.8716942345     -0.4644959486     -0.007385545476   0.008613557755    
216000000         -0.002946325189   0.006072646124    -0.8772957633     -0.4537946807     
                  -0.8772957633     -0.4537946807     -0.007245245773   0.008463631769    
217000000         -0.002789280801   0.00607876719     -0.8827938055     -0.4429902991     
                  -0.8827938055     -0.4429902991     -0.007064923771   0.00857015557     
218000000         -0.002552779437   0.006084357951    -0.8881228985     -0.4321746791     
                  -0.8881228985     -0.4321746791     -0.006734248902   0.008568492367    
219000000         -0.002388629884   0.006188528913    -0.8933418243     -0.4212836614     
                  -0.8933418243     -0.4212836614     -0.006429230593   0.00857508299     
220000000         -0.002148273551   0.006195457778    -0.8984102254     -0.4102996392     
                  -0.8984102254     -0.4102996392     -0.00632165174    0.008516304039    
221000000         -0.001955196824   0.006235363102    -0.9033560025     -0.3992642589     
                  -0.9033560025     -0.3992642589     -0.00604335631    0.008486367908    
222000000         -0.001708865899   0.006223294224    -0.9081646208     -0.3881086543     
                  -0.9081646208     -0.3881086543     -0.005917093556   0.008554893177    
223000000         -0.001546094631   0.006256345701    -0.9128392612     -0.3769203578     
                  -0.9128392612     -0.3769203578     -0.005764052198   0.008533906128    
224000000         -0.001298629091   0.00622397438     -0.9173434699     -0.365689839      
                  -0.9173434699     -0.365689839      -0.005515363257   0.008582533373    
225000000         -0.001012092304   0.006320494664    -0.9217987459     -0.3544244828     
                  -0.9217987459     -0.3544244828     -0.005236034417   0.008331543717    
226000000         -0.0008953359471  0.006323746855    -0.9260164426     -0.3430146574     
                  -0.9260164426     -0.3430146574     -0.0051230167     0.008571201623    
227000000         -0.0006401449797  0.006237602398    -0.9301827399     -0.3316304243     
                  -0.9301827399     -0.3316304243     -0.004887881559   0.008409590837    
228000000         -0.000433595557   0.006283004418    -0.9341221859     -0.3202078188     
                  -0.9341221859     -0.3202078188     -0.004668917448   0.008362090171    
229000000         -0.0002300213293  0.006289589029    -0.9379807936     -0.3086798327     
                  -0.9379807936     -0.3086798327     -0.004431781673   0.008266618624    
230000000         3.463674061e-05   0.006266621692    -0.941683857      -0.297098443      
                  -0.941683857      -0.297098443      -0.004408893525   0.008216086353    
231000000         0.0002738237843   0.006281020341    -0.9451931242     -0.2855159554     
                  -0.9451931242     -0.2855159554     -0.004052909543   0.008135039901    
232000000         0.0004689821715   0.006242876662    -0.9486795391     -0.2738122149     
                  -0.9486795391     -0.2738122149     -0.004052479467   0.008193404301    
233000000         0.0007314851879   0.006190604912    -0.9518958568     -0.2621330991     
                  -0.9518958568     -0.2621330991     -0.003735603976   0.008042313095    
234000000         0.0009178907139   0.006143012319    -0.9550501167     -0.2503235879     
                  -0.9550501167     -0.2503235879     -0.003736255399   0.00817244031     
235000000         0.001112577569    0.006145835645    -0.9580516047     -0.2385475567     
                  -0.9580516047     -0.2385475567     -0.003448949779   0.007913755038    
236000000         0.001373119518    0.006090137204    -0.9608924113     -0.2267829291     
                  -0.9608924113     -0.2267829291     -0.003308769289   0.007907204258    
237000000         0.001629809387    0.006029422744    -0.963561764      -0.214943078      
                  -0.963561764      -0.214943078      -0.003112238947   0.007876172628    
238000000         0.001802145915    0.005992960361    -0.9661416914     -0.2030245583     
                  -0.9661416914     -0.2030245583     -0.003047384684   0.007904654093    
239000000         0.002029783222    0.005890158107    -0.9685106675     -0.1911130978     
                  -0.9685106675     -0.1911130978     -0.002900549171   0.007695743148    
240000000         0.002255346774    0.005853501504    -0.9707860763     -0.1791275559     
                  -0.9707860763     -0.1791275559     -0.002776678728   0.007705004217    
241000000         0.002457055368    0.005711414209    -0.9728925624     -0.1671621262     
                  -0.9728925624     -0.1671621262     -0.002674868143   0.007620494257    
242000000         0.002669874676    0.005689235649    -0.9748430033     -0.1551792545     
                  -0.9748430033     -0.1551792545     -0.002432935934   0.007509885956    
243000000         0.002839421255    0.005576009387    -0.9766884398     -0.1431458535     
                  -0.9766884398     -0.1431458535     -0.002314828621   0.007518052956    
244000000         0.003064555763    0.00549446621     -0.9783060749     -0.1311854364     
                  -0.9783060749     -0.1311854364     -0.002069937604   0.007275861846    
245000000         0.003287506477    0.005384715873    -0.9798776873     -0.1191169452     
                  -0.9798776873     -0.1191169452     -0.002052948074   0.007202256867    
246000000         0.003538218197    0.005303934676    -0.9812438221     -0.1070711387     
                  -0.9812438221     -0.1070711387     -0.001802114187   0.006997226712    
247000000         0.003758290093    0.005179058901    -0.9824434111     -0.09498344135    
                  -0.9824434111     -0.09498344135    -0.001666258266   0.006928544136    
248000000         0.003918073707    0.005098863626    -0.9834972867     -0.0828443297     
                  -0.9834972867     -0.0828443297     -0.001556396041   0.00685753474     
249000000         0.004126891919    0.004935650055    -0.9844632695     -0.07076503757    
                  -0.9844632695     -0.07076503757    -0.001509295294   0.006594064457    
250000000         0.004257551916    0.004836787643    -0.9851964766     -0.05866380229    
                  -0.9851964766     -0.05866380229    -0.00120818689    0.006649412946    
251000000         0.004466808599    0.004735709728    -0.9858315431     -0.04653011378    
                  -0.9858315431     -0.04653011378    -0.001134869507   0.006569904695    
252000000         0.004653167112    0.004555823921    -0.9863333588     -0.03444899015    
                  -0.9863333588     -0.03444899015    -0.001119703957   0.006362835965    
253000000         0.004839303534    0.004457349947    -0.9866930092     -0.02228764273    
                  -0.9866930092     -0.02228764273    -0.0009526232098  0.006239804614    
254000000         0.00503841738     0.00429721859     -0.9868242455     -0.01017307002    
                  -0.9868242455     -0.01017307002    -0.0007821832661  0.006009966525    
255000000         0.005238445157    0.004179909017    -0.9868580135     0.001930991218    
                  -0.9868580135     0.001930991218    -0.0006532247959  0.005792612363    
256000000         0.00542327586     0.004030862763    -0.9867247364     0.01410824453     
                  -0.9867247364     0.01410824453     -0.0004260486698  0.005730716465    
257000000         0.005528103866    0.003870392683    -0.9865514327     0.02626899549     
                  -0.9865514327     0.02626899549     -0.0005728346343  0.005725619414    
258000000         0.005725289394    0.003674723546    -0.9861177439     0.03840454554     
                  -0.9861177439     0.03840454554     -0.0004392955447  0.00546891737     
259000000         0.005907105503    0.003500929506    -0.9855093049     0.05056270802     
                  -0.9855093049     0.05056270802     -0.0003753711015  0.005279755336    
260000000         0.006047920917    0.003374640823    -0.9847800852     0.06263281282     
                  -0.9847800852     0.06263281282     -0.0001241133661  0.005186850411    
261000000         0.006227971186    0.003193066836    -0.9839896424     0.07474327455     
                  -0.9839896424     0.07474327455     -0.0001228315854  0.004965421759    
262000000         0.006322768452    0.003040810678    -0.9828972007     0.08677842976     
                  -0.9828972007     0.08677842976     0.0002091708652   0.004932837364    
263000000         0.006528167439    0.002842934109    -0.9817993049     0.09889021737     
                  -0.9817993049     0.09889021737     0.0001264072684   0.004673010305    
264000000         0.006610205518    0.002634576111    -0.9804331255     0.1109516221      
                  -0.9804331255     0.1109516221      0.000160333292    0.004595981142    
265000000         0.006747048006    0.002436290792    -0.9789689371     0.1230274393      
                  -0.9789689371     0.1230274393      0.000289452138    0.004502514897    
266000000         0.006883793319    0.002246413461    -0.9773507335     0.1350517217      
                  -0.9773507335     0.1350517217      0.0002421181772   0.004402379357    
267000000         0.007005792712    0.002043824115    -0.9756144704     0.1470521923      
                  -0.9756144704     0.1470521923      0.0003747031614   0.004093880996    
268000000         0.007089142715    0.001825317303    -0.973747273      0.159007434       
                  -0.973747273      0.159007434       0.0003740378073   0.004040559426    
269000000         0.007284488808    0.001674872725    -0.9716956823     0.1710124464      
                  -0.9716956823     0.1710124464      0.0006740817623   0.003791110025    
270000000         0.007368460974    0.001456791921    -0.9694957062     0.1829085775      
                  -0.9694957062     0.1829085775      0.0008224902503   0.003643426847    
271000000         0.00747550918     0.001238027552    -0.9671242908     0.1948073601      
                  -0.9671242908     0.1948073601      0.0007532820028   0.003532940501    
272000000         0.007608179639    0.001049622075    -0.9646585584     0.2066784056      
                  -0.9646585584     0.2066784056      0.0009223394338   0.003265734924    
273000000         0.00767854059     0.0008371105238   -0.9620149778     0.2185270972      
                  -0.9620149778     0.2185270972      0.000868887619    0.003149849773    
274000000         0.007747836452    0.0006397531264   -0.9592608028     0.2303570989      
                  -0.9592608028     0.2303570989      0.0009954023434   0.002971440465    
275000000         0.007870837061    0.0004501434396   -0.9563141092     0.2421077172      
                  -0.9563141092     0.2421077172      0.001094112389    0.002723109412    
276000000         0.007922898277    0.0001988503044   -0.9532428182     0.2538688894      
                  -0.9532428182     0.2538688894      0.001105011752    0.002701352638    
277000000         0.007961320392    -5.99646797e-05   -0.9500255045     0.2656012335      
                  -0.9500255045     0.2656012335      0.001113081036    0.002537205971    
278000000         0.008077456387    -0.0002691325548  -0.9466667704     0.2772457619      
                  -0.9466667704     0.2772457619      0.001231507996    0.002231055955    
279000000         0.008129927918    -0.0005273537383  -0.9432055348     0.2888303048      
                  -0.9432055348     0.2888303048      0.001175590694    0.001984662474    
280000000         0.008204458518    -0.0007567520775  -0.9395384529     0.300418182       
                  -0.9395384529     0.300418182       0.001284451292    0.001953526527    
281000000         0.008268197495    -0.0009911734293  -0.9357505214     0.311954414       
                  -0.9357505214     0.311954414       0.001264896307    0.001636007222    
282000000         0.008308975452    -0.00119545692    -0.9317925613     0.3234455758      
                  -0.9317925613     0.3234455758      0.001396130811    0.001497318135    
283000000         0.008338489318    -0.001393470771   -0.92773252       0.3348681548      
                  -0.92773252       0.3348681548      0.001366964272    0.001433514189    
284000000         0.008380963567    -0.001659632429   -0.923525829      0.3462642657      
                  -0.923525829      0.3462642657      0.001495197198    0.001303377963    
285000000         0.008402014478    -0.001852184654   -0.9191781346     0.3575486132      
                  -0.9191781346     0.3575486132      0.00147373331     0.001043796476    
286000000         0.008401662304    -0.002129037155   -0.9146972964     0.3688638606      
                  -0.9146972964     0.3688638606      0.001507423612    0.0008537874394   
287000000         0.008410127238    -0.002392413346   -0.9100444846     0.3800929627      
                  -0.9100444846     0.3800929627      0.001527130717    0.0005980787632   
288000000         0.008417298621    -0.002665540582   -0.9053094122     0.3912870621      
                  -0.9053094122     0.3912870621      0.001303957823    0.0004335822017   
289000000         0.008438463423    -0.002871048867   -0.900387718      0.4023894708      
                  -0.900387718      0.4023894708      0.001696909279    0.0001208405881   
290000000         0.008430323562    -0.00308049612    -0.895365062      0.4133927915      
                  -0.895365062      0.4133927915      0.001512282773    9.898152517e-05   
291000000         0.008457487527    -0.003387501667   -0.8901973075     0.4243767157      
                  -0.8901973075     0.4243767157      0.001388660967    -0.0001815544562  
292000000         0.008422382445    -0.003648216454   -0.8848732384     0.4352892337      
                  -0.8848732384     0.4352892337      0.001454495333    -0.0003449950706  
293000000         0.008414248863    -0.003817331494   -0.8794216334     0.4461017299      
                  -0.8794216334     0.4461017299      0.001511959146    -0.0004910371028  
294000000         0.008370133201    -0.004011308345   -0.8738046779     0.4569035649      
                  -0.8738046779     0.4569035649      0.001487934106    -0.0005483989069  
295000000         0.008354821153    -0.004312357643   -0.8681451457     0.4676434423      
                  -0.8681451457     0.4676434423      0.001499450595    -0.0007614898004  
296000000         0.008294390406    -0.004541136388   -0.8623132377     0.478282452       
                  -0.8623132377     0.478282452       0.001493256385    -0.00111331203    
297000000         0.008227655877    -0.004766695441   -0.8562933351     0.4888502844      
                  -0.8562933351     0.4888502844      0.001570871579    -0.001209898311   
298000000         0.008186653368    -0.005015337329   -0.8502276657     0.4993468122      
                  -0.8502276657     0.4993468122      0.001404054248    -0.001379030588   
299000000         0.008075967774    -0.005270366139   -0.8439789625     0.5097356228      
                  -0.8439789625     0.5097356228      0.001519273912    -0.001461870623   
300000000         0.008057176037    -0.005530667028   -0.837639711      0.5201100095      
                  -0.837639711      0.5201100095      0.001361588026    -0.001898204861   
