! RsaToolbox (C) 2014 Rohde & Schwarz America
! 
! Number of points: 101
! Number of ports: 2
! Balanced ports?: No
! 
! 
# Hz S RI R 50
400000000         -0.01437392331    -0.007076757819   0.2098368291      0.9616528133      
                  0.2098368291      0.9616528133      -0.0146112053     -0.0007734709685  
401000000         -0.0149526108     -0.006632904798   0.2216283864      0.9589552297      
                  0.2216283864      0.9589552297      -0.0141849364     -0.001332608544   
402000000         -0.01535574679    -0.006179759837   0.2334116972      0.9561586734      
                  0.2334116972      0.9561586734      -0.0140395904     -0.001808651878   
403000000         -0.01563164579    -0.005792821693   0.2451623131      0.953221916       
                  0.2451623131      0.953221916       -0.0140291915     -0.001981439318   
404000000         -0.01578878919    -0.00534652674    0.2568734707      0.9500932085      
                  0.2568734707      0.9500932085      -0.01402909278    -0.002199320109   
405000000         -0.01581515907    -0.005001729842   0.2685316943      0.9468673849      
                  0.2685316943      0.9468673849      -0.0143632766     -0.002200779809   
406000000         -0.01576497932    -0.004676198136   0.2801796309      0.9434422094      
                  0.2801796309      0.9434422094      -0.01471262313    -0.00195541129    
407000000         -0.01563859197    -0.004432517078   0.2917150519      0.9399220137      
                  0.2917150519      0.9399220137      -0.01508697769    -0.00150185254    
408000000         -0.01549120667    -0.004327153628   0.3032710723      0.9362349916      
                  0.3032710723      0.9362349916      -0.01537004649    -0.0009467366849  
409000000         -0.01529336305    -0.004341765346   0.3147435191      0.9324286327      
                  0.3147435191      0.9324286327      -0.01562129915    -0.00012014508    
410000000         -0.01512804346    -0.004362685308   0.3261206886      0.928448663       
                  0.3261206886      0.928448663       -0.0156149653     0.0008171215352   
411000000         -0.0151602537     -0.004085590507   0.3375186994      0.9243633189      
                  0.3375186994      0.9243633189      -0.01588885387    0.001060216451    
412000000         -0.01526088348    -0.003722219529   0.3488428746      0.920106869       
                  0.3488428746      0.920106869       -0.01580962489    0.0009735593503   
413000000         -0.01527179427    -0.00345253597    0.3601413771      0.9157433467      
                  0.3601413771      0.9157433467      -0.01591719328    0.001322426357    
414000000         -0.01525695589    -0.003135859881   0.3713857652      0.9112136141      
                  0.3713857652      0.9112136141      -0.01593926938    0.001402970191    
415000000         -0.01528614641    -0.002942998151   0.3825405819      0.9065991214      
                  0.3825405819      0.9065991214      -0.01589055981    0.001728698294    
416000000         -0.01530836241    -0.002752611209   0.393642119       0.901795762       
                  0.393642119       0.901795762       -0.01585343336    0.001978534572    
417000000         -0.01532465495    -0.002560995505   0.4046989212      0.8968445694      
                  0.4046989212      0.8968445694      -0.01585053415    0.00236352216     
418000000         -0.01531856865    -0.002299945728   0.4157102252      0.8917767376      
                  0.4157102252      0.8917767376      -0.01573222317    0.00265258521     
419000000         -0.01529487035    -0.002086721346   0.4266136565      0.8866102681      
                  0.4266136565      0.8866102681      -0.01568483452    0.002843910027    
420000000         -0.01521902781    -0.001827882222   0.437470006       0.8812552352      
                  0.437470006       0.8812552352      -0.0156833499     0.003060150173    
421000000         -0.01612635498    -0.001143746089   0.4482921135      0.8758096779      
                  0.4482921135      0.8758096779      -0.01441810843    0.001873512268    
422000000         -0.01663955694    -0.0003974763782  0.459009603       0.8702283664      
                  0.459009603       0.8702283664      -0.01375680342    0.000736847535    
423000000         -0.01690800673    0.0002821334569   0.4696787567      0.8645070815      
                  0.4696787567      0.8645070815      -0.01371730796    -4.237866614e-05  
424000000         -0.01680600369    0.001009340971    0.4802226979      0.8586271806      
                  0.4802226979      0.8586271806      -0.01409524818    -0.0005733930512  
425000000         -0.01655711808    0.001454231158    0.4907734231      0.8526442786      
                  0.4907734231      0.8526442786      -0.01437769093    -0.0004991410753  
426000000         -0.01616466131    0.001683778013    0.5012140017      0.8465497545      
                  0.5012140017      0.8465497545      -0.015025601      -6.678527528e-05  
427000000         -0.01568587225    0.001728575013    0.5115693327      0.8403003706      
                  0.5115693327      0.8403003706      -0.01537901461    0.0008035969389   
428000000         -0.01526673393    0.001600756996    0.5218441536      0.8339242352      
                  0.5218441536      0.8339242352      -0.01561490977    0.002014256535    
429000000         -0.0149434863     0.00118874616     0.5320344159      0.827430129       
                  0.5320344159      0.827430129       -0.01546500701    0.003572039789    
430000000         -0.01476475273    0.0006754649999   0.5421571217      0.820798122       
                  0.5421571217      0.820798122       -0.0150094728     0.005103152294    
431000000         -0.01511901815    0.0009702596524   0.5521777802      0.8140630978      
                  0.5521777802      0.8140630978      -0.01419070203    0.005078270647    
432000000         -0.01535298759    0.001369957218    0.5621303188      0.8071700017      
                  0.5621303188      0.8071700017      -0.01364162529    0.004679716751    
433000000         -0.01544590106    0.001725537571    0.5720661325      0.8002251351      
                  0.5720661325      0.8002251351      -0.01315059187    0.004363125362    
434000000         -0.01545057512    0.002101193344    0.5818120866      0.7931083062      
                  0.5818120866      0.7931083062      -0.01316445912    0.004288130847    
435000000         -0.01537795749    0.002440342076    0.5914921482      0.7858786664      
                  0.5914921482      0.7858786664      -0.01292891513    0.00441284166     
436000000         -0.01514251861    0.002700822378    0.6011710336      0.7784975169      
                  0.6011710336      0.7784975169      -0.01311853656    0.004357175403    
437000000         -0.01479107982    0.00291601873     0.610669125       0.7710666831      
                  0.610669125       0.7710666831      -0.01338161435    0.004725630312    
438000000         -0.0145197146     0.003070103767    0.6201111661      0.7634661536      
                  0.6201111661      0.7634661536      -0.01338615916    0.005235914314    
439000000         -0.01405729945    0.003169699892    0.6294082411      0.7557455424      
                  0.6294082411      0.7557455424      -0.01381338885    0.0059730039      
440000000         -0.01363956603    0.003057315757    0.6386261543      0.7480033891      
                  0.6386261543      0.7480033891      -0.01400125795    0.006871683224    
441000000         -0.01361730582    0.003319759494    0.6477554753      0.7400171446      
                  0.6477554753      0.7400171446      -0.01384299159    0.006823934149    
442000000         -0.0134898057     0.003525105996    0.6567821822      0.7320068939      
                  0.6567821822      0.7320068939      -0.01368060608    0.006965875389    
443000000         -0.01330765651    0.003789962128    0.6657442815      0.723854015       
                  0.6657442815      0.723854015       -0.01349457397    0.007052405596    
444000000         -0.01315355332    0.004016380784    0.6745712376      0.7155934875      
                  0.6745712376      0.7155934875      -0.01334937807    0.007250640476    
445000000         -0.01296673012    0.004209419458    0.6833309348      0.7072408837      
                  0.6833309348      0.7072408837      -0.01332505141    0.007288949811    
446000000         -0.0128105948     0.004462701742    0.691896529       0.6987853368      
                  0.691896529       0.6987853368      -0.01315038898    0.007558102643    
447000000         -0.01261044116    0.00457018726     0.7004716846      0.6902293161      
                  0.7004716846      0.6902293161      -0.01322889246    0.007693718684    
448000000         -0.012374447      0.004770278028    0.7088746049      0.6815387165      
                  0.7088746049      0.6815387165      -0.01298171367    0.007959495819    
449000000         -0.01214138855    0.004945938841    0.7171917281      0.6727741658      
                  0.7171917281      0.6727741658      -0.0129842875     0.0081273711      
450000000         -0.01189323657    0.005109149413    0.7253713673      0.6638423275      
                  0.7253713673      0.6638423275      -0.0129239605     0.00836684934     
451000000         -0.01171185972    0.005247582583    0.7334961885      0.6548877474      
                  0.7334961885      0.6548877474      -0.01278697745    0.008445367679    
452000000         -0.01155055104    0.005492319253    0.7415021971      0.6457834777      
                  0.7415021971      0.6457834777      -0.01256737571    0.008577347681    
453000000         -0.01137182275    0.005660735367    0.7493413884      0.6366093597      
                  0.7493413884      0.6366093597      -0.0123692451     0.008549642188    
454000000         -0.01113774159    0.005827698689    0.7571170991      0.627315567       
                  0.7571170991      0.627315567       -0.01230796601    0.008819723301    
455000000         -0.01088537995    0.006036954052    0.7647629368      0.6179616499      
                  0.7647629368      0.6179616499      -0.01202830362    0.00886645857     
456000000         -0.01063563697    0.006092095344    0.7722968062      0.6085171735      
                  0.7722968062      0.6085171735      -0.01189429512    0.008864463662    
457000000         -0.01040764708    0.006320504779    0.7796915117      0.5989781579      
                  0.7796915117      0.5989781579      -0.01176077734    0.008998324994    
458000000         -0.01017709503    0.006368205828    0.7870009953      0.589330902       
                  0.7870009953      0.589330902       -0.01179451142    0.00933531347     
459000000         -0.009941004969   0.006511965695    0.7941827064      0.5795914935      
                  0.7941827064      0.5795914935      -0.01158835381    0.009303904831    
460000000         -0.009703358411   0.006648935202    0.8012481886      0.5697892253      
                  0.8012481886      0.5697892253      -0.01137796286    0.009544109833    
461000000         -0.009420569641   0.00680684444     0.8081428577      0.5598493084      
                  0.8081428577      0.5598493084      -0.01121514775    0.009449768057    
462000000         -0.009206676014   0.006925877648    0.8149727378      0.5498790259      
                  0.8149727378      0.5498790259      -0.01106972043    0.009521860262    
463000000         -0.008962920678   0.007039956302    0.8216595766      0.5397877412      
                  0.8216595766      0.5397877412      -0.01104195342    0.009669146154    
464000000         -0.00868756844    0.007160054891    0.8282633372      0.5296435912      
                  0.8282633372      0.5296435912      -0.01094937527    0.009708138365    
465000000         -0.008465005039   0.007326022908    0.8346313262      0.5194114435      
                  0.8346313262      0.5194114435      -0.01074864247    0.009972815358    
466000000         -0.008170896771   0.007428751584    0.8409963533      0.5091142807      
                  0.8409963533      0.5091142807      -0.01067008144    0.009950883391    
467000000         -0.007909150062   0.007536287642    0.8471496696      0.498738473       
                  0.8471496696      0.498738473       -0.01046737413    0.01002870834     
468000000         -0.007575492379   0.007578509807    0.8532038082      0.4882731793      
                  0.8532038082      0.4882731793      -0.01030334884    0.0100329271      
469000000         -0.007319344422   0.007641423948    0.8590942039      0.4777138515      
                  0.8590942039      0.4777138515      -0.01022559004    0.01016392456     
470000000         -0.007118805471   0.007724589266    0.8649059595      0.4670843127      
                  0.8649059595      0.4670843127      -0.01012224       0.0102165551      
471000000         -0.006877111951   0.007822257411    0.8705578169      0.4564091091      
                  0.8705578169      0.4564091091      -0.009945911386   0.01030185296     
472000000         -0.006528218815   0.00785724511     0.876150723       0.4456741268      
                  0.876150723       0.4456741268      -0.00971270308    0.01019253853     
473000000         -0.006281340007   0.007932407423    0.8815293559      0.4348769946      
                  0.8815293559      0.4348769946      -0.009483781335   0.01036407313     
474000000         -0.006024360824   0.007996019353    0.8867565359      0.4239557795      
                  0.8867565359      0.4239557795      -0.009340245896   0.01044953477     
475000000         -0.005764608396   0.008043706709    0.8919409704      0.4130181359      
                  0.8919409704      0.4130181359      -0.009240856724   0.01047062186     
476000000         -0.005449188694   0.008071432642    0.8969136892      0.4020044568      
                  0.8969136892      0.4020044568      -0.009104698302   0.0105314318      
477000000         -0.00519889537    0.008105975754    0.9017774743      0.3909518905      
                  0.9017774743      0.3909518905      -0.008969213859   0.01044116809     
478000000         -0.004921034204   0.008122300662    0.9065027116      0.3797741962      
                  0.9065027116      0.3797741962      -0.00873457306    0.01055108263     
479000000         -0.004659959812   0.008106202722    0.9111220855      0.3686264034      
                  0.9111220855      0.3686264034      -0.00861849143    0.01054848223     
480000000         -0.004351045743   0.008127926776    0.9155565962      0.3573923334      
                  0.9155565962      0.3573923334      -0.008387619057   0.01053767842     
481000000         -0.004040197452   0.008139106119    0.9198483493      0.3461174887      
                  0.9198483493      0.3461174887      -0.008153263075   0.01071407613     
482000000         -0.003771152443   0.008166566353    0.9239892388      0.3347610384      
                  0.9239892388      0.3347610384      -0.008032611631   0.01076034887     
483000000         -0.003498599436   0.008150139582    0.9280598712      0.3233651274      
                  0.9280598712      0.3233651274      -0.007883715881   0.01072522687     
484000000         -0.003232463947   0.008119027114    0.9319547296      0.3119153798      
                  0.9319547296      0.3119153798      -0.007848531369   0.01062843601     
485000000         -0.002962469614   0.008083333732    0.9357140854      0.3003938484      
                  0.9357140854      0.3003938484      -0.007689554047   0.01057798642     
486000000         -0.002642883731   0.008080640747    0.9393454625      0.2889197142      
                  0.9393454625      0.2889197142      -0.007560380965   0.01062309895     
487000000         -0.002412637644   0.008035936762    0.9427754264      0.2772912503      
                  0.9427754264      0.2772912503      -0.00740192651    0.01066030056     
488000000         -0.002136210274   0.007947474064    0.9461300544      0.2656763839      
                  0.9461300544      0.2656763839      -0.007257906921   0.01059788182     
489000000         -0.001795043066   0.007899300984    0.9493013331      0.2540046196      
                  0.9493013331      0.2540046196      -0.006876315315   0.01032486235     
490000000         -0.00161092714    0.007815838102    0.9523733458      0.2422776858      
                  0.9523733458      0.2422776858      -0.00700768626    0.01038474165     
491000000         -0.001354551087   0.007753503153    0.9552961796      0.2305885349      
                  0.9552961796      0.2305885349      -0.006693816042   0.01039547323     
492000000         -0.00102831487    0.007724683464    0.9579796465      0.2188268106      
                  0.9579796465      0.2188268106      -0.006540101395   0.01042820123     
493000000         -0.0007843599256  0.0076046879      0.9606016015      0.2070471727      
                  0.9606016015      0.2070471727      -0.006386193921   0.01038538642     
494000000         -0.0005047289749  0.007574567049    0.9629972829      0.1951483708      
                  0.9629972829      0.1951483708      -0.006299692425   0.01052424381     
495000000         -0.0003162531202  0.007420464047    0.9653716101      0.1833465947      
                  0.9653716101      0.1833465947      -0.006177514168   0.01026984932     
496000000         3.387597429e-05   0.007353197224    0.9675387261      0.1714380522      
                  0.9675387261      0.1714380522      -0.005912501624   0.01028418083     
497000000         0.0002542039917   0.0072796512      0.9695259826      0.1595568414      
                  0.9695259826      0.1595568414      -0.005696969569   0.0102829643      
498000000         0.0004816139758   0.007190197728    0.9714196082      0.1476249015      
                  0.9714196082      0.1476249015      -0.005572833845   0.0102229927      
499000000         0.0007730087338   0.007006363294    0.9731734902      0.1356632179      
                  0.9731734902      0.1356632179      -0.005285231928   0.01009146818     
500000000         0.0009759348066   0.006875149296    0.9747149148      0.1237110303      
                  0.9747149148      0.1237110303      -0.005260527307   0.01006738902     
