! RsaToolbox (C) 2014 Rohde & Schwarz America
! 
! Number of points: 101
! Number of ports: 2
! Balanced ports?: No
! 
! 
# Hz S RI R 50
400000000         -0.02062622879    0.004623828377    0.2464760413      0.9550265532      
                  0.2464760413      0.9550265532      -0.02965322449    -0.006657711969   
401000000         -0.02029953213    0.005113998019    0.258285336       0.95187772        
                  0.258285336       0.95187772        -0.03040909352    -0.006439095797   
402000000         -0.01990450202    0.005406185423    0.2700403076      0.9485686335      
                  0.2700403076      0.9485686335      -0.03109245498    -0.005541673924   
403000000         -0.01960758516    0.005680338343    0.2817959273      0.945158217       
                  0.2817959273      0.945158217       -0.031566253      -0.00505447153    
404000000         -0.01941782522    0.005880527289    0.2934627729      0.9415468041      
                  0.2934627729      0.9415468041      -0.0316370785     -0.004380660313   
405000000         -0.01930614274    0.006115500969    0.3051412573      0.9378413453      
                  0.3051412573      0.9378413453      -0.03165162315    -0.003906528416   
406000000         -0.01932152175    0.006264089641    0.3167351017      0.9339678378      
                  0.3167351017      0.9339678378      -0.03154804742    -0.003531851732   
407000000         -0.01933164418    0.006486094561    0.3282204367      0.9299767778      
                  0.3282204367      0.9299767778      -0.03125287388    -0.003120918573   
408000000         -0.01942205038    0.006801931888    0.3397237555      0.9258020092      
                  0.3397237555      0.9258020092      -0.03094129027    -0.002942491627   
409000000         -0.01956449134    0.007139542751    0.351196545       0.9215050864      
                  0.351196545       0.9215050864      -0.03060484175    -0.002924280816   
410000000         -0.0197287478     0.007527762042    0.3625900066      0.9170670808      
                  0.3625900066      0.9170670808      -0.03040414285    -0.003087983751   
411000000         -0.01955023912    0.00766663803     0.3738640834      0.9125283841      
                  0.3738640834      0.9125283841      -0.03014091683    -0.002478055767   
412000000         -0.01948098654    0.00782993217     0.3852065615      0.9078104295      
                  0.3852065615      0.9078104295      -0.03005923244    -0.001943823819   
413000000         -0.01935325353    0.008022227416    0.3963731887      0.9029378688      
                  0.3963731887      0.9029378688      -0.02999283115    -0.001488319765   
414000000         -0.01920225568    0.0082262451      0.4075570404      0.897942855       
                  0.4075570404      0.897942855       -0.02979085807    -0.001026493805   
415000000         -0.01911187688    0.008528854579    0.4185954752      0.8927880737      
                  0.4185954752      0.8927880737      -0.02974828987    -0.0005143834141  
416000000         -0.01902996182    0.0088246217      0.4296464956      0.8875291127      
                  0.4296464956      0.8875291127      -0.02950333243    -0.0004151282651  
417000000         -0.0188376793     0.009174644052    0.4405712756      0.8821265634      
                  0.4405712756      0.8821265634      -0.02966163124    3.161095373e-05   
418000000         -0.01864265529    0.009542764589    0.45147227        0.8766065283      
                  0.45147227        0.8766065283      -0.0296205287     0.0001579377787   
419000000         -0.01841579117    0.009907358352    0.4622828595      0.8709308262      
                  0.4622828595      0.8709308262      -0.02980648773    0.0004825963737   
420000000         -0.01819440742    0.01025866185     0.4730403539      0.8650994948      
                  0.4730403539      0.8650994948      -0.02985766701    0.0006251381075   
421000000         -0.01809023802    0.01048178879     0.4837266392      0.8591685931      
                  0.4837266392      0.8591685931      -0.02953779029    0.0009462678234   
422000000         -0.01797167986    0.01064158904     0.4943307979      0.8531040511      
                  0.4943307979      0.8531040511      -0.02926776745    0.001384414611    
423000000         -0.0178393625     0.01086153966     0.5048372144      0.8469053656      
                  0.5048372144      0.8469053656      -0.02918911632    0.001655521025    
424000000         -0.01761266205    0.01108652942     0.5152883467      0.840571208       
                  0.5152883467      0.840571208       -0.02899801373    0.002064071842    
425000000         -0.0174479153     0.0113311484      0.5256692077      0.8341146001      
                  0.5256692077      0.8341146001      -0.02872350815    0.002375640602    
426000000         -0.01718226946    0.01153469545     0.5359354397      0.8275233597      
                  0.5359354397      0.8275233597      -0.02860967674    0.002854162905    
427000000         -0.01696295061    0.01178337142     0.5461316634      0.8208075949      
                  0.5461316634      0.8208075949      -0.02853709753    0.003106490642    
428000000         -0.01672470622    0.0120023069      0.5562456097      0.8139983374      
                  0.5562456097      0.8139983374      -0.02837782101    0.00351352408     
429000000         -0.01646498428    0.01218710804     0.5663246845      0.8070096296      
                  0.5663246845      0.8070096296      -0.0282588983     0.003814868569    
430000000         -0.01616868359    0.01240081044     0.5762141321      0.7999445757      
                  0.5762141321      0.7999445757      -0.02816584445    0.004248281964    
431000000         -0.01591967395    0.01262409483     0.586050514       0.7926998116      
                  0.586050514       0.7926998116      -0.02790679553    0.004502982912    
432000000         -0.01574928455    0.01281142095     0.5958439749      0.7854020536      
                  0.5958439749      0.7854020536      -0.02764273689    0.004900505543    
433000000         -0.01551580234    0.01300106334     0.6055175007      0.77794093        
                  0.6055175007      0.77794093        -0.02737121061    0.005213138808    
434000000         -0.01531443069    0.01318683006     0.6151004249      0.7703488864      
                  0.6151004249      0.7703488864      -0.02711386175    0.005429265316    
435000000         -0.01504599073    0.01336733252     0.6245915184      0.762668198       
                  0.6245915184      0.762668198       -0.02696706068    0.005805518943    
436000000         -0.01474736761    0.01351520735     0.6339833736      0.7548592153      
                  0.6339833736      0.7548592153      -0.02662520871    0.006054135846    
437000000         -0.01451803721    0.01367160473     0.6432512255      0.746961157       
                  0.6432512255      0.746961157       -0.02645232602    0.006387339516    
438000000         -0.01423137879    0.01380010333     0.6524702151      0.7388929547      
                  0.6524702151      0.7388929547      -0.02611062883    0.006678560409    
439000000         -0.0139356206     0.01398364094     0.6615488248      0.7307526411      
                  0.6615488248      0.7307526411      -0.02603101686    0.007145879387    
440000000         -0.01359210201    0.01407593339     0.6705561657      0.7224964993      
                  0.6705561657      0.7224964993      -0.02576879977    0.007428616759    
441000000         -0.01335901934    0.01424975772     0.6794563989      0.7141348737      
                  0.6794563989      0.7141348737      -0.0254165398     0.007707431585    
442000000         -0.0131185156     0.0143461643      0.6882315222      0.7056298197      
                  0.6882315222      0.7056298197      -0.02518676647    0.008108077655    
443000000         -0.01277424848    0.01452029715     0.6969025064      0.6970577631      
                  0.6969025064      0.6970577631      -0.0250195126     0.00832670864     
444000000         -0.01254092895    0.01461366075     0.7055114237      0.6883721908      
                  0.7055114237      0.6883721908      -0.02460368919    0.008576934742    
445000000         -0.01225029496    0.01475738512     0.7139609345      0.679561312       
                  0.7139609345      0.679561312       -0.02436834997    0.008775024297    
446000000         -0.0119393706     0.01487757593     0.7223054884      0.6706480019      
                  0.7223054884      0.6706480019      -0.02418023095    0.009091510034    
447000000         -0.01163372305    0.01499079174     0.7305339537      0.6616448919      
                  0.7305339537      0.6616448919      -0.02369814799    0.009384904186    
448000000         -0.01133906332    0.01499302646     0.7386845146      0.6525203589      
                  0.7386845146      0.6525203589      -0.02354711936    0.009745200633    
449000000         -0.01104286318    0.01504591848     0.7466904126      0.643333543       
                  0.7466904126      0.643333543       -0.02305025265    0.009903610386    
450000000         -0.01078370163    0.01513880174     0.7546069109      0.634018583       
                  0.7546069109      0.634018583       -0.02297333774    0.01029589039     
451000000         -0.01044545889    0.01523448719     0.7623949456      0.6246057583      
                  0.7623949456      0.6246057583      -0.02251470682    0.01046487457     
452000000         -0.01011534751    0.01530290074     0.7700871878      0.6151150239      
                  0.7700871878      0.6151150239      -0.02206378659    0.01060736616     
453000000         -0.009874070695   0.01538056357     0.7776030152      0.6055234337      
                  0.7776030152      0.6055234337      -0.02168240793    0.01085324877     
454000000         -0.009574273478   0.01533361273     0.7850565631      0.5958311681      
                  0.7850565631      0.5958311681      -0.02139994419    0.01098290686     
455000000         -0.00930199244    0.01546270415     0.7923676683      0.5860434387      
                  0.7923676683      0.5860434387      -0.02101902323    0.01131091771     
456000000         -0.009004245578   0.01544234152     0.7995548843      0.576144928       
                  0.7995548843      0.576144928       -0.02069900836    0.01145709403     
457000000         -0.008713774355   0.01546876261     0.8065957939      0.5661925568      
                  0.8065957939      0.5661925568      -0.02039150133    0.01174522484     
458000000         -0.00840400642    0.01553143154     0.8135512615      0.5561453171      
                  0.8135512615      0.5561453171      -0.01989367579    0.01187926085     
459000000         -0.008071135325   0.0155531586      0.8204059448      0.5460276459      
                  0.8204059448      0.5460276459      -0.01966267215    0.01207813841     
460000000         -0.007793161773   0.0154782039      0.8270955153      0.5357991056      
                  0.8270955153      0.5357991056      -0.01914694042    0.01218961129     
461000000         -0.007419707998   0.01549589933     0.8336593579      0.5255166475      
                  0.8336593579      0.5255166475      -0.01874292678    0.01230816241     
462000000         -0.007166132082   0.01546707858     0.8400872935      0.5151688189      
                  0.8400872935      0.5151688189      -0.01840891552    0.01247159976     
463000000         -0.006869357352   0.01546689762     0.8464138804      0.5046655094      
                  0.8464138804      0.5046655094      -0.01798516288    0.01265896173     
464000000         -0.006581401033   0.01546943476     0.8525840729      0.4941399748      
                  0.8525840729      0.4941399748      -0.01758922707    0.01277110647     
465000000         -0.006262838997   0.01548353491     0.8586119102      0.4835421468      
                  0.8586119102      0.4835421468      -0.01707243485    0.01297255103     
466000000         -0.0059506382     0.01538314001     0.8645424761      0.4728393117      
                  0.8645424761      0.4728393117      -0.01674806902    0.01304731391     
467000000         -0.005659748739   0.01538207255     0.8703262697      0.4621023745      
                  0.8703262697      0.4621023745      -0.01627243367    0.01312471147     
468000000         -0.005386980849   0.0152805188      0.8759790009      0.4512627936      
                  0.8759790009      0.4512627936      -0.01596164995    0.01312819773     
469000000         -0.005103866204   0.01526415598     0.8814971254      0.4403674035      
                  0.8814971254      0.4403674035      -0.01564025644    0.0133379288      
470000000         -0.004818288355   0.01513488126     0.8868979124      0.4293931182      
                  0.8868979124      0.4293931182      -0.0152628861     0.01326616667     
471000000         -0.004469056362   0.01514012697     0.8921227992      0.4184091343      
                  0.8921227992      0.4184091343      -0.01465839168    0.01339127004     
472000000         -0.004195072864   0.01505118205     0.8972204999      0.4072680554      
                  0.8972204999      0.4072680554      -0.01439533558    0.01349418076     
473000000         -0.003977367682   0.0148986599      0.9021761245      0.3961122477      
                  0.9021761245      0.3961122477      -0.01404494908    0.01347675775     
474000000         -0.003713233649   0.01484229442     0.9070375459      0.38494213        
                  0.9070375459      0.38494213        -0.01353981997    0.01360681421     
475000000         -0.003417163944   0.01474087513     0.9116949879      0.373609704       
                  0.9116949879      0.373609704       -0.01306353441    0.01372686141     
476000000         -0.003094589441   0.01462949009     0.9162533521      0.362318279       
                  0.9162533521      0.362318279       -0.0126307809     0.01381664683     
477000000         -0.002876832252   0.01453597527     0.9206587139      0.3509218573      
                  0.9206587139      0.3509218573      -0.01222055084    0.0137581703      
478000000         -0.002556298607   0.0143789961      0.9249483423      0.3395011409      
                  0.9249483423      0.3395011409      -0.01172012697    0.01374152544     
479000000         -0.002320474408   0.01426285138     0.9290999671      0.3279905516      
                  0.9290999671      0.3279905516      -0.01138145894    0.01371550073     
480000000         -0.002056723491   0.01414149867     0.9330345674      0.3164373614      
                  0.9330345674      0.3164373614      -0.01093976049    0.01370909231     
481000000         -0.001831785887   0.01402595398     0.9368975693      0.3048621424      
                  0.9368975693      0.3048621424      -0.0106090518     0.01376912595     
482000000         -0.001523105925   0.01388020479     0.9405829787      0.2931855335      
                  0.9405829787      0.2931855335      -0.01020468786    0.01374465206     
483000000         -0.00129990421    0.01373166997     0.9441381871      0.2815205505      
                  0.9441381871      0.2815205505      -0.009843819439   0.01365710285     
484000000         -0.001074128251   0.0136010815      0.9475112339      0.2698025097      
                  0.9475112339      0.2698025097      -0.009412249711   0.01366237985     
485000000         -0.0008202128883  0.01348102586     0.9507807185      0.2580339399      
                  0.9507807185      0.2580339399      -0.009038918784   0.01370541656     
486000000         -0.0005742537595  0.01325729818     0.9539179436      0.2462190734      
                  0.9539179436      0.2462190734      -0.008685207373   0.01348974611     
487000000         -0.0003592066856  0.01314479182     0.9568717346      0.2343810277      
                  0.9568717346      0.2343810277      -0.008292120847   0.01357629314     
488000000         -8.325406305e-05  0.01289125003     0.9597240269      0.2225083411      
                  0.9597240269      0.2225083411      -0.00787368625    0.01338873982     
489000000         0.0001511366568   0.01282903304     0.9623647977      0.2105618596      
                  0.9623647977      0.2105618596      -0.007389156101   0.01342172556     
490000000         0.0003434952261   0.01259053204     0.9648816812      0.1986519491      
                  0.9648816812      0.1986519491      -0.007062392302   0.01331219796     
491000000         0.000628776896    0.012447214       0.9672485281      0.1866712441      
                  0.9672485281      0.1866712441      -0.006585162511   0.01328995403     
492000000         0.0008220999098   0.01221151387     0.9694708813      0.1746798449      
                  0.9694708813      0.1746798449      -0.006210917645   0.01306661054     
493000000         0.001046087571    0.01203668734     0.971582703       0.1626526519      
                  0.971582703       0.1626526519      -0.005869453709   0.01296855738     
494000000         0.001247033101    0.01178589871     0.9735236989      0.1505927436      
                  0.9735236989      0.1505927436      -0.005476262272   0.01278960687     
495000000         0.001416865011    0.01157338129     0.9752639878      0.138503573       
                  0.9752639878      0.138503573       -0.005157615195   0.01264018295     
496000000         0.001645219099    0.01141143595     0.9769114144      0.1264145297      
                  0.9769114144      0.1264145297      -0.004733394578   0.01259364732     
497000000         0.001828874875    0.01118454955     0.9784273775      0.1142914163      
                  0.9784273775      0.1142914163      -0.004303652173   0.01230765261     
498000000         0.001987174407    0.01097759342     0.9796858097      0.1021638814      
                  0.9796858097      0.1021638814      -0.003980907876   0.01219839617     
499000000         0.002185670976    0.01069971774     0.9809056644      0.09000193131     
                  0.9809056644      0.09000193131     -0.003657232005   0.01186295971     
500000000         0.002352126037    0.01052596707     0.9819375285      0.07784380148     
                  0.9819375285      0.07784380148     -0.003271915449   0.01198024578     
